Time Stamp,ID,Extended,Dir,Bus,LEN,D1,D2,D3,D4,D5,D6,D7,D8
421356337,000001C2,false,Rx,0,8,22,22,92,22,22,22,42,22,
421357895,000001C1,false,Rx,0,8,22,22,92,22,22,22,42,22,
421361564,000001C0,false,Rx,0,8,22,22,92,22,22,22,42,22,
421364809,00000203,false,Rx,0,8,35,35,40,45,3B,00,00,00,
421370746,00000103,false,Rx,0,8,00,00,00,10,00,00,40,C6,
421380390,00000202,false,Rx,0,8,35,36,40,43,3C,00,00,00,
421382030,00000201,false,Rx,0,8,35,35,40,41,3D,00,00,00,
421385482,000001D4,false,Rx,0,8,22,99,29,22,22,22,99,99,
421385693,00000200,false,Rx,0,8,34,35,40,3D,3C,00,00,00,
421386400,00000102,false,Rx,0,8,00,00,00,10,00,00,50,6E,
421387959,00000101,false,Rx,0,8,00,00,00,10,00,00,50,C1,
421391625,00000100,false,Rx,0,8,00,00,00,10,00,00,50,A4,
421397559,00000104,false,Rx,0,8,00,00,00,10,00,00,70,AA,
421401053,00000105,false,Rx,0,8,00,00,00,10,00,00,90,7D,
28463,000001C4,false,Rx,0,8,22,22,92,22,22,22,42,22,
31797,00000103,false,Rx,0,8,00,00,00,10,00,00,50,0B,
47453,00000102,false,Rx,0,8,00,00,00,10,00,00,60,24,
48926,00000101,false,Rx,0,8,00,00,00,10,00,00,60,8B,
52500,00000204,false,Rx,0,8,35,35,40,39,3D,00,00,00,
52711,00000100,false,Rx,0,8,00,00,00,10,00,00,60,EE,
56034,00000205,false,Rx,0,8,34,34,40,46,3C,00,00,00,
58515,00000104,false,Rx,0,8,00,00,00,10,00,00,80,D5,
62010,00000105,false,Rx,0,8,00,00,00,10,00,00,A0,37,
75749,00000203,false,Rx,0,8,35,35,40,45,3B,00,00,00,
81774,00000103,false,Rx,0,8,00,00,00,10,00,00,60,41,
91500,00000202,false,Rx,0,8,35,36,40,43,3D,00,00,00,
93056,00000201,false,Rx,0,8,35,35,40,41,3D,00,00,00,
96663,00000200,false,Rx,0,8,34,35,40,3D,3C,00,00,00,
97646,00000102,false,Rx,0,8,00,00,00,10,00,00,70,E9,
99030,00000101,false,Rx,0,8,00,00,00,10,00,00,70,46,
99911,000001D5,false,Rx,0,8,22,99,29,22,22,22,99,99,
102648,00000100,false,Rx,0,8,00,00,00,10,00,00,70,23,
108497,00000104,false,Rx,0,8,00,00,00,10,00,00,90,18,
111909,00000105,false,Rx,0,8,00,00,00,10,00,00,B0,FA,
119901,000001D3,false,Rx,0,8,22,99,29,22,22,22,99,99,
131837,00000103,false,Rx,0,8,00,00,00,10,00,00,70,8C,
132124,000001C5,false,Rx,0,8,22,22,92,22,22,22,42,22,
135454,000001D2,false,Rx,0,8,22,99,29,22,22,22,99,99,
136926,000001D1,false,Rx,0,8,22,99,29,22,22,22,99,99,
140583,000001D0,false,Rx,0,8,22,99,29,22,22,22,99,99,
147471,00000102,false,Rx,0,8,00,00,00,10,00,00,80,96,
148946,00000101,false,Rx,0,8,00,00,00,10,00,00,80,39,
151767,000001C3,false,Rx,0,8,22,22,92,22,22,22,42,22,
152557,00000204,false,Rx,0,8,35,35,40,3A,3D,00,00,00,
152770,00000100,false,Rx,0,8,00,00,00,10,00,00,80,5C,
155923,00000205,false,Rx,0,8,34,34,40,46,3C,00,00,00,
158569,00000104,false,Rx,0,8,00,00,00,10,00,00,A0,52,
161982,00000105,false,Rx,0,8,00,00,00,10,00,00,C0,A3,
167515,000001C2,false,Rx,0,8,22,22,92,22,22,22,42,22,
168903,000001C1,false,Rx,0,8,22,22,92,22,22,22,42,22,
172468,000001C0,false,Rx,0,8,22,22,92,22,22,22,42,22,
175803,00000203,false,Rx,0,8,35,35,40,45,3B,00,00,00,
181827,00000103,false,Rx,0,8,00,00,00,10,00,00,80,F3,
191473,00000202,false,Rx,0,8,35,36,40,43,3C,00,00,00,
192946,00000201,false,Rx,0,8,35,35,40,41,3D,00,00,00,
196432,000001D4,false,Rx,0,8,22,99,29,22,22,22,99,99,
196642,00000200,false,Rx,0,8,34,35,40,3D,3C,00,00,00,
197515,00000102,false,Rx,0,8,00,00,00,10,00,00,90,5B,
198938,00000101,false,Rx,0,8,00,00,00,10,00,00,90,F4,
202524,00000100,false,Rx,0,8,00,00,00,10,00,00,90,91,
208465,00000104,false,Rx,0,8,00,00,00,10,00,00,B0,9F,
211986,00000105,false,Rx,0,8,00,00,00,10,00,00,D0,6E,
228495,000001C4,false,Rx,0,8,22,22,92,22,22,22,42,22,
231906,00000103,false,Rx,0,8,00,00,00,10,00,00,90,3E,
247538,00000102,false,Rx,0,8,00,00,00,10,00,00,A0,11,
248928,00000101,false,Rx,0,8,00,00,00,10,00,00,A0,BE,
252500,00000204,false,Rx,0,8,35,35,40,3A,3D,00,00,00,
252795,00000100,false,Rx,0,8,00,00,00,10,00,00,A0,DB,
256118,00000205,false,Rx,0,8,34,34,40,46,3C,00,00,00,
258515,00000104,false,Rx,0,8,00,00,00,10,00,00,C0,C6,
262093,00000105,false,Rx,0,8,00,00,00,10,00,00,E0,24,
275910,00000203,false,Rx,0,8,35,35,40,45,3B,00,00,00,
281851,00000103,false,Rx,0,8,00,00,00,10,00,00,A0,74,
291442,00000202,false,Rx,0,8,35,36,40,43,3C,00,00,00,
292832,00000201,false,Rx,0,8,35,35,40,41,3D,00,00,00,
296665,00000200,false,Rx,0,8,34,35,40,3D,3C,00,00,00,
297457,00000102,false,Rx,0,8,00,00,00,10,00,00,B0,DC,
298932,00000101,false,Rx,0,8,00,00,00,10,00,00,B0,73,
299980,000001D5,false,Rx,0,8,22,99,29,22,22,22,99,99,
302579,00000100,false,Rx,0,8,00,00,00,10,00,00,B0,16,
308518,00000104,false,Rx,0,8,00,00,00,10,00,00,D0,0B,
312015,00000105,false,Rx,0,8,00,00,00,10,00,00,00,96,
319897,000001D3,false,Rx,0,8,22,99,29,22,22,22,99,99,
331980,00000103,false,Rx,0,8,00,00,00,10,00,00,B0,B9,
332183,000001C5,false,Rx,0,8,22,22,92,22,22,22,42,22,
335506,000001D2,false,Rx,0,8,22,99,29,22,22,22,99,99,
336897,000001D1,false,Rx,0,8,22,99,29,22,22,22,99,99,
340648,000001D0,false,Rx,0,8,22,99,29,22,22,22,99,99,
347521,00000102,false,Rx,0,8,00,00,00,10,00,00,C0,85,
348994,00000101,false,Rx,0,8,00,00,00,10,00,00,C0,2A,
351899,000001C3,false,Rx,0,8,22,22,92,22,22,22,42,22,
352613,00000204,false,Rx,0,8,35,35,40,3A,3D,00,00,00,
352900,00000100,false,Rx,0,8,00,00,00,10,00,00,C0,4F,
355887,00000205,false,Rx,0,8,34,34,40,46,3C,00,00,00,
358537,00000104,false,Rx,0,8,00,00,00,10,00,00,E0,41,
361952,00000105,false,Rx,0,8,00,00,00,10,00,00,10,5B,
367488,000001C2,false,Rx,0,8,22,22,92,22,22,22,42,22,
368879,000001C1,false,Rx,0,8,22,22,92,22,22,22,42,22,
372552,000001C0,false,Rx,0,8,22,22,92,22,22,22,42,22,
376036,00000203,false,Rx,0,8,35,35,40,45,3B,00,00,00,
382058,00000103,false,Rx,0,8,00,00,00,10,00,00,C0,E0,
391369,00000202,false,Rx,0,8,35,36,40,43,3C,00,00,00,
393011,00000201,false,Rx,0,8,35,35,40,41,3D,00,00,00,
396501,000001D4,false,Rx,0,8,22,99,29,22,22,22,99,99,
396712,00000200,false,Rx,0,8,34,35,40,3D,3C,00,00,00,
397418,00000102,false,Rx,0,8,00,00,00,10,00,00,D0,48,
398975,00000101,false,Rx,0,8,00,00,00,10,00,00,D0,E7,
402579,00000100,false,Rx,0,8,00,00,00,10,00,00,D0,82,
408527,00000104,false,Rx,0,8,00,00,00,10,00,00,00,F3,
411940,00000105,false,Rx,0,8,00,00,00,10,00,00,20,11,
428412,000001C4,false,Rx,0,8,22,22,92,22,22,22,42,22,
432159,00000103,false,Rx,0,8,00,00,00,10,00,00,D0,2D,
447377,00000102,false,Rx,0,8,00,00,00,10,00,00,E0,02,
449104,00000101,false,Rx,0,8,00,00,00,10,00,00,E0,AD,
452431,00000204,false,Rx,0,8,35,35,40,3A,3D,00,00,00,
452726,00000100,false,Rx,0,8,00,00,00,10,00,00,E0,C8,
455966,00000205,false,Rx,0,8,34,34,40,46,3C,00,00,00,
458448,00000104,false,Rx,0,8,00,00,00,10,00,00,10,3E,
462030,00000105,false,Rx,0,8,00,00,00,10,00,00,30,DC,
476111,00000203,false,Rx,0,8,35,35,40,45,3B,00,00,00,
482191,00000103,false,Rx,0,8,00,00,00,10,00,00,E0,67,
491250,00000202,false,Rx,0,8,35,36,40,43,3D,00,00,00,
492976,00000201,false,Rx,0,8,35,35,40,41,3D,00,00,00,
496643,00000200,false,Rx,0,8,34,35,40,3D,3C,00,00,00,
497264,00000102,false,Rx,0,8,00,00,00,10,00,00,00,B0,
498988,00000101,false,Rx,0,8,00,00,00,10,00,00,00,1F,
499954,000001D5,false,Rx,0,8,22,99,29,22,22,22,99,99,
502610,00000100,false,Rx,0,8,00,00,00,10,00,00,00,7A,
508327,00000104,false,Rx,0,8,00,00,00,10,00,00,20,74,
511909,00000105,false,Rx,0,8,00,00,00,10,00,00,40,85,
520210,000001D3,false,Rx,0,8,22,99,29,22,22,22,99,99,
531886,000001C5,false,Rx,0,8,22,22,92,22,22,22,42,22,
532257,00000103,false,Rx,0,8,00,00,00,10,00,00,00,D5,
535161,000001D2,false,Rx,0,8,22,99,29,22,22,22,99,99,
537054,000001D1,false,Rx,0,8,22,99,29,22,22,22,99,99,
540574,000001D0,false,Rx,0,8,22,99,29,22,22,22,99,99,
547206,00000102,false,Rx,0,8,00,00,00,10,00,00,10,7D,
549100,00000101,false,Rx,0,8,00,00,00,10,00,00,10,D2,
552255,000001C3,false,Rx,0,8,22,22,92,22,22,22,42,22,
552460,00000204,false,Rx,0,8,35,35,40,3A,3D,00,00,00,
552756,00000100,false,Rx,0,8,00,00,00,10,00,00,10,B7,
555994,00000205,false,Rx,0,8,34,34,40,46,3C,00,00,00,
558304,00000104,false,Rx,0,8,00,00,00,10,00,00,30,B9,
561971,00000105,false,Rx,0,8,00,00,00,10,00,00,50,48,
567248,000001C2,false,Rx,0,8,22,22,92,22,22,22,42,22,
569058,000001C1,false,Rx,0,8,22,22,92,22,22,22,42,22,
572569,000001C0,false,Rx,0,8,22,22,92,22,22,22,42,22,
576232,00000203,false,Rx,0,8,35,35,40,45,3B,00,00,00,
582226,00000103,false,Rx,0,8,00,00,00,10,00,00,10,18,
591202,00000202,false,Rx,0,8,35,36,40,43,3D,00,00,00,
593095,00000201,false,Rx,0,8,35,35,40,41,3D,00,00,00,
596418,000001D4,false,Rx,0,8,22,99,29,22,22,22,99,99,
596630,00000200,false,Rx,0,8,34,35,40,3D,3C,00,00,00,
597167,00000102,false,Rx,0,8,00,00,00,10,00,00,20,37,
599059,00000101,false,Rx,0,8,00,00,00,10,00,00,20,98,
602640,00000100,false,Rx,0,8,00,00,00,10,00,00,20,FD,
608444,00000104,false,Rx,0,8,00,00,00,10,00,00,40,E0,
611952,00000105,false,Rx,0,8,00,00,00,10,00,00,60,02,
628430,000001C4,false,Rx,0,8,22,22,92,22,22,22,42,22,
632181,00000103,false,Rx,0,8,00,00,00,10,00,00,20,52,
647226,00000102,false,Rx,0,8,00,00,00,10,00,00,30,FA,
649035,00000101,false,Rx,0,8,00,00,00,10,00,00,30,55,
652443,00000204,false,Rx,0,8,35,35,40,3A,3D,00,00,00,
652739,00000100,false,Rx,0,8,00,00,00,10,00,00,30,30,
655892,00000205,false,Rx,0,8,34,34,40,46,3C,00,00,00,
658457,00000104,false,Rx,0,8,00,00,00,10,00,00,50,2D,
661876,00000105,false,Rx,0,8,00,00,00,10,00,00,70,CF,
676183,00000203,false,Rx,0,8,35,35,40,45,3B,00,00,00,
682214,00000103,false,Rx,0,8,00,00,00,10,00,00,30,9F,
691108,00000202,false,Rx,0,8,35,36,40,43,3C,00,00,00,
692918,00000201,false,Rx,0,8,35,35,40,41,3D,00,00,00,
696658,00000200,false,Rx,0,8,34,35,40,3D,3C,00,00,00,
697111,00000102,false,Rx,0,8,00,00,00,10,00,00,40,A3,
699003,00000101,false,Rx,0,8,00,00,00,10,00,00,40,0C,
699802,000001D5,false,Rx,0,8,22,99,29,22,22,22,99,99,
702708,00000100,false,Rx,0,8,00,00,00,10,00,00,40,69,
708473,00000104,false,Rx,0,8,00,00,00,10,00,00,60,67,
711829,00000105,false,Rx,0,8,00,00,00,10,00,00,80,B0,
720225,000001D3,false,Rx,0,8,22,99,29,22,22,22,99,99,
731842,000001C5,false,Rx,0,8,22,22,92,22,22,22,42,22,
732213,00000103,false,Rx,0,8,00,00,00,10,00,00,40,C6,
735179,000001D2,false,Rx,0,8,22,99,29,22,22,22,99,99,
736735,000001D1,false,Rx,0,8,22,99,29,22,22,22,99,99,
740650,000001D0,false,Rx,0,8,22,99,29,22,22,22,99,99,
747101,00000102,false,Rx,0,8,00,00,00,10,00,00,50,6E,
748827,00000101,false,Rx,0,8,00,00,00,10,00,00,50,C1,
752149,000001C3,false,Rx,0,8,22,22,92,22,22,22,42,22,
752438,00000204,false,Rx,0,8,35,35,40,3A,3D,00,00,00,
752733,00000100,false,Rx,0,8,00,00,00,10,00,00,50,A4,
755720,00000205,false,Rx,0,8,34,34,40,46,3C,00,00,00,
758451,00000104,false,Rx,0,8,00,00,00,10,00,00,70,AA,
761865,00000105,false,Rx,0,8,00,00,00,10,00,00,90,7D,
767230,000001C2,false,Rx,0,8,22,22,92,22,22,22,42,22,
768793,000001C1,false,Rx,0,8,22,22,92,22,22,22,42,22,
772725,000001C0,false,Rx,0,8,22,22,92,22,22,22,42,22,
776216,00000203,false,Rx,0,8,35,35,40,45,3B,00,00,00,
782157,00000103,false,Rx,0,8,00,00,00,10,00,00,50,0B,
791239,00000202,false,Rx,0,8,35,36,40,43,3C,00,00,00,
792715,00000201,false,Rx,0,8,35,35,40,41,3D,00,00,00,
796373,000001D4,false,Rx,0,8,22,99,29,22,22,22,99,99,
796663,00000200,false,Rx,0,8,34,35,40,3D,3C,00,00,00,
797285,00000102,false,Rx,0,8,00,00,00,10,00,00,60,24,
798843,00000101,false,Rx,0,8,00,00,00,10,00,00,60,8B,
802675,00000100,false,Rx,0,8,00,00,00,10,00,00,60,EE,
808352,00000104,false,Rx,0,8,00,00,00,10,00,00,80,D5,
811677,00000105,false,Rx,0,8,00,00,00,10,00,00,A0,37,
828275,000001C4,false,Rx,0,8,22,22,92,22,22,22,42,22,
832275,00000103,false,Rx,0,8,00,00,00,10,00,00,60,41,
847191,00000102,false,Rx,0,8,00,00,00,10,00,00,70,E9,
848833,00000101,false,Rx,0,8,00,00,00,10,00,00,70,46,
852405,00000204,false,Rx,0,8,35,35,40,3A,3D,00,00,00,
852616,00000100,false,Rx,0,8,00,00,00,10,00,00,70,23,
855515,00000205,false,Rx,0,8,34,34,40,46,3C,00,00,00,
858333,00000104,false,Rx,0,8,00,00,00,10,00,00,90,18,
861664,00000105,false,Rx,0,8,00,00,00,10,00,00,B0,FA,
876390,00000203,false,Rx,0,8,35,35,40,45,3B,00,00,00,
882328,00000103,false,Rx,0,8,00,00,00,10,00,00,70,8C,
891234,00000202,false,Rx,0,8,35,36,40,43,3C,00,00,00,
892792,00000201,false,Rx,0,8,35,35,40,41,3D,00,00,00,
896537,00000200,false,Rx,0,8,34,35,40,3D,3C,00,00,00,
897333,00000102,false,Rx,0,8,00,00,00,10,00,00,80,96,
898892,00000101,false,Rx,0,8,00,00,00,10,00,00,80,39,
899607,000001D5,false,Rx,0,8,22,99,29,22,22,22,99,99,
902675,00000100,false,Rx,0,8,00,00,00,10,00,00,80,5C,
908190,00000104,false,Rx,0,8,00,00,00,10,00,00,A0,52,
911691,00000105,false,Rx,0,8,00,00,00,10,00,00,C0,A3,
920358,000001D3,false,Rx,0,8,22,99,29,22,22,22,99,99,
931701,000001C5,false,Rx,0,8,22,22,92,22,22,22,42,22,
932407,00000103,false,Rx,0,8,00,00,00,10,00,00,80,F3,
935226,000001D2,false,Rx,0,8,22,99,29,22,22,22,99,99,
936784,000001D1,false,Rx,0,8,22,99,29,22,22,22,99,99,
940531,000001D0,false,Rx,0,8,22,99,29,22,22,22,99,99,
947244,00000102,false,Rx,0,8,00,00,00,10,00,00,90,5B,
948805,00000101,false,Rx,0,8,00,00,00,10,00,00,90,F4,
952129,00000204,false,Rx,0,8,35,35,40,3A,3D,00,00,00,
952418,000001C3,false,Rx,0,8,22,22,92,22,22,22,42,22,
952628,00000100,false,Rx,0,8,00,00,00,10,00,00,90,91,
955701,00000205,false,Rx,0,8,34,34,40,46,3C,00,00,00,
958178,00000104,false,Rx,0,8,00,00,00,10,00,00,B0,9F,
961676,00000105,false,Rx,0,8,00,00,00,10,00,00,D0,6E,
967203,000001C2,false,Rx,0,8,22,22,92,22,22,22,42,22,
968762,000001C1,false,Rx,0,8,22,22,92,22,22,22,42,22,
972689,000001C0,false,Rx,0,8,22,22,92,22,22,22,42,22,
976344,00000203,false,Rx,0,8,35,35,40,45,3B,00,00,00,
982396,00000103,false,Rx,0,8,00,00,00,10,00,00,90,3E,
991213,00000202,false,Rx,0,8,35,36,40,43,3D,00,00,00,
992940,00000201,false,Rx,0,8,35,35,40,41,3D,00,00,00,
996093,000001D4,false,Rx,0,8,22,99,29,22,22,22,99,99,
996724,00000200,false,Rx,0,8,34,35,40,3D,3C,00,00,00,
997346,00000102,false,Rx,0,8,00,00,00,10,00,00,A0,11,
998904,00000101,false,Rx,0,8,00,00,00,10,00,00,A0,BE,
1002654,00000100,false,Rx,0,8,00,00,00,10,00,00,A0,DB,
1008166,00000104,false,Rx,0,8,00,00,00,10,00,00,C0,C6,
1011665,00000105,false,Rx,0,8,00,00,00,10,00,00,E0,24,
1028260,000001C4,false,Rx,0,8,22,22,92,22,22,22,42,22,
1032429,00000103,false,Rx,0,8,00,00,00,10,00,00,A0,74,
1047206,00000102,false,Rx,0,8,00,00,00,10,00,00,B0,DC,
1048848,00000101,false,Rx,0,8,00,00,00,10,00,00,B0,73,
1052337,00000204,false,Rx,0,8,35,35,40,3A,3D,00,00,00,
1052627,00000100,false,Rx,0,8,00,00,00,10,00,00,B0,16,
1055618,00000205,false,Rx,0,8,34,34,40,46,3C,00,00,00,
1058345,00000104,false,Rx,0,8,00,00,00,10,00,00,D0,0B,
1061676,00000105,false,Rx,0,8,00,00,00,10,00,00,00,96,
1076358,00000203,false,Rx,0,8,35,35,40,45,3B,00,00,00,
1082380,00000103,false,Rx,0,8,00,00,00,10,00,00,B0,B9,
1091191,00000202,false,Rx,0,8,35,36,40,43,3D,00,00,00,
1092966,00000201,false,Rx,0,8,35,35,40,41,3D,00,00,00,
1096717,00000200,false,Rx,0,8,34,35,40,3D,3C,00,00,00,
1097255,00000102,false,Rx,0,8,00,00,00,10,00,00,C0,85,
1099065,00000101,false,Rx,0,8,00,00,00,10,00,00,C0,2A,
1099613,000001D5,false,Rx,0,8,22,99,29,22,22,22,99,99,
1102675,00000100,false,Rx,0,8,00,00,00,10,00,00,C0,4F,
1108444,00000104,false,Rx,0,8,00,00,00,10,00,00,E0,41,
1111606,00000105,false,Rx,0,8,00,00,00,10,00,00,10,5B,
1120443,000001D3,false,Rx,0,8,22,99,29,22,22,22,99,99,
1131486,000001C5,false,Rx,0,8,22,22,92,22,22,22,42,22,
1132451,00000103,false,Rx,0,8,00,00,00,10,00,00,C0,E0,
1135352,000001D2,false,Rx,0,8,22,99,29,22,22,22,99,99,
1137078,000001D1,false,Rx,0,8,22,99,29,22,22,22,99,99,
1140827,000001D0,false,Rx,0,8,22,99,29,22,22,22,99,99,
1147293,00000102,false,Rx,0,8,00,00,00,10,00,00,D0,48,
1149108,00000101,false,Rx,0,8,00,00,00,10,00,00,D0,E7,
1152432,00000204,false,Rx,0,8,35,35,40,39,3D,00,00,00,
1152643,000001C3,false,Rx,0,8,22,22,92,22,22,22,42,22,
1152845,00000100,false,Rx,0,8,00,00,00,10,00,00,D0,82,
1155489,00000205,false,Rx,0,8,34,34,40,46,3C,00,00,00,
1158392,00000104,false,Rx,0,8,00,00,00,10,00,00,00,F3,
1161638,00000105,false,Rx,0,8,00,00,00,10,00,00,20,11,
1167337,000001C2,false,Rx,0,8,22,22,92,22,22,22,42,22,
1168979,000001C1,false,Rx,0,8,22,22,92,22,22,22,42,22,
1172745,000001C0,false,Rx,0,8,22,22,92,22,22,22,42,22,
1176402,00000203,false,Rx,0,8,35,35,40,46,3B,00,00,00,
1182424,00000103,false,Rx,0,8,00,00,00,10,00,00,D0,2D,
1191231,00000202,false,Rx,0,8,35,36,40,43,3D,00,00,00,
1193043,00000201,false,Rx,0,8,35,35,40,41,3D,00,00,00,
1196235,000001D4,false,Rx,0,8,22,99,29,22,22,22,99,99,
1196783,00000200,false,Rx,0,8,34,35,40,3D,3C,00,00,00,
1197237,00000102,false,Rx,0,8,00,00,00,10,00,00,E0,02,
1199133,00000101,false,Rx,0,8,00,00,00,10,00,00,E0,AD,
1202801,00000100,false,Rx,0,8,00,00,00,10,00,00,E0,C8,
1208314,00000104,false,Rx,0,8,00,00,00,10,00,00,10,3E,
1211557,00000105,false,Rx,0,8,00,00,00,10,00,00,30,DC,
1228331,000001C4,false,Rx,0,8,22,22,92,22,22,22,42,22,
1232414,00000103,false,Rx,0,8,00,00,00,10,00,00,E0,67,
1247416,00000102,false,Rx,0,8,00,00,00,10,00,00,00,B0,
1249055,00000101,false,Rx,0,8,00,00,00,10,00,00,00,1F,
1252297,00000204,false,Rx,0,8,35,35,40,3A,3D,00,00,00,
1252844,00000100,false,Rx,0,8,00,00,00,10,00,00,00,7A,
1255406,00000205,false,Rx,0,8,34,34,40,46,3C,00,00,00,
1258227,00000104,false,Rx,0,8,00,00,00,10,00,00,20,74,
1261471,00000105,false,Rx,0,8,00,00,00,10,00,00,40,85,
1276375,00000203,false,Rx,0,8,35,35,40,45,3B,00,00,00,
1282402,00000103,false,Rx,0,8,00,00,00,10,00,00,00,D5,
1291317,00000202,false,Rx,0,8,35,36,40,43,3D,00,00,00,
1292960,00000201,false,Rx,0,8,35,35,40,41,3D,00,00,00,
1296964,00000200,false,Rx,0,8,34,35,40,3E,3C,00,00,00,
1297336,00000102,false,Rx,0,8,00,00,00,10,00,00,10,7D,
1298978,00000101,false,Rx,0,8,00,00,00,10,00,00,10,D2,
1299518,000001D5,false,Rx,0,8,22,99,29,22,22,22,99,99,
1302672,00000100,false,Rx,0,8,00,00,00,10,00,00,10,B7,
1308193,00000104,false,Rx,0,8,00,00,00,10,00,00,30,B9,
1311435,00000105,false,Rx,0,8,00,00,00,10,00,00,50,48,
1320410,000001D3,false,Rx,0,8,22,99,29,22,22,22,99,99,
1331284,000001C5,false,Rx,0,8,22,22,92,22,22,22,42,22,
1332501,00000103,false,Rx,0,8,00,00,00,10,00,00,10,18,
1335233,000001D2,false,Rx,0,8,22,99,29,22,22,22,99,99,
1336876,000001D1,false,Rx,0,8,22,99,29,22,22,22,99,99,
1340537,000001D0,false,Rx,0,8,22,99,29,22,22,22,99,99,
1348291,00000102,false,Rx,0,8,00,00,00,10,00,00,20,37,
1348922,00000101,false,Rx,0,8,00,00,00,10,00,00,20,98,
1352076,00000204,false,Rx,0,8,35,35,40,39,3D,00,00,00,
1352446,000001C3,false,Rx,0,8,22,22,92,22,22,22,42,22,
1352657,00000100,false,Rx,0,8,00,00,00,10,00,00,20,FD,
1355387,00000205,false,Rx,0,8,34,34,40,46,3C,00,00,00,
1358126,00000104,false,Rx,0,8,00,00,00,10,00,00,40,E0,
1361449,00000105,false,Rx,0,8,00,00,00,10,00,00,60,02,
1367316,000001C2,false,Rx,0,8,22,22,92,22,22,22,42,22,
1369043,000001C1,false,Rx,0,8,22,22,92,22,22,22,42,22,
1372645,000001C0,false,Rx,0,8,22,22,92,22,22,22,42,22,
1376472,00000203,false,Rx,0,8,35,35,40,46,3B,00,00,00,
1382494,00000103,false,Rx,0,8,00,00,00,10,00,00,20,52,
1391296,00000202,false,Rx,0,8,35,36,40,43,3C,00,00,00,
1393108,00000201,false,Rx,0,8,35,35,40,41,3D,00,00,00,
1396095,000001D4,false,Rx,0,8,22,99,29,22,22,22,99,99,
1396642,00000200,false,Rx,0,8,34,35,40,3D,3C,00,00,00,
1397346,00000102,false,Rx,0,8,00,00,00,10,00,00,30,FA,
1400685,00000101,false,Rx,0,8,00,00,00,10,00,00,30,55,
1402661,00000100,false,Rx,0,8,00,00,00,10,00,00,30,30,
1408088,00000104,false,Rx,0,8,00,00,00,10,00,00,50,2D,
1411495,00000105,false,Rx,0,8,00,00,00,10,00,00,70,CF,
1428015,000001C4,false,Rx,0,8,22,22,92,22,22,22,42,22,
1432518,00000103,false,Rx,0,8,00,00,00,10,00,00,30,9F,
1447146,00000102,false,Rx,0,8,00,00,00,10,00,00,40,A3,
1449043,00000101,false,Rx,0,8,00,00,00,10,00,00,40,0C,
1452024,00000204,false,Rx,0,8,35,35,40,39,3D,00,00,00,
1452654,00000100,false,Rx,0,8,00,00,00,10,00,00,40,69,
1455469,00000205,false,Rx,0,8,34,34,40,46,3C,00,00,00,
1458040,00000104,false,Rx,0,8,00,00,00,10,00,00,60,67,
1461450,00000105,false,Rx,0,8,00,00,00,10,00,00,80,B0,
1476437,00000203,false,Rx,0,8,35,35,40,45,3B,00,00,00,
1482467,00000103,false,Rx,0,8,00,00,00,10,00,00,40,C6,
1491135,00000202,false,Rx,0,8,35,36,40,43,3C,00,00,00,
1493030,00000201,false,Rx,0,8,35,35,40,41,3D,00,00,00,
1496695,00000200,false,Rx,0,8,34,35,40,3D,3C,00,00,00,
1497150,00000102,false,Rx,0,8,00,00,00,10,00,00,50,6E,
1499043,00000101,false,Rx,0,8,00,00,00,10,00,00,50,C1,
1499418,000001D5,false,Rx,0,8,22,99,29,22,22,22,99,99,
1502726,00000100,false,Rx,0,8,00,00,00,10,00,00,50,A4,
1508071,00000104,false,Rx,0,8,00,00,00,10,00,00,70,AA,
1511397,00000105,false,Rx,0,8,00,00,00,10,00,00,90,7D,
1520458,000001D3,false,Rx,0,8,22,99,29,22,22,22,99,99,
1531411,000001C5,false,Rx,0,8,22,22,92,22,22,22,42,22,
1532374,00000103,false,Rx,0,8,00,00,00,10,00,00,50,0B,
1535113,000001D2,false,Rx,0,8,22,99,29,22,22,22,99,99,
1536922,000001D1,false,Rx,0,8,22,99,29,22,22,22,99,99,
1540700,000001D0,false,Rx,0,8,22,99,29,22,22,22,99,99,
1547154,00000102,false,Rx,0,8,00,00,00,10,00,00,60,24,
1548966,00000101,false,Rx,0,8,00,00,00,10,00,00,60,8B,
1552123,00000204,false,Rx,0,8,35,35,40,39,3D,00,00,00,
1552412,000001C3,false,Rx,0,8,22,22,92,22,22,22,42,22,
1553864,00000100,false,Rx,0,8,00,00,00,10,00,00,60,EE,
1555500,00000205,false,Rx,0,8,34,34,40,46,3C,00,00,00,
1558066,00000104,false,Rx,0,8,00,00,00,10,00,00,80,D5,
1561557,00000105,false,Rx,0,8,00,00,00,10,00,00,A0,37,
1567088,000001C2,false,Rx,0,8,22,22,92,22,22,22,42,22,
1569064,000001C1,false,Rx,0,8,22,22,92,22,22,22,42,22,
1572666,000001C0,false,Rx,0,8,22,22,92,22,22,22,42,22,
1576407,00000203,false,Rx,0,8,35,35,40,45,3B,00,00,00,
1582429,00000103,false,Rx,0,8,00,00,00,10,00,00,60,41,
1591068,00000202,false,Rx,0,8,35,36,40,43,3D,00,00,00,
1593045,00000201,false,Rx,0,8,35,35,40,41,3D,00,00,00,
1596117,000001D4,false,Rx,0,8,22,99,29,22,22,22,99,99,
1596658,00000200,false,Rx,0,8,34,35,40,3D,3C,00,00,00,
1597113,00000102,false,Rx,0,8,00,00,00,10,00,00,70,E9,
1599089,00000101,false,Rx,0,8,00,00,00,10,00,00,70,46,
1602669,00000100,false,Rx,0,8,00,00,00,10,00,00,70,23,
1608166,00000104,false,Rx,0,8,00,00,00,10,00,00,90,18,
1611574,00000105,false,Rx,0,8,00,00,00,10,00,00,B0,FA,
1628143,000001C4,false,Rx,0,8,22,22,92,22,22,22,42,22,
1632509,00000103,false,Rx,0,8,00,00,00,10,00,00,70,8C,
1647147,00000102,false,Rx,0,8,00,00,00,10,00,00,80,96,
1648959,00000101,false,Rx,0,8,00,00,00,10,00,00,80,39,
1652116,00000204,false,Rx,0,8,35,35,40,3A,3D,00,00,00,
1652572,00000100,false,Rx,0,8,00,00,00,10,00,00,80,5C,
1655651,00000205,false,Rx,0,8,34,34,40,46,3C,00,00,00,
1657985,00000104,false,Rx,0,8,00,00,00,10,00,00,A0,52,
1661647,00000105,false,Rx,0,8,00,00,00,10,00,00,C0,A3,
1676634,00000203,false,Rx,0,8,35,35,40,45,3B,00,00,00,
1682743,00000103,false,Rx,0,8,00,00,00,10,00,00,80,F3,
1690959,00000202,false,Rx,0,8,35,36,40,43,3D,00,00,00,
1692935,00000201,false,Rx,0,8,35,35,40,41,3D,00,00,00,
1696428,00000200,false,Rx,0,8,34,35,40,3E,3C,00,00,00,
1696974,00000102,false,Rx,0,8,00,00,00,10,00,00,90,5B,
1698868,00000101,false,Rx,0,8,00,00,00,10,00,00,90,F4,
1699574,000001D5,false,Rx,0,8,22,99,29,22,22,22,99,99,
1702396,00000100,false,Rx,0,8,00,00,00,10,00,00,90,91,
1708078,00000104,false,Rx,0,8,00,00,00,10,00,00,B0,9F,
1711659,00000105,false,Rx,0,8,00,00,00,10,00,00,D0,6E,
1720462,000001D3,false,Rx,0,8,22,99,29,22,22,22,99,99,
1731636,000001C5,false,Rx,0,8,22,22,92,22,22,22,42,22,
1732512,00000103,false,Rx,0,8,00,00,00,10,00,00,90,3E,
1734941,000001D2,false,Rx,0,8,22,99,29,22,22,22,99,99,
1736928,000001D1,false,Rx,0,8,22,99,29,22,22,22,99,99,
1740418,000001D0,false,Rx,0,8,22,99,29,22,22,22,99,99,
1746903,00000102,false,Rx,0,8,00,00,00,10,00,00,A0,11,
1748966,00000101,false,Rx,0,8,00,00,00,10,00,00,A0,BE,
1752123,00000204,false,Rx,0,8,35,35,40,3A,3D,00,00,00,
1752495,00000100,false,Rx,0,8,00,00,00,10,00,00,A0,DB,
1752706,000001C3,false,Rx,0,8,22,22,92,22,22,22,42,22,
1755611,00000205,false,Rx,0,8,34,34,40,46,3C,00,00,00,
1758901,00000104,false,Rx,0,8,00,00,00,10,00,00,C0,C6,
1761726,00000105,false,Rx,0,8,00,00,00,10,00,00,E0,24,
1766918,000001C2,false,Rx,0,8,22,22,92,22,22,22,42,22,
1768893,000001C1,false,Rx,0,8,22,22,92,22,22,22,42,22,
1772474,000001C0,false,Rx,0,8,22,22,92,22,22,22,42,22,
1776559,00000203,false,Rx,0,8,35,35,40,45,3B,00,00,00,
1782580,00000103,false,Rx,0,8,00,00,00,10,00,00,A0,74,
1790910,00000202,false,Rx,0,8,35,36,40,43,3D,00,00,00,
1792888,00000201,false,Rx,0,8,35,35,40,41,3D,00,00,00,
1796130,000001D4,false,Rx,0,8,22,99,29,22,22,22,99,99,
1796585,00000200,false,Rx,0,8,34,35,40,3D,3C,00,00,00,
1796963,00000102,false,Rx,0,8,00,00,00,10,00,00,B0,DC,
1798857,00000101,false,Rx,0,8,00,00,00,10,00,00,B0,73,
1802605,00000100,false,Rx,0,8,00,00,00,10,00,00,B0,16,
1808202,00000104,false,Rx,0,8,00,00,00,10,00,00,D0,0B,
1811609,00000105,false,Rx,0,8,00,00,00,10,00,00,00,96,
1828170,000001C4,false,Rx,0,8,22,22,92,22,22,22,42,22,
1832678,00000103,false,Rx,0,8,00,00,00,10,00,00,B0,B9,
1846919,00000102,false,Rx,0,8,00,00,00,10,00,00,C0,85,
1848893,00000101,false,Rx,0,8,00,00,00,10,00,00,C0,2A,
1852051,00000204,false,Rx,0,8,35,35,40,3A,3D,00,00,00,
1852507,00000100,false,Rx,0,8,00,00,00,10,00,00,C0,4F,
1858111,00000104,false,Rx,0,8,00,00,00,10,00,00,E0,41,
1876628,00000203,false,Rx,0,8,35,35,40,45,3B,00,00,00,
1882651,00000103,false,Rx,0,8,00,00,00,10,00,00,C0,E0,
1890785,00000202,false,Rx,0,8,35,36,40,42,3D,00,00,00,
1892927,00000201,false,Rx,0,8,35,35,40,41,3D,00,00,00,
1896414,00000200,false,Rx,0,8,34,35,40,3D,3C,00,00,00,
1896874,00000102,false,Rx,0,8,00,00,00,10,00,00,D0,48,
1898934,00000101,false,Rx,0,8,00,00,00,10,00,00,D0,E7,
1902508,00000100,false,Rx,0,8,00,00,00,10,00,00,D0,82,
1908113,00000104,false,Rx,0,8,00,00,00,10,00,00,00,F3,
1920569,000001D3,false,Rx,0,8,22,99,29,22,22,22,99,99,
1932663,00000103,false,Rx,0,8,00,00,00,10,00,00,D0,2D,
1934807,000001D2,false,Rx,0,8,22,99,29,22,22,22,99,99,
1936951,000001D1,false,Rx,0,8,22,99,29,22,22,22,99,99,
1940556,000001D0,false,Rx,0,8,22,99,29,22,22,22,99,99,
1946785,00000102,false,Rx,0,8,00,00,00,10,00,00,E0,02,
1948929,00000101,false,Rx,0,8,00,00,00,10,00,00,E0,AD,
1952676,00000100,false,Rx,0,8,00,00,00,10,00,00,E0,C8,
1952880,000001C3,false,Rx,0,8,22,22,92,22,22,22,42,22,
1962173,00000105,false,Rx,0,8,00,00,00,10,00,00,00,96,
1966863,000001C2,false,Rx,0,8,22,22,92,22,22,22,42,22,
1969005,000001C1,false,Rx,0,8,22,22,92,22,22,22,42,22,
1972682,000001C0,false,Rx,0,8,22,22,92,22,22,22,42,22,
1976848,00000203,false,Rx,0,8,35,35,40,45,3B,00,00,00,
1982790,00000103,false,Rx,0,8,00,00,00,10,00,00,E0,67,
1990755,00000202,false,Rx,0,8,35,36,40,43,3D,00,00,00,
1992981,00000201,false,Rx,0,8,35,35,40,41,3D,00,00,00,
1996556,00000200,false,Rx,0,8,34,35,40,3D,3C,00,00,00,
1996852,00000102,false,Rx,0,8,00,00,00,10,00,00,00,B0,
1998911,00000101,false,Rx,0,8,00,00,00,10,00,00,00,1F,
2002606,00000100,false,Rx,0,8,00,00,00,10,00,00,00,7A,
2005843,00000205,false,Rx,0,8,35,34,40,47,3C,00,00,00,
2011868,00000105,false,Rx,0,8,00,00,00,10,00,00,10,5B,
2046868,00000102,false,Rx,0,8,00,00,00,10,00,00,10,7D,
2048760,00000101,false,Rx,0,8,00,00,00,10,00,00,10,D2,
2049808,000001D5,false,Rx,0,8,22,99,29,22,22,22,99,99,
2052538,00000100,false,Rx,0,8,00,00,00,10,00,00,10,B7,
2061774,00000105,false,Rx,0,8,00,00,00,10,00,00,20,11,
2081804,000001C5,false,Rx,0,8,22,11,92,22,22,22,42,22,
2090695,00000202,false,Rx,0,8,35,36,40,43,3D,00,00,00,
2092755,00000201,false,Rx,0,8,35,35,40,41,3D,00,00,00,
2096495,00000200,false,Rx,0,8,34,35,40,3E,3C,00,00,00,
2096790,00000102,false,Rx,0,8,00,00,00,10,00,00,20,37,
2098850,00000101,false,Rx,0,8,00,00,00,10,00,00,20,98,
2102507,00000100,false,Rx,0,8,00,00,00,10,00,00,20,FD,
2105753,00000205,false,Rx,0,8,34,34,40,46,3C,00,00,00,
2111861,00000105,false,Rx,0,8,00,00,00,10,00,00,30,DC,
2134737,000001D2,false,Rx,0,8,22,99,29,22,22,22,99,99,
2136715,00000104,false,Rx,0,8,00,00,00,10,00,00,00,F3,
2136919,000001D1,false,Rx,0,8,22,99,29,22,22,22,99,99,
2140491,000001D0,false,Rx,0,8,22,99,29,22,22,22,99,99,
2146749,00000102,false,Rx,0,8,00,00,00,10,00,00,30,FA,
2148727,00000101,false,Rx,0,8,00,00,00,10,00,00,30,55,
2152473,00000100,false,Rx,0,8,00,00,00,10,00,00,30,30,
2161706,00000105,false,Rx,0,8,00,00,00,10,00,00,40,85,
2166632,000001C2,false,Rx,0,8,22,22,92,22,22,22,42,22,
2168693,000001C1,false,Rx,0,8,22,22,92,22,22,22,42,22,
2172349,000001C0,false,Rx,0,8,22,22,92,22,22,22,42,22,
2180755,00000204,false,Rx,0,8,35,35,40,39,3C,00,00,00,
2186777,00000104,false,Rx,0,8,00,00,00,10,00,00,10,3E,
2190777,00000202,false,Rx,0,8,35,36,40,43,3C,00,00,00,
2192669,00000201,false,Rx,0,8,35,35,40,41,3D,00,00,00,
2196408,00000200,false,Rx,0,8,34,35,40,3D,3C,00,00,00,
2196787,00000102,false,Rx,0,8,00,00,00,10,00,00,40,A3,
2198594,00000101,false,Rx,0,8,00,00,00,10,00,00,40,0C,
2202418,00000100,false,Rx,0,8,00,00,00,10,00,00,40,69,
2205657,00000205,false,Rx,0,8,34,34,40,46,3C,00,00,00,
2211765,00000105,false,Rx,0,8,00,00,00,10,00,00,50,48,
2224765,000001D4,false,Rx,0,8,22,99,29,22,22,22,99,99,
2236861,00000104,false,Rx,0,8,00,00,00,10,00,00,20,74,
2246715,00000102,false,Rx,0,8,00,00,00,10,00,00,50,6E,
2247002,00000103,false,Rx,0,8,00,00,00,10,00,00,00,D5,
2248395,00000101,false,Rx,0,8,00,00,00,10,00,00,50,C1,
2249695,000001D5,false,Rx,0,8,22,99,29,22,22,22,99,99,
2252339,00000100,false,Rx,0,8,00,00,00,10,00,00,50,A4,
2256765,000001C4,false,Rx,0,8,22,11,92,22,22,22,42,22,
2261723,00000105,false,Rx,0,8,00,00,00,10,00,00,60,02,
2280862,00000204,false,Rx,0,8,35,35,40,39,3C,00,00,00,
2281744,000001C5,false,Rx,0,8,22,11,92,22,22,22,42,22,
2286755,00000104,false,Rx,0,8,00,00,00,10,00,00,30,B9,
2290785,00000202,false,Rx,0,8,35,36,40,43,3D,00,00,00,
2290989,00000203,false,Rx,0,8,35,35,40,45,3B,00,00,00,
2292371,00000201,false,Rx,0,8,35,35,40,41,3D,00,00,00,
2296374,00000200,false,Rx,0,8,34,35,40,3E,3C,00,00,00,
2296837,00000102,false,Rx,0,8,00,00,00,10,00,00,60,24,
2297041,00000103,false,Rx,0,8,00,00,00,10,00,00,10,18,
2298509,00000101,false,Rx,0,8,00,00,00,10,00,00,60,8B,
2302339,00000100,false,Rx,0,8,00,00,00,10,00,00,60,EE,
2305754,00000205,false,Rx,0,8,34,34,40,46,3C,00,00,00,
2311789,00000105,false,Rx,0,8,00,00,00,10,00,00,70,CF,
2334847,000001D2,false,Rx,0,8,22,99,29,22,22,22,99,99,
2335051,000001D3,false,Rx,0,8,22,99,29,22,22,22,99,99,
2336349,000001D1,false,Rx,0,8,22,99,29,22,22,22,99,99,
2336645,00000104,false,Rx,0,8,00,00,00,10,00,00,40,E0,
2340218,000001D0,false,Rx,0,8,22,99,29,22,22,22,99,99,
2346763,00000102,false,Rx,0,8,00,00,00,10,00,00,70,E9,
2347049,00000103,false,Rx,0,8,00,00,00,10,00,00,20,52,
2348382,00000101,false,Rx,0,8,00,00,00,10,00,00,70,46,
2352306,00000100,false,Rx,0,8,00,00,00,10,00,00,70,23,
2361708,00000105,false,Rx,0,8,00,00,00,10,00,00,80,B0,
2366730,000001C2,false,Rx,0,8,22,22,92,22,22,22,42,22,
2367017,000001C3,false,Rx,0,8,22,11,92,22,22,22,42,22,
2369323,000001C1,false,Rx,0,8,22,22,92,22,22,22,42,22,
2372229,000001C0,false,Rx,0,8,22,22,92,22,22,22,42,22,
2380452,00000204,false,Rx,0,8,35,35,40,3A,3C,00,00,00,
2386557,00000104,false,Rx,0,8,00,00,00,10,00,00,50,2D,
2390645,00000202,false,Rx,0,8,35,36,40,43,3D,00,00,00,
2391016,00000203,false,Rx,0,8,35,35,40,45,3B,00,00,00,
2392313,00000201,false,Rx,0,8,35,35,40,41,3D,00,00,00,
2396401,00000200,false,Rx,0,8,34,35,40,3D,3C,00,00,00,
2396695,00000102,false,Rx,0,8,00,00,00,10,00,00,80,96,
2396982,00000103,false,Rx,0,8,00,00,00,10,00,00,30,9F,
2398279,00000101,false,Rx,0,8,00,00,00,10,00,00,80,39,
2402275,00000100,false,Rx,0,8,00,00,00,10,00,00,80,5C,
2405773,00000205,false,Rx,0,8,34,34,40,46,3C,00,00,00,
2411794,00000105,false,Rx,0,8,00,00,00,10,00,00,90,7D,
2424554,000001D4,false,Rx,0,8,22,99,29,22,22,22,99,99,
2436476,00000104,false,Rx,0,8,00,00,00,10,00,00,60,67,
2446635,00000102,false,Rx,0,8,00,00,00,10,00,00,90,5B,
2447005,00000103,false,Rx,0,8,00,00,00,10,00,00,40,C6,
2448303,00000101,false,Rx,0,8,00,00,00,10,00,00,90,F4,
2449778,000001D5,false,Rx,0,8,22,99,29,22,22,22,99,99,
2452284,00000100,false,Rx,0,8,00,00,00,10,00,00,90,91,
2456546,000001C4,false,Rx,0,8,22,11,92,22,22,22,42,22,
2461815,00000105,false,Rx,0,8,00,00,00,10,00,00,A0,37,
2480517,00000204,false,Rx,0,8,35,35,40,39,3C,00,00,00,
2481739,000001C5,false,Rx,0,8,22,11,92,22,22,22,42,22,
2486490,00000104,false,Rx,0,8,00,00,00,10,00,00,70,AA,
2490571,00000202,false,Rx,0,8,35,36,40,43,3D,00,00,00,
2490950,00000203,false,Rx,0,8,35,35,40,45,3B,00,00,00,
2492332,00000201,false,Rx,0,8,35,35,40,41,3D,00,00,00,
2496330,00000200,false,Rx,0,8,34,35,40,3D,3C,00,00,00,
2496628,00000102,false,Rx,0,8,00,00,00,10,00,00,A0,11,
2497082,00000103,false,Rx,0,8,00,00,00,10,00,00,50,0B,
2498382,00000101,false,Rx,0,8,00,00,00,10,00,00,A0,BE,
2502294,00000100,false,Rx,0,8,00,00,00,10,00,00,A0,DB,
2505878,00000205,false,Rx,0,8,34,34,40,46,3C,00,00,00,
2511815,00000105,false,Rx,0,8,00,00,00,10,00,00,B0,FA,
2534617,000001D2,false,Rx,0,8,22,99,29,22,22,22,99,99,
2534905,000001D3,false,Rx,0,8,22,99,29,22,22,22,99,99,
2536203,000001D1,false,Rx,0,8,22,99,29,22,22,22,99,99,
2536576,00000104,false,Rx,0,8,00,00,00,10,00,00,80,D5,
2540267,000001D0,false,Rx,0,8,22,99,29,22,22,22,99,99,
2546555,00000102,false,Rx,0,8,00,00,00,10,00,00,B0,DC,
2547017,00000103,false,Rx,0,8,00,00,00,10,00,00,60,41,
2548235,00000101,false,Rx,0,8,00,00,00,10,00,00,B0,73,
2552320,00000100,false,Rx,0,8,00,00,00,10,00,00,B0,16,
2561764,00000105,false,Rx,0,8,00,00,00,10,00,00,C0,A3,
2566534,000001C2,false,Rx,0,8,22,22,92,22,22,22,42,22,
2566912,000001C3,false,Rx,0,8,22,11,92,22,22,22,42,22,
2568294,000001C1,false,Rx,0,8,22,22,92,22,22,22,42,22,
2572393,000001C0,false,Rx,0,8,22,22,92,22,22,22,42,22,
2580584,00000204,false,Rx,0,8,35,35,40,3A,3D,00,00,00,
2586525,00000104,false,Rx,0,8,00,00,00,10,00,00,90,18,
2590617,00000202,false,Rx,0,8,35,36,40,43,3D,00,00,00,
2590988,00000203,false,Rx,0,8,35,35,40,45,3B,00,00,00,
2592370,00000201,false,Rx,0,8,35,35,40,41,3D,00,00,00,
2596373,00000200,false,Rx,0,8,34,35,40,3D,3C,00,00,00,
2596670,00000102,false,Rx,0,8,00,00,00,10,00,00,C0,85,
2596957,00000103,false,Rx,0,8,00,00,00,10,00,00,70,8C,
2598424,00000101,false,Rx,0,8,00,00,00,10,00,00,C0,2A,
2602423,00000100,false,Rx,0,8,00,00,00,10,00,00,C0,4F,
2605752,00000205,false,Rx,0,8,34,34,40,46,3C,00,00,00,
2611776,00000105,false,Rx,0,8,00,00,00,10,00,00,D0,6E,
2625637,000001D4,false,Rx,0,8,22,99,29,22,22,22,99,99,
2636550,00000104,false,Rx,0,8,00,00,00,10,00,00,A0,52,
2646537,00000102,false,Rx,0,8,00,00,00,10,00,00,D0,48,
2646915,00000103,false,Rx,0,8,00,00,00,10,00,00,80,F3,
2648299,00000101,false,Rx,0,8,00,00,00,10,00,00,D0,E7,
2649692,000001D5,false,Rx,0,8,22,99,29,22,22,22,99,99,
2652423,00000100,false,Rx,0,8,00,00,00,10,00,00,D0,82,
2656625,000001C4,false,Rx,0,8,22,11,92,22,22,22,42,22,
2661736,00000105,false,Rx,0,8,00,00,00,10,00,00,E0,24,
2680537,00000204,false,Rx,0,8,35,35,40,39,3C,00,00,00,
2681844,000001C5,false,Rx,0,8,22,11,92,22,22,22,42,22,
2686514,00000104,false,Rx,0,8,00,00,00,10,00,00,B0,9F,
2690604,00000202,false,Rx,0,8,35,36,40,43,3D,00,00,00,
2690975,00000203,false,Rx,0,8,35,35,40,45,3B,00,00,00,
2692272,00000201,false,Rx,0,8,35,35,40,41,3D,00,00,00,
2696273,00000200,false,Rx,0,8,34,35,40,3D,3C,00,00,00,
2696653,00000102,false,Rx,0,8,00,00,00,10,00,00,E0,02,
2696939,00000103,false,Rx,0,8,00,00,00,10,00,00,90,3E,
2698320,00000101,false,Rx,0,8,00,00,00,10,00,00,E0,AD,
2702237,00000100,false,Rx,0,8,00,00,00,10,00,00,E0,C8,
2705736,00000205,false,Rx,0,8,34,34,40,46,3C,00,00,00,
2711758,00000105,false,Rx,0,8,00,00,00,10,00,00,00,96,
2734536,000001D2,false,Rx,0,8,22,99,29,22,22,22,99,99,
2735082,000001D3,false,Rx,0,8,22,99,29,22,22,22,99,99,
2736132,000001D1,false,Rx,0,8,22,99,29,22,22,22,99,99,
2736596,00000104,false,Rx,0,8,00,00,00,10,00,00,C0,C6,
2740333,000001D0,false,Rx,0,8,22,99,29,22,22,22,99,99,
2746711,00000102,false,Rx,0,8,00,00,00,10,00,00,00,B0,
2747081,00000103,false,Rx,0,8,00,00,00,10,00,00,A0,74,
2748216,00000101,false,Rx,0,8,00,00,00,10,00,00,00,1F,
2752384,00000100,false,Rx,0,8,00,00,00,10,00,00,00,7A,
2761917,00000105,false,Rx,0,8,00,00,00,10,00,00,10,5B,
2766688,000001C2,false,Rx,0,8,22,22,92,22,22,22,42,22,
2767059,000001C3,false,Rx,0,8,22,11,92,22,22,22,42,22,
2768110,000001C1,false,Rx,0,8,22,22,92,22,22,22,42,22,
2772390,000001C0,false,Rx,0,8,22,22,92,22,22,22,42,22,
2780630,00000204,false,Rx,0,8,35,35,40,3A,3D,00,00,00,
2786652,00000104,false,Rx,0,8,00,00,00,10,00,00,D0,0B,
2790677,00000202,false,Rx,0,8,35,36,40,43,3D,00,00,00,
2791130,00000203,false,Rx,0,8,35,35,40,45,3B,00,00,00,
2792094,00000201,false,Rx,0,8,35,35,40,41,3D,00,00,00,
2796342,00000200,false,Rx,0,8,34,35,40,3E,3C,00,00,00,
2796723,00000102,false,Rx,0,8,00,00,00,10,00,00,10,7D,
2797177,00000103,false,Rx,0,8,00,00,00,10,00,00,B0,B9,
2798058,00000101,false,Rx,0,8,00,00,00,10,00,00,10,D2,
2802393,00000100,false,Rx,0,8,00,00,00,10,00,00,10,B7,
2805725,00000205,false,Rx,0,8,34,34,40,46,3C,00,00,00,
2811913,00000105,false,Rx,0,8,00,00,00,10,00,00,20,11,
2824427,000001D4,false,Rx,0,8,22,99,29,22,22,22,99,99,
2836367,00000104,false,Rx,0,8,00,00,00,10,00,00,E0,41,
2846617,00000102,false,Rx,0,8,00,00,00,10,00,00,20,37,
2847072,00000103,false,Rx,0,8,00,00,00,10,00,00,C0,E0,
2848035,00000101,false,Rx,0,8,00,00,00,10,00,00,20,98,
2849760,000001D5,false,Rx,0,8,22,99,29,22,22,22,99,99,
2852405,00000100,false,Rx,0,8,00,00,00,10,00,00,20,FD,
2856405,000001C4,false,Rx,0,8,22,11,92,22,22,22,42,22,
2861807,00000105,false,Rx,0,8,00,00,00,10,00,00,30,DC,
2880424,00000204,false,Rx,0,8,35,35,40,39,3D,00,00,00,
2881754,000001C5,false,Rx,0,8,22,11,92,22,22,22,42,22,
2886338,00000104,false,Rx,0,8,00,00,00,10,00,00,00,F3,
2890680,00000202,false,Rx,0,8,35,36,40,43,3D,00,00,00,
2891134,00000203,false,Rx,0,8,35,35,40,45,3B,00,00,00,
2892098,00000201,false,Rx,0,8,35,35,40,41,3D,00,00,00,
2896348,00000200,false,Rx,0,8,34,35,40,3E,3C,00,00,00,
2896645,00000102,false,Rx,0,8,00,00,00,10,00,00,30,FA,
2897016,00000103,false,Rx,0,8,00,00,00,10,00,00,D0,2D,
2898147,00000101,false,Rx,0,8,00,00,00,10,00,00,30,55,
2902315,00000100,false,Rx,0,8,00,00,00,10,00,00,30,30,
2905731,00000205,false,Rx,0,8,34,34,40,46,3C,00,00,00,
2911754,00000105,false,Rx,0,8,00,00,00,10,00,00,40,85,
2934581,000001D2,false,Rx,0,8,22,99,29,22,22,22,99,99,
2935043,000001D3,false,Rx,0,8,22,99,29,22,22,22,99,99,
2936092,000001D1,false,Rx,0,8,22,99,29,22,22,22,99,99,
2936295,00000104,false,Rx,0,8,00,00,00,10,00,00,10,3E,
2940295,000001D0,false,Rx,0,8,22,99,29,22,22,22,99,99,
2946593,00000102,false,Rx,0,8,00,00,00,10,00,00,40,A3,
2947131,00000103,false,Rx,0,8,00,00,00,10,00,00,E0,67,
2948179,00000101,false,Rx,0,8,00,00,00,10,00,00,40,0C,
2952430,00000100,false,Rx,0,8,00,00,00,10,00,00,40,69,
2961829,00000105,false,Rx,0,8,00,00,00,10,00,00,50,48,
2966557,000001C2,false,Rx,0,8,22,22,92,22,22,22,42,22,
2967102,000001C3,false,Rx,0,8,22,11,92,22,22,22,42,22,
2968150,000001C1,false,Rx,0,8,22,22,92,22,22,22,42,22,
2972315,000001C0,false,Rx,0,8,22,22,92,22,22,22,42,22,
2980208,00000204,false,Rx,0,8,35,35,40,3A,3D,00,00,00,
2986265,00000104,false,Rx,0,8,00,00,00,10,00,00,20,74,
2990608,00000202,false,Rx,0,8,35,36,40,43,3D,00,00,00,
2991146,00000203,false,Rx,0,8,35,35,40,45,3B,00,00,00,
2992112,00000201,false,Rx,0,8,35,35,40,41,3D,00,00,00,
2996362,00000200,false,Rx,0,8,34,35,40,3E,3C,00,00,00,
2996651,00000102,false,Rx,0,8,00,00,00,10,00,00,50,6E,
2997188,00000103,false,Rx,0,8,00,00,00,10,00,00,00,D5,
2998069,00000101,false,Rx,0,8,00,00,00,10,00,00,50,C1,
3002320,00000100,false,Rx,0,8,00,00,00,10,00,00,50,A4,
3005736,00000205,false,Rx,0,8,34,34,40,46,3C,00,00,00,
3011758,00000105,false,Rx,0,8,00,00,00,10,00,00,60,02,
3024357,000001D4,false,Rx,0,8,22,99,29,22,22,22,99,99,
3036249,00000104,false,Rx,0,8,00,00,00,10,00,00,30,B9,
3046520,00000102,false,Rx,0,8,00,00,00,10,00,00,60,24,
3047315,00000103,false,Rx,0,8,00,00,00,10,00,00,10,18,
3048197,00000101,false,Rx,0,8,00,00,00,10,00,00,60,8B,
3049579,000001D5,false,Rx,0,8,22,99,29,22,22,22,99,99,
3052314,00000100,false,Rx,0,8,00,00,00,10,00,00,60,EE,
3056314,000001C4,false,Rx,0,8,22,11,92,22,22,22,42,22,
3061669,00000105,false,Rx,0,8,00,00,00,10,00,00,70,CF,
3080190,00000204,false,Rx,0,8,35,35,40,3A,3D,00,00,00,
3081655,000001C5,false,Rx,0,8,22,11,92,22,22,22,42,22,
3086249,00000104,false,Rx,0,8,00,00,00,10,00,00,40,E0,
3090417,00000202,false,Rx,0,8,35,36,40,43,3D,00,00,00,
3091296,00000203,false,Rx,0,8,35,35,40,45,3B,00,00,00,
3092094,00000201,false,Rx,0,8,35,35,40,41,3D,00,00,00,
3096259,00000200,false,Rx,0,8,34,35,40,3D,3C,00,00,00,
3096547,00000102,false,Rx,0,8,00,00,00,10,00,00,70,E9,
3097260,00000103,false,Rx,0,8,00,00,00,10,00,00,20,52,
3098058,00000101,false,Rx,0,8,00,00,00,10,00,00,70,46,
3102224,00000100,false,Rx,0,8,00,00,00,10,00,00,70,23,
3105639,00000205,false,Rx,0,8,34,34,40,46,3C,00,00,00,
3111572,00000105,false,Rx,0,8,00,00,00,10,00,00,80,B0,
3134454,000001D2,false,Rx,0,8,22,99,29,22,22,22,99,99,
3135250,000001D3,false,Rx,0,8,22,99,29,22,22,22,99,99,
3136130,000001D1,false,Rx,0,8,22,99,29,22,22,22,99,99,
3137742,00000104,false,Rx,0,8,00,00,00,10,00,00,50,2D,
3140303,000001D0,false,Rx,0,8,22,99,29,22,22,22,99,99,
3146425,00000102,false,Rx,0,8,00,00,00,10,00,00,80,96,
3147304,00000103,false,Rx,0,8,00,00,00,10,00,00,30,9F,
3148187,00000101,false,Rx,0,8,00,00,00,10,00,00,80,39,
3152357,00000100,false,Rx,0,8,00,00,00,10,00,00,80,5C,
3161673,00000105,false,Rx,0,8,00,00,00,10,00,00,90,7D,
3166433,000001C2,false,Rx,0,8,22,22,92,22,22,22,42,22,
3167229,000001C3,false,Rx,0,8,22,11,92,22,22,22,42,22,
3168144,000001C1,false,Rx,0,8,22,22,92,22,22,22,42,22,
3172323,000001C0,false,Rx,0,8,22,22,92,22,22,22,42,22,
3180219,00000204,false,Rx,0,8,35,35,40,3A,3D,00,00,00,
3186074,00000104,false,Rx,0,8,00,00,00,10,00,00,60,67,
3190478,00000202,false,Rx,0,8,35,36,40,43,3D,00,00,00,
3191274,00000203,false,Rx,0,8,35,35,40,45,3B,00,00,00,
3192071,00000201,false,Rx,0,8,35,35,40,41,3D,00,00,00,
3196235,00000200,false,Rx,0,8,34,35,40,3E,3C,00,00,00,
3196525,00000102,false,Rx,0,8,00,00,00,10,00,00,90,5B,
3197238,00000103,false,Rx,0,8,00,00,00,10,00,00,40,C6,
3198120,00000101,false,Rx,0,8,00,00,00,10,00,00,90,F4,
3202458,00000100,false,Rx,0,8,00,00,00,10,00,00,90,91,
3205701,00000205,false,Rx,0,8,34,34,40,46,3C,00,00,00,
3211631,00000105,false,Rx,0,8,00,00,00,10,00,00,A0,37,
3224154,000001D4,false,Rx,0,8,22,99,29,22,22,22,99,99,
3236247,00000104,false,Rx,0,8,00,00,00,10,00,00,70,AA,
3246517,00000102,false,Rx,0,8,00,00,00,10,00,00,A0,11,
3247314,00000103,false,Rx,0,8,00,00,00,10,00,00,50,0B,
3248195,00000101,false,Rx,0,8,00,00,00,10,00,00,A0,BE,
3249664,000001D5,false,Rx,0,8,22,99,29,22,22,22,99,99,
3252226,00000100,false,Rx,0,8,00,00,00,10,00,00,A0,DB,
3256229,000001C4,false,Rx,0,8,22,11,92,22,22,22,42,22,
3261670,00000105,false,Rx,0,8,00,00,00,10,00,00,B0,FA,
3280156,00000204,false,Rx,0,8,35,35,40,3A,3D,00,00,00,
3281632,000001C5,false,Rx,0,8,22,11,92,22,22,22,42,22,
3286153,00000104,false,Rx,0,8,00,00,00,10,00,00,80,D5,
3291082,00000202,false,Rx,0,8,35,36,40,43,3D,00,00,00,
3291203,00000203,false,Rx,0,8,35,35,40,45,3B,00,00,00,
3292001,00000201,false,Rx,0,8,35,35,40,41,3D,00,00,00,
3296166,00000200,false,Rx,0,8,34,35,40,3E,3C,00,00,00,
3296629,00000102,false,Rx,0,8,00,00,00,10,00,00,B0,DC,
3297250,00000103,false,Rx,0,8,00,00,00,10,00,00,60,41,
3298048,00000101,false,Rx,0,8,00,00,00,10,00,00,B0,73,
3302216,00000100,false,Rx,0,8,00,00,00,10,00,00,B0,16,
3305716,00000205,false,Rx,0,8,34,34,40,46,3C,00,00,00,
3311741,00000105,false,Rx,0,8,00,00,00,10,00,00,C0,A3,
3334633,000001D2,false,Rx,0,8,22,99,29,22,22,22,99,99,
3335087,000001D3,false,Rx,0,8,22,99,29,22,22,22,99,99,
3336052,000001D1,false,Rx,0,8,22,99,29,22,22,22,99,99,
3336338,00000104,false,Rx,0,8,00,00,00,10,00,00,90,18,
3340086,000001D0,false,Rx,0,8,22,99,29,22,22,22,99,99,
3346658,00000102,false,Rx,0,8,00,00,00,10,00,00,C0,85,
3347029,00000103,false,Rx,0,8,00,00,00,10,00,00,70,8C,
3348080,00000101,false,Rx,0,8,00,00,00,10,00,00,C0,2A,
3352160,00000100,false,Rx,0,8,00,00,00,10,00,00,C0,4F,
3361728,00000105,false,Rx,0,8,00,00,00,10,00,00,D0,6E,
3366580,000001C2,false,Rx,0,8,22,22,92,22,22,22,42,22,
3367125,000001C3,false,Rx,0,8,22,11,92,22,22,22,42,22,
3367923,000001C1,false,Rx,0,8,22,22,92,22,22,22,42,22,
3372122,000001C0,false,Rx,0,8,22,22,92,22,22,22,42,22,
3380029,00000204,false,Rx,0,8,35,35,40,3A,3D,00,00,00,
3386053,00000104,false,Rx,0,8,00,00,00,10,00,00,A0,52,
3390558,00000202,false,Rx,0,8,35,36,40,43,3D,00,00,00,
3391020,00000203,false,Rx,0,8,35,35,40,45,3B,00,00,00,
3391985,00000201,false,Rx,0,8,35,35,40,41,3D,00,00,00,
3396165,00000200,false,Rx,0,8,34,35,40,3E,3C,00,00,00,
3396714,00000102,false,Rx,0,8,00,00,00,10,00,00,D0,48,
3397001,00000103,false,Rx,0,8,00,00,00,10,00,00,80,F3,
3398049,00000101,false,Rx,0,8,00,00,00,10,00,00,D0,E7,
3402217,00000100,false,Rx,0,8,00,00,00,10,00,00,D0,82,
3405800,00000205,false,Rx,0,8,34,34,40,46,3C,00,00,00,
3411741,00000105,false,Rx,0,8,00,00,00,10,00,00,E0,24,
3424089,000001D4,false,Rx,0,8,22,99,29,22,22,22,99,99,
3436099,00000104,false,Rx,0,8,00,00,00,10,00,00,B0,9F,
3446518,00000102,false,Rx,0,8,00,00,00,10,00,00,E0,02,
3447314,00000103,false,Rx,0,8,00,00,00,10,00,00,90,3E,
3447862,00000101,false,Rx,0,8,00,00,00,10,00,00,E0,AD,
3449837,000001D5,false,Rx,0,8,22,99,29,22,22,22,99,99,
3452147,00000100,false,Rx,0,8,00,00,00,10,00,00,E0,C8,
3456065,000001C4,false,Rx,0,8,22,11,92,22,22,22,42,22,
3461836,00000105,false,Rx,0,8,00,00,00,10,00,00,00,96,
3480151,00000204,false,Rx,0,8,35,35,40,39,3D,00,00,00,
3481797,000001C5,false,Rx,0,8,22,11,92,22,22,22,42,22,
3486129,00000104,false,Rx,0,8,00,00,00,10,00,00,C0,C6,
3490547,00000202,false,Rx,0,8,35,36,40,43,3D,00,00,00,
3491177,00000203,false,Rx,0,8,35,35,40,46,3B,00,00,00,
3491808,00000201,false,Rx,0,8,35,35,40,41,3D,00,00,00,
3496253,00000200,false,Rx,0,8,34,35,40,3E,3C,00,00,00,
3496635,00000102,false,Rx,0,8,00,00,00,10,00,00,00,B0,
3497173,00000103,false,Rx,0,8,00,00,00,10,00,00,A0,74,
3497887,00000101,false,Rx,0,8,00,00,00,10,00,00,00,1F,
3502052,00000100,false,Rx,0,8,00,00,00,10,00,00,00,7A,
3505802,00000205,false,Rx,0,8,34,34,40,46,3C,00,00,00,
3511742,00000105,false,Rx,0,8,00,00,00,10,00,00,10,5B,
3534462,000001D2,false,Rx,0,8,22,99,29,22,22,22,99,99,
3535174,000001D3,false,Rx,0,8,22,99,29,22,22,22,99,99,
3535805,000001D1,false,Rx,0,8,22,99,29,22,22,22,99,99,
3536176,00000104,false,Rx,0,8,00,00,00,10,00,00,D0,0B,
3539982,000001D0,false,Rx,0,8,22,99,29,22,22,22,99,99,
3547489,00000102,false,Rx,0,8,00,00,00,10,00,00,10,7D,
3547578,00000103,false,Rx,0,8,00,00,00,10,00,00,B0,B9,
3547788,00000101,false,Rx,0,8,00,00,00,10,00,00,10,D2,
3552039,00000100,false,Rx,0,8,00,00,00,10,00,00,10,B7,
3561694,00000105,false,Rx,0,8,00,00,00,10,00,00,20,11,
3566375,000001C2,false,Rx,0,8,22,22,92,22,22,22,42,22,
3567257,000001C3,false,Rx,0,8,22,11,92,22,22,22,42,22,
3567803,000001C1,false,Rx,0,8,22,22,92,22,22,22,42,22,
3571978,000001C0,false,Rx,0,8,22,22,92,22,22,22,42,22,
3580090,00000204,false,Rx,0,8,35,35,40,3A,3D,00,00,00,
3586028,00000104,false,Rx,0,8,00,00,00,10,00,00,E0,41,
3590363,00000202,false,Rx,0,8,35,36,40,43,3D,00,00,00,
3591327,00000203,false,Rx,0,8,35,35,40,45,3B,00,00,00,
3591791,00000201,false,Rx,0,8,35,35,40,41,3D,00,00,00,
3596128,00000200,false,Rx,0,8,34,35,40,3D,3C,00,00,00,
3596583,00000102,false,Rx,0,8,00,00,00,10,00,00,20,37,
3597295,00000103,false,Rx,0,8,00,00,00,10,00,00,C0,E0,
3599680,00000101,false,Rx,0,8,00,00,00,10,00,00,20,98,
3602158,00000100,false,Rx,0,8,00,00,00,10,00,00,20,FD,
3605741,00000205,false,Rx,0,8,34,34,40,46,3C,00,00,00,
3611766,00000105,false,Rx,0,8,00,00,00,10,00,00,30,DC,
3623945,000001D4,false,Rx,0,8,22,99,29,22,22,22,99,99,
3635958,00000104,false,Rx,0,8,00,00,00,10,00,00,00,F3,
3646451,00000102,false,Rx,0,8,00,00,00,10,00,00,30,FA,
3647248,00000103,false,Rx,0,8,00,00,00,10,00,00,D0,2D,
3647623,00000101,false,Rx,0,8,00,00,00,10,00,00,30,55,
3650258,000001D5,false,Rx,0,8,22,99,29,22,22,22,99,99,
3651983,00000100,false,Rx,0,8,00,00,00,10,00,00,30,30,
3655814,000001C4,false,Rx,0,8,22,11,92,22,22,22,42,22,
3661753,00000105,false,Rx,0,8,00,00,00,10,00,00,40,85,
3679899,00000204,false,Rx,0,8,35,35,40,3A,3D,00,00,00,
3681722,000001C5,false,Rx,0,8,22,11,92,22,22,22,42,22,
3685973,00000104,false,Rx,0,8,00,00,00,10,00,00,10,3E,
3690477,00000202,false,Rx,0,8,35,36,40,43,3C,00,00,00,
3691274,00000203,false,Rx,0,8,35,35,40,45,3B,00,00,00,
3691653,00000201,false,Rx,0,8,35,35,40,41,3D,00,00,00,
3696153,00000200,false,Rx,0,8,34,35,40,3E,3C,00,00,00,
3696525,00000102,false,Rx,0,8,00,00,00,10,00,00,40,A3,
3697321,00000103,false,Rx,0,8,00,00,00,10,00,00,E0,67,
3697619,00000101,false,Rx,0,8,00,00,00,10,00,00,40,0C,
3702040,00000100,false,Rx,0,8,00,00,00,10,00,00,40,69,
3705791,00000205,false,Rx,0,8,34,34,40,46,3C,00,00,00,
3711817,00000105,false,Rx,0,8,00,00,00,10,00,00,50,48,
3734368,000001D2,false,Rx,0,8,22,99,29,22,22,22,99,99,
3735250,000001D3,false,Rx,0,8,22,99,29,22,22,22,99,99,
3735539,000001D1,false,Rx,0,8,22,99,29,22,22,22,99,99,
3735918,00000104,false,Rx,0,8,00,00,00,10,00,00,20,74,
3740166,000001D0,false,Rx,0,8,22,99,29,22,22,22,99,99,
3746453,00000102,false,Rx,0,8,00,00,00,10,00,00,50,6E,
3747333,00000103,false,Rx,0,8,00,00,00,10,00,00,00,D5,
3747540,00000101,false,Rx,0,8,00,00,00,10,00,00,50,C1,
3752775,00000100,false,Rx,0,8,00,00,00,10,00,00,50,A4,
3761667,00000105,false,Rx,0,8,00,00,00,10,00,00,60,02,
3766348,000001C2,false,Rx,0,8,22,22,92,22,22,22,42,22,
3767230,000001C3,false,Rx,0,8,22,11,92,22,22,22,42,22,
3767436,000001C1,false,Rx,0,8,22,22,92,22,22,22,42,22,
3772029,000001C0,false,Rx,0,8,22,22,92,22,22,22,42,22,
3779836,00000204,false,Rx,0,8,35,35,40,3A,3D,00,00,00,
3785819,00000104,false,Rx,0,8,00,00,00,10,00,00,30,B9,
3790434,00000202,false,Rx,0,8,35,36,40,43,3D,00,00,00,
3791230,00000203,false,Rx,0,8,35,35,40,45,3B,00,00,00,
3791610,00000201,false,Rx,0,8,35,35,40,41,3D,00,00,00,
3796047,00000200,false,Rx,0,8,34,35,40,3D,3C,00,00,00,
3796502,00000102,false,Rx,0,8,00,00,00,10,00,00,60,24,
3797295,00000103,false,Rx,0,8,00,00,00,10,00,00,10,18,
3797591,00000101,false,Rx,0,8,00,00,00,10,00,00,60,8B,
3802008,00000100,false,Rx,0,8,00,00,00,10,00,00,60,EE,
3805700,00000205,false,Rx,0,8,34,34,40,46,3C,00,00,00,
3811725,00000105,false,Rx,0,8,00,00,00,10,00,00,70,CF,
3823824,000001D4,false,Rx,0,8,22,99,29,22,22,22,99,99,
3835835,00000104,false,Rx,0,8,00,00,00,10,00,00,40,E0,
3846409,00000102,false,Rx,0,8,00,00,00,10,00,00,70,E9,
3847289,00000103,false,Rx,0,8,00,00,00,10,00,00,20,52,
3847494,00000101,false,Rx,0,8,00,00,00,10,00,00,70,46,
3849554,000001D5,false,Rx,0,8,22,99,29,22,22,22,99,99,
3852042,00000100,false,Rx,0,8,00,00,00,10,00,00,70,23,
3855733,000001C4,false,Rx,0,8,22,11,92,22,22,22,42,22,
3861581,00000105,false,Rx,0,8,00,00,00,10,00,00,80,B0,
3879867,00000204,false,Rx,0,8,35,35,40,3A,3D,00,00,00,
3881676,000001C5,false,Rx,0,8,22,11,92,22,22,22,42,22,
3885720,00000104,false,Rx,0,8,00,00,00,10,00,00,50,2D,
3890306,00000202,false,Rx,0,8,35,36,40,43,3D,00,00,00,
3891357,00000203,false,Rx,0,8,35,35,40,45,3B,00,00,00,
3891562,00000201,false,Rx,0,8,35,35,40,41,3D,00,00,00,
3895985,00000200,false,Rx,0,8,34,35,40,3E,3C,00,00,00,
3896356,00000102,false,Rx,0,8,00,00,00,10,00,00,80,96,
3897321,00000103,false,Rx,0,8,00,00,00,10,00,00,30,9F,
3897619,00000101,false,Rx,0,8,00,00,00,10,00,00,80,39,
3901955,00000100,false,Rx,0,8,00,00,00,10,00,00,80,5C,
3906735,00000205,false,Rx,0,8,34,34,40,46,3C,00,00,00,
3911747,00000105,false,Rx,0,8,00,00,00,10,00,00,90,7D,
3934382,000001D2,false,Rx,0,8,22,99,29,22,22,22,99,99,
3935179,000001D1,false,Rx,0,8,22,99,29,22,22,22,99,99,
3935383,000001D3,false,Rx,0,8,22,99,29,22,22,22,99,99,
3935763,00000104,false,Rx,0,8,00,00,00,10,00,00,60,67,
3939927,000001D0,false,Rx,0,8,22,99,29,22,22,22,99,99,
3946379,00000102,false,Rx,0,8,00,00,00,10,00,00,90,5B,
3947175,00000101,false,Rx,0,8,00,00,00,10,00,00,90,F4,
3947469,00000103,false,Rx,0,8,00,00,00,10,00,00,40,C6,
3951981,00000100,false,Rx,0,8,00,00,00,10,00,00,90,91,
3961799,00000105,false,Rx,0,8,00,00,00,10,00,00,A0,37,
3966490,000001C2,false,Rx,0,8,22,22,92,22,22,22,42,22,
3967286,000001C1,false,Rx,0,8,22,22,92,22,22,22,42,22,
3967492,000001C3,false,Rx,0,8,22,11,92,22,22,22,42,22,
3971999,000001C0,false,Rx,0,8,22,22,92,22,22,22,42,22,
3979727,00000204,false,Rx,0,8,35,35,40,39,3D,00,00,00,
3985667,00000104,false,Rx,0,8,00,00,00,10,00,00,70,AA,
3990292,00000202,false,Rx,0,8,35,36,40,43,3D,00,00,00,
3991340,00000201,false,Rx,0,8,35,35,40,41,3D,00,00,00,
3991545,00000203,false,Rx,0,8,35,35,40,45,3B,00,00,00,
3996141,00000200,false,Rx,0,8,34,35,40,3D,3C,00,00,00,
3996429,00000102,false,Rx,0,8,00,00,00,10,00,00,A0,11,
3997308,00000101,false,Rx,0,8,00,00,00,10,00,00,A0,BE,
3997605,00000103,false,Rx,0,8,00,00,00,10,00,00,50,0B,
4002106,00000100,false,Rx,0,8,00,00,00,10,00,00,A0,DB,
4005856,00000205,false,Rx,0,8,34,34,40,46,3C,00,00,00,
4011867,00000105,false,Rx,0,8,00,00,00,10,00,00,B0,FA,
4023628,000001D4,false,Rx,0,8,22,99,29,22,22,22,99,99,
4035548,00000104,false,Rx,0,8,00,00,00,10,00,00,80,D5,
4046240,00000102,false,Rx,0,8,00,00,00,10,00,00,B0,DC,
4047373,00000101,false,Rx,0,8,00,00,00,10,00,00,B0,73,
4047579,00000103,false,Rx,0,8,00,00,00,10,00,00,60,41,
4049813,000001D5,false,Rx,0,8,22,99,29,22,22,22,99,99,
4051976,00000100,false,Rx,0,8,00,00,00,10,00,00,B0,16,
4055553,000001C4,false,Rx,0,8,22,11,92,22,22,22,42,22,
4061818,00000105,false,Rx,0,8,00,00,00,10,00,00,C0,A3,
4079543,00000204,false,Rx,0,8,35,35,40,3A,3D,00,00,00,
4081862,000001C5,false,Rx,0,8,22,11,92,22,22,22,42,22,
4085519,00000104,false,Rx,0,8,00,00,00,10,00,00,90,18,
4090229,00000202,false,Rx,0,8,35,36,40,43,3D,00,00,00,
4091291,00000203,false,Rx,0,8,35,35,40,45,3B,00,00,00,
4091580,00000201,false,Rx,0,8,35,35,40,41,3D,00,00,00,
4096004,00000200,false,Rx,0,8,34,35,40,3E,3C,00,00,00,
4096291,00000102,false,Rx,0,8,00,00,00,10,00,00,C0,85,
4097339,00000103,false,Rx,0,8,00,00,00,10,00,00,70,8C,
4097636,00000101,false,Rx,0,8,00,00,00,10,00,00,C0,2A,
4102052,00000100,false,Rx,0,8,00,00,00,10,00,00,C0,4F,
4105885,00000205,false,Rx,0,8,34,34,40,46,3C,00,00,00,
4111964,00000105,false,Rx,0,8,00,00,00,10,00,00,D0,6E,
4134086,000001D2,false,Rx,0,8,22,99,29,22,22,22,99,99,
4135302,000001D1,false,Rx,0,8,22,99,29,22,22,22,99,99,
4135507,00000104,false,Rx,0,8,00,00,00,10,00,00,A0,52,
4135802,000001D3,false,Rx,0,8,22,99,29,22,22,22,99,99,
4139968,000001D0,false,Rx,0,8,22,99,29,22,22,22,99,99,
4146088,00000102,false,Rx,0,8,00,00,00,10,00,00,D0,48,
4147303,00000101,false,Rx,0,8,00,00,00,10,00,00,D0,E7,
4147602,00000103,false,Rx,0,8,00,00,00,10,00,00,80,F3,
4152016,00000100,false,Rx,0,8,00,00,00,10,00,00,D0,82,
4162446,00000105,false,Rx,0,8,00,00,00,10,00,00,E0,24,
4166041,000001C2,false,Rx,0,8,22,22,92,22,22,22,42,22,
4167256,000001C1,false,Rx,0,8,22,22,92,22,22,22,42,22,
4167545,000001C3,false,Rx,0,8,22,11,92,22,22,22,42,22,
4171890,000001C0,false,Rx,0,8,22,22,92,22,22,22,42,22,
4179450,00000204,false,Rx,0,8,35,35,40,39,3D,00,00,00,
4185475,00000104,false,Rx,0,8,00,00,00,10,00,00,B0,9F,
4190154,00000202,false,Rx,0,8,35,36,40,43,3D,00,00,00,
4191370,00000201,false,Rx,0,8,35,35,40,41,3D,00,00,00,
4191576,00000203,false,Rx,0,8,35,35,40,45,3B,00,00,00,
4195884,00000200,false,Rx,0,8,34,35,40,3D,3C,00,00,00,
4196087,00000102,false,Rx,0,8,00,00,00,10,00,00,E0,02,
4197302,00000103,false,Rx,0,8,00,00,00,10,00,00,90,3E,
4197598,00000101,false,Rx,0,8,00,00,00,10,00,00,E0,AD,
4201847,00000100,false,Rx,0,8,00,00,00,10,00,00,E0,C8,
4205931,00000205,false,Rx,0,8,34,34,40,46,3C,00,00,00,
4211955,00000105,false,Rx,0,8,00,00,00,10,00,00,00,96,
4223471,000001D4,false,Rx,0,8,22,99,29,22,22,22,99,99,
4235484,00000104,false,Rx,0,8,00,00,00,10,00,00,C0,C6,
4246065,00000102,false,Rx,0,8,00,00,00,10,00,00,00,B0,
4247278,00000101,false,Rx,0,8,00,00,00,10,00,00,00,1F,
4247567,00000103,false,Rx,0,8,00,00,00,10,00,00,A0,74,
4250053,000001D5,false,Rx,0,8,22,99,29,22,22,22,99,99,
4251778,00000100,false,Rx,0,8,00,00,00,10,00,00,00,7A,
4255435,000001C4,false,Rx,0,8,22,11,92,22,22,22,42,22,
4262054,00000105,false,Rx,0,8,00,00,00,10,00,00,10,5B,
4279504,00000204,false,Rx,0,8,35,35,40,3A,3D,00,00,00,
4281988,000001C5,false,Rx,0,8,22,11,92,22,22,22,42,22,
4285476,00000104,false,Rx,0,8,00,00,00,10,00,00,D0,0B,
4290100,00000202,false,Rx,0,8,35,36,40,43,3D,00,00,00,
4291232,00000201,false,Rx,0,8,35,35,40,41,3D,00,00,00,
4291437,00000203,false,Rx,0,8,35,35,40,45,3B,00,00,00,
4295648,00000200,false,Rx,0,8,34,35,40,3E,3C,00,00,00,
4296102,00000102,false,Rx,0,8,00,00,00,10,00,00,10,7D,
4297233,00000101,false,Rx,0,8,00,00,00,10,00,00,10,D2,
4297438,00000103,false,Rx,0,8,00,00,00,10,00,00,B0,B9,
4301612,00000100,false,Rx,0,8,00,00,00,10,00,00,10,B7,
4306029,00000205,false,Rx,0,8,34,34,40,46,3C,00,00,00,
4311989,00000105,false,Rx,0,8,00,00,00,10,00,00,20,11,
4334136,000001D2,false,Rx,0,8,22,99,29,22,22,22,99,99,
4335186,000001D1,false,Rx,0,8,22,99,29,22,22,22,99,99,
4335475,00000104,false,Rx,0,8,00,00,00,10,00,00,E0,41,
4335686,000001D3,false,Rx,0,8,22,99,29,22,22,22,99,99,
4339514,000001D0,false,Rx,0,8,22,99,29,22,22,22,99,99,
4346140,00000102,false,Rx,0,8,00,00,00,10,00,00,20,37,
4347273,00000101,false,Rx,0,8,00,00,00,10,00,00,20,98,
4347564,00000103,false,Rx,0,8,00,00,00,10,00,00,C0,E0,
4351481,00000100,false,Rx,0,8,00,00,00,10,00,00,20,FD,
4361979,00000105,false,Rx,0,8,00,00,00,10,00,00,30,DC,
4365993,000001C2,false,Rx,0,8,22,22,92,22,22,22,42,22,
4367541,000001C1,false,Rx,0,8,22,22,92,22,22,22,42,22,
4367638,000001C3,false,Rx,0,8,22,11,92,22,22,22,42,22,
4371548,000001C0,false,Rx,0,8,22,22,92,22,22,22,42,22,
4379530,00000204,false,Rx,0,8,35,35,40,3A,3D,00,00,00,
4385473,00000104,false,Rx,0,8,00,00,00,10,00,00,00,F3,
4390065,00000202,false,Rx,0,8,35,36,40,43,3D,00,00,00,
4391113,00000201,false,Rx,0,8,35,35,40,41,3D,00,00,00,
4391485,00000203,false,Rx,0,8,35,35,40,45,3B,00,00,00,
4395483,00000200,false,Rx,0,8,34,35,40,3E,3C,00,00,00,
4396144,00000102,false,Rx,0,8,00,00,00,10,00,00,30,FA,
4397192,00000101,false,Rx,0,8,00,00,00,10,00,00,30,55,
4397570,00000103,false,Rx,0,8,00,00,00,10,00,00,D0,2D,
4401496,00000100,false,Rx,0,8,00,00,00,10,00,00,30,30,
4406002,00000205,false,Rx,0,8,34,34,40,46,3C,00,00,00,
4412109,00000105,false,Rx,0,8,00,00,00,10,00,00,40,85,
4423483,000001D4,false,Rx,0,8,22,99,29,22,22,22,99,99,
4435495,00000104,false,Rx,0,8,00,00,00,10,00,00,10,3E,
4446158,00000102,false,Rx,0,8,00,00,00,10,00,00,40,A3,
4447208,00000101,false,Rx,0,8,00,00,00,10,00,00,40,0C,
4447665,00000103,false,Rx,0,8,00,00,00,10,00,00,E0,67,
4450142,000001D5,false,Rx,0,8,22,99,29,22,22,22,99,99,
4451445,00000100,false,Rx,0,8,00,00,00,10,00,00,40,69,
4455447,000001C4,false,Rx,0,8,22,11,92,22,22,22,42,22,
4462065,00000105,false,Rx,0,8,00,00,00,10,00,00,50,48,
4479422,00000204,false,Rx,0,8,35,35,40,3A,3D,00,00,00,
4482158,000001C5,false,Rx,0,8,22,11,92,22,22,22,42,22,
4485401,00000104,false,Rx,0,8,00,00,00,10,00,00,20,74,
4490160,00000202,false,Rx,0,8,35,36,40,43,3D,00,00,00,
4491376,00000201,false,Rx,0,8,35,35,40,41,3D,00,00,00,
4491581,00000203,false,Rx,0,8,35,35,40,45,3B,00,00,00,
4495327,00000200,false,Rx,0,8,34,35,40,3D,3C,00,00,00,
4496125,00000102,false,Rx,0,8,00,00,00,10,00,00,50,6E,
4497426,00000101,false,Rx,0,8,00,00,00,10,00,00,50,C1,
4497629,00000103,false,Rx,0,8,00,00,00,10,00,00,00,D5,
4501419,00000100,false,Rx,0,8,00,00,00,10,00,00,50,A4,
4506176,00000205,false,Rx,0,8,34,34,40,46,3C,00,00,00,
4512201,00000105,false,Rx,0,8,00,00,00,10,00,00,60,02,
4533972,000001D2,false,Rx,0,8,22,99,29,22,22,22,99,99,
4535190,000001D1,false,Rx,0,8,22,99,29,22,22,22,99,99,
4535479,00000104,false,Rx,0,8,00,00,00,10,00,00,30,B9,
4535690,000001D3,false,Rx,0,8,22,99,29,22,22,22,99,99,
4539374,000001D0,false,Rx,0,8,22,99,29,22,22,22,99,99,
4546088,00000102,false,Rx,0,8,00,00,00,10,00,00,60,24,
4547303,00000101,false,Rx,0,8,00,00,00,10,00,00,60,8B,
4547602,00000103,false,Rx,0,8,00,00,00,10,00,00,10,18,
4551426,00000100,false,Rx,0,8,00,00,00,10,00,00,60,EE,
4562338,00000105,false,Rx,0,8,00,00,00,10,00,00,70,CF,
4565951,000001C2,false,Rx,0,8,22,22,92,22,22,22,42,22,
4567250,000001C1,false,Rx,0,8,22,22,92,22,22,22,42,22,
4567538,000001C3,false,Rx,0,8,22,11,92,22,22,22,42,22,
4572543,000001C0,false,Rx,0,8,22,22,92,22,22,22,42,22,
4579329,00000204,false,Rx,0,8,35,35,40,3A,3D,00,00,00,
4585267,00000104,false,Rx,0,8,00,00,00,10,00,00,40,E0,
4590029,00000202,false,Rx,0,8,35,36,40,43,3D,00,00,00,
4591244,00000201,false,Rx,0,8,35,35,40,41,3D,00,00,00,
4591450,00000203,false,Rx,0,8,35,35,40,45,3B,00,00,00,
4595447,00000200,false,Rx,0,8,34,35,40,3D,3C,00,00,00,
4596076,00000102,false,Rx,0,8,00,00,00,10,00,00,70,E9,
4597208,00000101,false,Rx,0,8,00,00,00,10,00,00,70,46,
4597496,00000103,false,Rx,0,8,00,00,00,10,00,00,20,52,
4601358,00000100,false,Rx,0,8,00,00,00,10,00,00,70,23,
4606389,00000205,false,Rx,0,8,34,34,40,46,3C,00,00,00,
4612413,00000105,false,Rx,0,8,00,00,00,10,00,00,80,B0,
4623939,000001D4,false,Rx,0,8,22,99,29,22,22,22,99,99,
4635190,00000104,false,Rx,0,8,00,00,00,10,00,00,50,2D,
4646023,00000102,false,Rx,0,8,00,00,00,10,00,00,80,96,
4647237,00000101,false,Rx,0,8,00,00,00,10,00,00,80,39,
4647443,00000103,false,Rx,0,8,00,00,00,10,00,00,30,9F,
4650177,000001D5,false,Rx,0,8,22,99,29,22,22,22,99,99,
4651398,00000100,false,Rx,0,8,00,00,00,10,00,00,80,5C,
4655148,000001C4,false,Rx,0,8,22,11,92,22,22,22,42,22,
4662265,00000105,false,Rx,0,8,00,00,00,10,00,00,90,7D,
4679136,00000204,false,Rx,0,8,35,35,40,3A,3D,00,00,00,
4682125,000001C5,false,Rx,0,8,22,11,92,22,22,22,42,22,
4685199,00000104,false,Rx,0,8,00,00,00,10,00,00,60,67,
4690045,00000202,false,Rx,0,8,35,36,40,43,3D,00,00,00,
4691009,00000201,false,Rx,0,8,35,35,40,41,3D,00,00,00,
4691379,00000203,false,Rx,0,8,35,35,40,45,3B,00,00,00,
4695299,00000200,false,Rx,0,8,34,35,40,3E,3C,00,00,00,
4696098,00000102,false,Rx,0,8,00,00,00,10,00,00,90,5B,
4697063,00000101,false,Rx,0,8,00,00,00,10,00,00,90,F4,
4697435,00000103,false,Rx,0,8,00,00,00,10,00,00,40,C6,
4701265,00000100,false,Rx,0,8,00,00,00,10,00,00,90,91,
4706237,00000205,false,Rx,0,8,34,34,40,46,3C,00,00,00,
4712260,00000105,false,Rx,0,8,00,00,00,10,00,00,A0,37,
4734027,000001D2,false,Rx,0,8,22,99,29,22,22,22,99,99,
4735074,000001D1,false,Rx,0,8,22,99,29,22,22,22,99,99,
4735361,00000104,false,Rx,0,8,00,00,00,10,00,00,70,AA,
4735566,000001D3,false,Rx,0,8,22,99,29,22,22,22,99,99,
4739315,000001D0,false,Rx,0,8,22,99,29,22,22,22,99,99,
4746112,00000102,false,Rx,0,8,00,00,00,10,00,00,A0,11,
4747077,00000101,false,Rx,0,8,00,00,00,10,00,00,A0,BE,
4747453,00000103,false,Rx,0,8,00,00,00,10,00,00,50,0B,
4751368,00000100,false,Rx,0,8,00,00,00,10,00,00,A0,DB,
4762201,00000105,false,Rx,0,8,00,00,00,10,00,00,B0,FA,
4765970,000001C2,false,Rx,0,8,22,22,92,22,22,22,42,22,
4766853,000001C1,false,Rx,0,8,22,22,92,22,22,22,42,22,
4767480,000001C3,false,Rx,0,8,22,11,92,22,22,22,42,22,
4771229,000001C0,false,Rx,0,8,22,22,92,22,22,22,42,22,
4779220,00000204,false,Rx,0,8,35,35,40,3A,3D,00,00,00,
4785243,00000104,false,Rx,0,8,00,00,00,10,00,00,80,D5,
4790037,00000202,false,Rx,0,8,35,36,40,43,3D,00,00,00,
4790918,00000201,false,Rx,0,8,35,35,40,41,3D,00,00,00,
4791462,00000203,false,Rx,0,8,35,35,40,45,3B,00,00,00,
4795131,00000200,false,Rx,0,8,34,35,40,3E,3C,00,00,00,
4796096,00000102,false,Rx,0,8,00,00,00,10,00,00,B0,DC,
4796976,00000101,false,Rx,0,8,00,00,00,10,00,00,B0,73,
4797431,00000103,false,Rx,0,8,00,00,00,10,00,00,60,41,
4801177,00000100,false,Rx,0,8,00,00,00,10,00,00,B0,16,
4806135,00000205,false,Rx,0,8,34,34,40,46,3C,00,00,00,
4812252,00000105,false,Rx,0,8,00,00,00,10,00,00,C0,A3,
4823103,000001D4,false,Rx,0,8,22,99,29,22,22,22,99,99,
4835128,00000104,false,Rx,0,8,00,00,00,10,00,00,90,18,
4845963,00000102,false,Rx,0,8,00,00,00,10,00,00,C0,85,
4846843,00000101,false,Rx,0,8,00,00,00,10,00,00,C0,2A,
4847640,00000103,false,Rx,0,8,00,00,00,10,00,00,70,8C,
4850117,000001D5,false,Rx,0,8,22,99,29,22,22,22,99,99,
4851249,00000100,false,Rx,0,8,00,00,00,10,00,00,C0,4F,
4855165,000001C4,false,Rx,0,8,22,11,92,22,22,22,42,22,
4862117,00000105,false,Rx,0,8,00,00,00,10,00,00,D0,6E,
4879344,00000204,false,Rx,0,8,35,35,40,3A,3D,00,00,00,
4882164,000001C5,false,Rx,0,8,22,11,92,22,22,22,42,22,
4885237,00000104,false,Rx,0,8,00,00,00,10,00,00,A0,52,
4889914,00000202,false,Rx,0,8,35,36,40,43,3D,00,00,00,
4890797,00000201,false,Rx,0,8,35,35,40,41,3D,00,00,00,
4891677,00000203,false,Rx,0,8,35,35,40,45,3B,00,00,00,
4895332,00000200,false,Rx,0,8,34,35,40,3D,3C,00,00,00,
4895964,00000102,false,Rx,0,8,00,00,00,10,00,00,D0,48,
4896928,00000101,false,Rx,0,8,00,00,00,10,00,00,D0,E7,
4897723,00000103,false,Rx,0,8,00,00,00,10,00,00,80,F3,
4901299,00000100,false,Rx,0,8,00,00,00,10,00,00,D0,82,
4906313,00000205,false,Rx,0,8,34,34,40,46,3C,00,00,00,
4912307,00000105,false,Rx,0,8,00,00,00,10,00,00,E0,24,
4933913,000001D2,false,Rx,0,8,22,99,29,22,22,22,99,99,
4934878,000001D1,false,Rx,0,8,22,99,29,22,22,22,99,99,
4935332,00000104,false,Rx,0,8,00,00,00,10,00,00,B0,9F,
4935539,000001D3,false,Rx,0,8,22,99,29,22,22,22,99,99,
4939290,000001D0,false,Rx,0,8,22,99,29,22,22,22,99,99,
4945837,00000102,false,Rx,0,8,00,00,00,10,00,00,E0,02,
4946801,00000101,false,Rx,0,8,00,00,00,10,00,00,E0,AD,
4947602,00000103,false,Rx,0,8,00,00,00,10,00,00,90,3E,
4951173,00000100,false,Rx,0,8,00,00,00,10,00,00,E0,C8,
4962170,00000105,false,Rx,0,8,00,00,00,10,00,00,00,96,
4965847,000001C2,false,Rx,0,8,22,22,92,22,22,22,42,22,
4966813,000001C1,false,Rx,0,8,22,22,92,22,22,22,42,22,
4967520,000001C3,false,Rx,0,8,22,11,92,22,22,22,42,22,
4971183,000001C0,false,Rx,0,8,22,22,92,22,22,22,42,22,
4979241,00000204,false,Rx,0,8,35,35,40,3A,3D,00,00,00,
4985312,00000104,false,Rx,0,8,00,00,00,10,00,00,C0,C6,
4989826,00000202,false,Rx,0,8,35,36,40,43,3D,00,00,00,
4990958,00000201,false,Rx,0,8,35,35,40,41,3D,00,00,00,
4991581,00000203,false,Rx,0,8,35,35,40,45,3B,00,00,00,
4995243,00000200,false,Rx,0,8,34,35,40,3D,3C,00,00,00,
4995792,00000102,false,Rx,0,8,00,00,00,10,00,00,00,B0,
4996924,00000101,false,Rx,0,8,00,00,00,10,00,00,00,1F,
4997547,00000103,false,Rx,0,8,00,00,00,10,00,00,A0,74,
5001212,00000100,false,Rx,0,8,00,00,00,10,00,00,00,7A,
5006224,00000205,false,Rx,0,8,34,34,40,46,3C,00,00,00,
5012280,00000105,false,Rx,0,8,00,00,00,10,00,00,10,5B,
5023208,000001D4,false,Rx,0,8,22,99,29,22,22,22,99,99,
5035082,00000104,false,Rx,0,8,00,00,00,10,00,00,D0,0B,
5045694,00000102,false,Rx,0,8,00,00,00,10,00,00,10,7D,
5046826,00000101,false,Rx,0,8,00,00,00,10,00,00,10,D2,
5047533,00000103,false,Rx,0,8,00,00,00,10,00,00,B0,B9,
5050267,000001D5,false,Rx,0,8,22,99,29,22,22,22,99,99,
5051065,00000100,false,Rx,0,8,00,00,00,10,00,00,10,B7,
5055064,000001C4,false,Rx,0,8,22,11,92,22,22,22,42,22,
5062183,00000105,false,Rx,0,8,00,00,00,10,00,00,20,11,
5078925,00000204,false,Rx,0,8,35,35,40,3A,3D,00,00,00,
5082246,000001C5,false,Rx,0,8,22,11,92,22,22,22,42,22,
5084914,00000104,false,Rx,0,8,00,00,00,10,00,00,E0,41,
5089583,00000202,false,Rx,0,8,35,36,40,43,3D,00,00,00,
5090806,00000201,false,Rx,0,8,35,35,40,41,3D,00,00,00,
5091429,00000203,false,Rx,0,8,35,35,40,45,3B,00,00,00,
5095009,00000200,false,Rx,0,8,34,35,40,3E,3C,00,00,00,
5095633,00000102,false,Rx,0,8,00,00,00,10,00,00,20,37,
5096765,00000101,false,Rx,0,8,00,00,00,10,00,00,20,98,
5097386,00000103,false,Rx,0,8,00,00,00,10,00,00,C0,E0,
5100886,00000100,false,Rx,0,8,00,00,00,10,00,00,20,FD,
5106233,00000205,false,Rx,0,8,34,34,40,46,3C,00,00,00,
5112171,00000105,false,Rx,0,8,00,00,00,10,00,00,30,DC,
5133580,000001D2,false,Rx,0,8,22,99,29,22,22,22,99,99,
5135644,000001D1,false,Rx,0,8,22,99,29,22,22,22,99,99,
5135733,00000104,false,Rx,0,8,00,00,00,10,00,00,00,F3,
5135821,000001D3,false,Rx,0,8,22,99,29,22,22,22,99,99,
5138975,000001D0,false,Rx,0,8,22,99,29,22,22,22,99,99,
5145604,00000102,false,Rx,0,8,00,00,00,10,00,00,30,FA,
5146561,00000101,false,Rx,0,8,00,00,00,10,00,00,30,55,
5147529,00000103,false,Rx,0,8,00,00,00,10,00,00,D0,2D,
5151027,00000100,false,Rx,0,8,00,00,00,10,00,00,30,30,
5162193,00000105,false,Rx,0,8,00,00,00,10,00,00,40,85,
5165622,000001C2,false,Rx,0,8,22,22,92,22,22,22,42,22,
5166496,000001C1,false,Rx,0,8,22,22,92,22,22,22,42,22,
5167375,000001C3,false,Rx,0,8,22,11,92,22,22,22,42,22,
5170875,000001C0,false,Rx,0,8,22,22,92,22,22,22,42,22,
5178849,00000204,false,Rx,0,8,35,35,40,39,3D,00,00,00,
5184791,00000104,false,Rx,0,8,00,00,00,10,00,00,10,3E,
5189596,00000202,false,Rx,0,8,35,36,40,43,3D,00,00,00,
5190468,00000201,false,Rx,0,8,35,35,40,41,3D,00,00,00,
5191432,00000203,false,Rx,0,8,35,35,40,46,3B,00,00,00,
5194845,00000200,false,Rx,0,8,34,35,40,3D,3C,00,00,00,
5195551,00000102,false,Rx,0,8,00,00,00,10,00,00,40,A3,
5196517,00000101,false,Rx,0,8,00,00,00,10,00,00,40,0C,
5197481,00000103,false,Rx,0,8,00,00,00,10,00,00,E0,67,
5200897,00000100,false,Rx,0,8,00,00,00,10,00,00,40,69,
5206160,00000205,false,Rx,0,8,34,34,40,46,3C,00,00,00,
5212098,00000105,false,Rx,0,8,00,00,00,10,00,00,50,48,
5222894,000001D4,false,Rx,0,8,22,99,29,22,22,22,99,99,
5234909,00000104,false,Rx,0,8,00,00,00,10,00,00,20,74,
5245514,00000102,false,Rx,0,8,00,00,00,10,00,00,50,6E,
5246309,00000101,false,Rx,0,8,00,00,00,10,00,00,50,C1,
5247357,00000103,false,Rx,0,8,00,00,00,10,00,00,00,D5,
5250010,000001D5,false,Rx,0,8,22,99,29,22,22,22,99,99,
5250807,00000100,false,Rx,0,8,00,00,00,10,00,00,50,A4,
5254890,000001C4,false,Rx,0,8,22,11,92,22,22,22,42,22,
5262092,00000105,false,Rx,0,8,00,00,00,10,00,00,60,02,
5279027,00000204,false,Rx,0,8,35,35,40,3A,3D,00,00,00,
5282013,000001C5,false,Rx,0,8,22,11,92,22,22,22,42,22,
5284917,00000104,false,Rx,0,8,00,00,00,10,00,00,30,B9,
5289535,00000202,false,Rx,0,8,35,36,40,43,3D,00,00,00,
5290332,00000201,false,Rx,0,8,35,35,40,42,3D,00,00,00,
5291383,00000203,false,Rx,0,8,35,35,40,45,3B,00,00,00,
5294884,00000200,false,Rx,0,8,34,35,40,3D,3C,00,00,00,
5295505,00000102,false,Rx,0,8,00,00,00,10,00,00,60,24,
5296301,00000101,false,Rx,0,8,00,00,00,10,00,00,60,8B,
5297435,00000103,false,Rx,0,8,00,00,00,10,00,00,10,18,
5300850,00000100,false,Rx,0,8,00,00,00,10,00,00,60,EE,
5306028,00000205,false,Rx,0,8,34,34,40,46,3C,00,00,00,
5312137,00000105,false,Rx,0,8,00,00,00,10,00,00,70,CF,
5333572,000001D2,false,Rx,0,8,22,99,29,22,22,22,99,99,
5334286,000001D1,false,Rx,0,8,22,99,29,22,22,22,99,99,
5334916,00000104,false,Rx,0,8,00,00,00,10,00,00,40,E0,
5335455,000001D3,false,Rx,0,8,22,99,29,22,22,22,99,99,
5338789,000001D0,false,Rx,0,8,22,99,29,22,22,22,99,99,
5345534,00000102,false,Rx,0,8,00,00,00,10,00,00,70,E9,
5346417,00000101,false,Rx,0,8,00,00,00,10,00,00,70,46,
5347552,00000103,false,Rx,0,8,00,00,00,10,00,00,20,52,
5350884,00000100,false,Rx,0,8,00,00,00,10,00,00,70,23,
5362137,00000105,false,Rx,0,8,00,00,00,10,00,00,80,B0,
5365482,000001C2,false,Rx,0,8,22,22,92,22,22,22,42,22,
5366361,000001C1,false,Rx,0,8,22,22,92,22,22,22,42,22,
5367494,000001C3,false,Rx,0,8,22,11,92,22,22,22,42,22,
5370904,000001C0,false,Rx,0,8,22,22,92,22,22,22,42,22,
5378878,00000204,false,Rx,0,8,35,35,40,3A,3D,00,00,00,
5384901,00000104,false,Rx,0,8,00,00,00,10,00,00,50,2D,
5389489,00000202,false,Rx,0,8,35,36,40,43,3D,00,00,00,
5390455,00000201,false,Rx,0,8,35,35,40,41,3D,00,00,00,
5392543,00000203,false,Rx,0,8,35,35,40,45,3B,00,00,00,
5394948,00000200,false,Rx,0,8,34,35,40,3D,3C,00,00,00,
5395571,00000102,false,Rx,0,8,00,00,00,10,00,00,80,96,
5396453,00000101,false,Rx,0,8,00,00,00,10,00,00,80,39,
5397420,00000103,false,Rx,0,8,00,00,00,10,00,00,30,9F,
5400916,00000100,false,Rx,0,8,00,00,00,10,00,00,80,5C,
5406092,00000205,false,Rx,0,8,34,34,40,46,3C,00,00,00,
5412201,00000105,false,Rx,0,8,00,00,00,10,00,00,90,7D,
5422828,000001D4,false,Rx,0,8,22,99,29,22,22,22,99,99,
5434842,00000104,false,Rx,0,8,00,00,00,10,00,00,60,67,
5445642,00000102,false,Rx,0,8,00,00,00,10,00,00,90,5B,
5446516,00000101,false,Rx,0,8,00,00,00,10,00,00,90,F4,
5447481,00000103,false,Rx,0,8,00,00,00,10,00,00,40,C6,
5450134,000001D5,false,Rx,0,8,22,99,29,22,22,22,99,99,
5450931,00000100,false,Rx,0,8,00,00,00,10,00,00,90,91,
5454764,000001C4,false,Rx,0,8,22,11,92,22,22,22,42,22,
5462218,00000105,false,Rx,0,8,00,00,00,10,00,00,A0,37,
5478734,00000204,false,Rx,0,8,35,35,40,3A,3D,00,00,00,
5482226,000001C5,false,Rx,0,8,22,11,92,22,22,22,42,22,
5484716,00000104,false,Rx,0,8,00,00,00,10,00,00,70,AA,
5489555,00000202,false,Rx,0,8,35,36,40,43,3D,00,00,00,
5490437,00000201,false,Rx,0,8,35,35,40,41,3D,00,00,00,
5491569,00000203,false,Rx,0,8,35,35,40,45,3B,00,00,00,
5494875,00000200,false,Rx,0,8,34,35,40,3D,3C,00,00,00,
5495581,00000102,false,Rx,0,8,00,00,00,10,00,00,A0,11,
5496461,00000101,false,Rx,0,8,00,00,00,10,00,00,A0,BE,
5497602,00000103,false,Rx,0,8,00,00,00,10,00,00,50,0B,
5500840,00000100,false,Rx,0,8,00,00,00,10,00,00,A0,DB,
5506184,00000205,false,Rx,0,8,34,34,40,46,3C,00,00,00,
5512208,00000105,false,Rx,0,8,00,00,00,10,00,00,B0,FA,
5533453,000001D2,false,Rx,0,8,22,99,29,22,22,22,99,99,
5534332,000001D1,false,Rx,0,8,22,99,29,22,22,22,99,99,
5534714,00000104,false,Rx,0,8,00,00,00,10,00,00,80,D5,
5535594,000001D3,false,Rx,0,8,22,99,29,22,22,22,99,99,
5538777,000001D0,false,Rx,0,8,22,99,29,22,22,22,99,99,
5545862,00000102,false,Rx,0,8,00,00,00,10,00,00,B0,DC,
5546317,00000101,false,Rx,0,8,00,00,00,10,00,00,B0,73,
5547627,00000103,false,Rx,0,8,00,00,00,10,00,00,60,41,
5550783,00000100,false,Rx,0,8,00,00,00,10,00,00,B0,16,
5562117,00000105,false,Rx,0,8,00,00,00,10,00,00,C0,A3,
5565460,000001C2,false,Rx,0,8,22,22,92,22,22,22,42,22,
5566257,000001C1,false,Rx,0,8,22,22,92,22,22,22,42,22,
5567472,000001C3,false,Rx,0,8,22,11,92,22,22,22,42,22,
5570726,000001C0,false,Rx,0,8,22,22,92,22,22,22,42,22,
5578705,00000204,false,Rx,0,8,35,35,40,3A,3D,00,00,00,
5584729,00000104,false,Rx,0,8,00,00,00,10,00,00,90,18,
5589337,00000202,false,Rx,0,8,35,36,40,43,3D,00,00,00,
5590218,00000201,false,Rx,0,8,35,35,40,41,3D,00,00,00,
5591441,00000203,false,Rx,0,8,35,35,40,45,3B,00,00,00,
5594772,00000200,false,Rx,0,8,34,35,40,3E,3C,00,00,00,
5595309,00000102,false,Rx,0,8,00,00,00,10,00,00,C0,85,
5597831,00000101,false,Rx,0,8,00,00,00,10,00,00,C0,2A,
5597920,00000103,false,Rx,0,8,00,00,00,10,00,00,70,8C,
5600741,00000100,false,Rx,0,8,00,00,00,10,00,00,C0,4F,
5606004,00000205,false,Rx,0,8,34,34,40,46,3C,00,00,00,
5612026,00000105,false,Rx,0,8,00,00,00,10,00,00,D0,6E,
5622776,000001D4,false,Rx,0,8,22,99,29,22,22,22,99,99,
5634746,00000104,false,Rx,0,8,00,00,00,10,00,00,A0,52,
5645405,00000102,false,Rx,0,8,00,00,00,10,00,00,D0,48,
5646118,00000101,false,Rx,0,8,00,00,00,10,00,00,D0,E7,
5647501,00000103,false,Rx,0,8,00,00,00,10,00,00,80,F3,
5649959,000001D5,false,Rx,0,8,22,99,29,22,22,22,99,99,
5650674,00000100,false,Rx,0,8,00,00,00,10,00,00,D0,82,
5654754,000001C4,false,Rx,0,8,22,11,92,22,22,22,42,22,
5662039,00000105,false,Rx,0,8,00,00,00,10,00,00,E0,24,
5678813,00000204,false,Rx,0,8,35,35,40,3A,3D,00,00,00,
5681971,000001C5,false,Rx,0,8,22,11,92,22,22,22,42,22,
5684795,00000104,false,Rx,0,8,00,00,00,10,00,00,B0,9F,
5689468,00000202,false,Rx,0,8,35,36,40,43,3D,00,00,00,
5690096,00000201,false,Rx,0,8,35,35,40,41,3D,00,00,00,
5691479,00000203,false,Rx,0,8,35,35,40,45,3B,00,00,00,
5694725,00000200,false,Rx,0,8,34,35,40,3D,3C,00,00,00,
5695433,00000102,false,Rx,0,8,00,00,00,10,00,00,E0,02,
5696146,00000101,false,Rx,0,8,00,00,00,10,00,00,E0,AD,
5697449,00000103,false,Rx,0,8,00,00,00,10,00,00,90,3E,
5700784,00000100,false,Rx,0,8,00,00,00,10,00,00,E0,C8,
5705962,00000205,false,Rx,0,8,34,34,40,46,3C,00,00,00,
5711986,00000105,false,Rx,0,8,00,00,00,10,00,00,00,96,
5733488,000001D2,false,Rx,0,8,22,99,29,22,22,22,99,99,
5734034,000001D1,false,Rx,0,8,22,99,29,22,22,22,99,99,
5734665,00000104,false,Rx,0,8,00,00,00,10,00,00,C0,C6,
5735539,000001D3,false,Rx,0,8,22,99,29,22,22,22,99,99,
5738872,000001D0,false,Rx,0,8,22,99,29,22,22,22,99,99,
5745580,00000102,false,Rx,0,8,00,00,00,10,00,00,00,B0,
5746124,00000101,false,Rx,0,8,00,00,00,10,00,00,00,1F,
5747510,00000103,false,Rx,0,8,00,00,00,10,00,00,A0,74,
5751137,00000100,false,Rx,0,8,00,00,00,10,00,00,00,7A,
5761975,00000105,false,Rx,0,8,00,00,00,10,00,00,10,5B,
5765398,000001C2,false,Rx,0,8,22,22,92,22,22,22,42,22,
5766111,000001C1,false,Rx,0,8,22,22,92,22,22,22,42,22,
5767578,000001C3,false,Rx,0,8,22,11,92,22,22,22,42,22,
5770907,000001C0,false,Rx,0,8,22,22,92,22,22,22,42,22,
5778719,00000204,false,Rx,0,8,35,35,40,3A,3D,00,00,00,
5784742,00000104,false,Rx,0,8,00,00,00,10,00,00,D0,0B,
5789527,00000202,false,Rx,0,8,35,36,40,43,3D,00,00,00,
5790072,00000201,false,Rx,0,8,35,35,40,41,3D,00,00,00,
5791633,00000203,false,Rx,0,8,35,35,40,45,3B,00,00,00,
5794791,00000200,false,Rx,0,8,34,35,40,3E,3C,00,00,00,
5795579,00000102,false,Rx,0,8,00,00,00,10,00,00,10,7D,
5796123,00000101,false,Rx,0,8,00,00,00,10,00,00,10,D2,
5797599,00000103,false,Rx,0,8,00,00,00,10,00,00,B0,B9,
5800837,00000100,false,Rx,0,8,00,00,00,10,00,00,10,B7,
5805875,00000205,false,Rx,0,8,34,34,40,46,3C,00,00,00,
5811899,00000105,false,Rx,0,8,00,00,00,10,00,00,20,11,
5822727,000001D4,false,Rx,0,8,22,99,29,22,22,22,99,99,
5834777,00000104,false,Rx,0,8,00,00,00,10,00,00,E0,41,
5845458,00000102,false,Rx,0,8,00,00,00,10,00,00,20,37,
5846170,00000101,false,Rx,0,8,00,00,00,10,00,00,20,98,
5847554,00000103,false,Rx,0,8,00,00,00,10,00,00,C0,E0,
5849958,000001D5,false,Rx,0,8,22,99,29,22,22,22,99,99,
5850756,00000100,false,Rx,0,8,00,00,00,10,00,00,20,FD,
5854772,000001C4,false,Rx,0,8,22,11,92,22,22,22,42,22,
5861975,00000105,false,Rx,0,8,00,00,00,10,00,00,30,DC,
5878817,00000204,false,Rx,0,8,35,35,40,3A,3D,00,00,00,
5881892,000001C5,false,Rx,0,8,22,11,92,22,22,22,42,22,
5884883,00000104,false,Rx,0,8,00,00,00,10,00,00,00,F3,
5889218,00000202,false,Rx,0,8,35,36,40,43,3D,00,00,00,
5890017,00000201,false,Rx,0,8,35,35,40,41,3D,00,00,00,
5891402,00000203,false,Rx,0,8,35,35,40,45,3B,00,00,00,
5894647,00000200,false,Rx,0,8,34,35,40,3E,3C,00,00,00,
5895268,00000102,false,Rx,0,8,00,00,00,10,00,00,30,FA,
5896065,00000101,false,Rx,0,8,00,00,00,10,00,00,30,55,
5897363,00000103,false,Rx,0,8,00,00,00,10,00,00,D0,2D,
5900695,00000100,false,Rx,0,8,00,00,00,10,00,00,30,30,
5905939,00000205,false,Rx,0,8,34,34,40,46,3C,00,00,00,
5911961,00000105,false,Rx,0,8,00,00,00,10,00,00,40,85,
5933276,000001D2,false,Rx,0,8,22,99,29,22,22,22,99,99,
5934157,000001D1,false,Rx,0,8,22,99,29,22,22,22,99,99,
5934882,00000104,false,Rx,0,8,00,00,00,10,00,00,10,3E,
5935425,000001D3,false,Rx,0,8,22,99,29,22,22,22,99,99,
5938580,000001D0,false,Rx,0,8,22,99,29,22,22,22,99,99,
5945292,00000102,false,Rx,0,8,00,00,00,10,00,00,40,A3,
5946173,00000101,false,Rx,0,8,00,00,00,10,00,00,40,0C,
5947390,00000103,false,Rx,0,8,00,00,00,10,00,00,E0,67,
5950640,00000100,false,Rx,0,8,00,00,00,10,00,00,40,69,
5961885,00000105,false,Rx,0,8,00,00,00,10,00,00,50,48,
5965309,000001C2,false,Rx,0,8,22,22,92,22,22,22,42,22,
5965943,000001C1,false,Rx,0,8,22,22,92,22,22,22,42,22,
5967410,000001C3,false,Rx,0,8,22,11,92,22,22,22,42,22,
5970396,000001C0,false,Rx,0,8,22,22,92,22,22,22,42,22,
5978878,00000204,false,Rx,0,8,35,35,40,3A,3D,00,00,00,
5984817,00000104,false,Rx,0,8,00,00,00,10,00,00,20,74,
5989233,00000202,false,Rx,0,8,35,36,40,43,3D,00,00,00,
5989947,00000201,false,Rx,0,8,35,35,40,41,3D,00,00,00,
5991496,00000203,false,Rx,0,8,35,35,40,45,3B,00,00,00,
5994401,00000200,false,Rx,0,8,34,35,40,3D,3C,00,00,00,
5995280,00000102,false,Rx,0,8,00,00,00,10,00,00,50,6E,
5995910,00000101,false,Rx,0,8,00,00,00,10,00,00,50,C1,
5997460,00000103,false,Rx,0,8,00,00,00,10,00,00,00,D5,
6000365,00000100,false,Rx,0,8,00,00,00,10,00,00,50,A4,
6005806,00000205,false,Rx,0,8,34,34,40,46,3C,00,00,00,
6011898,00000105,false,Rx,0,8,00,00,00,10,00,00,60,02,
6022898,000001D4,false,Rx,0,8,22,99,29,22,22,22,99,99,
6034937,00000104,false,Rx,0,8,00,00,00,10,00,00,30,B9,
6045302,00000102,false,Rx,0,8,00,00,00,10,00,00,60,24,
6045766,00000101,false,Rx,0,8,00,00,00,10,00,00,60,8B,
6047658,00000103,false,Rx,0,8,00,00,00,10,00,00,10,18,
6049886,000001D5,false,Rx,0,8,22,99,29,22,22,22,99,99,
6050340,00000100,false,Rx,0,8,00,00,00,10,00,00,60,EE,
6054932,000001C4,false,Rx,0,8,22,11,92,22,22,22,42,22,
6061945,00000105,false,Rx,0,8,00,00,00,10,00,00,70,CF,
6079074,00000204,false,Rx,0,8,35,35,40,3A,3D,00,00,00,
6081814,000001C5,false,Rx,0,8,22,11,92,22,22,22,42,22,
6085054,00000104,false,Rx,0,8,00,00,00,10,00,00,40,E0,
6089391,00000202,false,Rx,0,8,35,36,40,43,3D,00,00,00,
6089770,00000201,false,Rx,0,8,35,35,40,41,3D,00,00,00,
6091487,00000203,false,Rx,0,8,35,35,40,45,3B,00,00,00,
6094307,00000200,false,Rx,0,8,34,35,40,3E,3C,00,00,00,
6095441,00000102,false,Rx,0,8,00,00,00,10,00,00,70,E9,
6095736,00000101,false,Rx,0,8,00,00,00,10,00,00,70,46,
6097453,00000103,false,Rx,0,8,00,00,00,10,00,00,20,52,
6100297,00000100,false,Rx,0,8,00,00,00,10,00,00,70,23,
6105736,00000205,false,Rx,0,8,34,34,40,46,3C,00,00,00,
6111821,00000105,false,Rx,0,8,00,00,00,10,00,00,80,B0,
6133266,000001D2,false,Rx,0,8,22,99,29,22,22,22,99,99,
6133729,000001D1,false,Rx,0,8,22,99,29,22,22,22,99,99,
6135113,00000104,false,Rx,0,8,00,00,00,10,00,00,50,2D,
6135488,000001D3,false,Rx,0,8,22,99,29,22,22,22,99,99,
6138252,000001D0,false,Rx,0,8,22,99,29,22,22,22,99,99,
6145315,00000102,false,Rx,0,8,00,00,00,10,00,00,80,96,
6145695,00000101,false,Rx,0,8,00,00,00,10,00,00,80,39,
6147497,00000103,false,Rx,0,8,00,00,00,10,00,00,30,9F,
6150315,00000100,false,Rx,0,8,00,00,00,10,00,00,80,5C,
6161623,00000105,false,Rx,0,8,00,00,00,10,00,00,90,7D,
6165298,000001C2,false,Rx,0,8,22,22,92,22,22,22,42,22,
6165594,000001C1,false,Rx,0,8,22,22,92,22,22,22,42,22,
6167561,000001C3,false,Rx,0,8,22,11,92,22,22,22,42,22,
6170382,000001C0,false,Rx,0,8,22,22,92,22,22,22,42,22,
6179034,00000204,false,Rx,0,8,35,35,40,3A,3D,00,00,00,
6185058,00000104,false,Rx,0,8,00,00,00,10,00,00,60,67,
6189225,00000202,false,Rx,0,8,35,36,40,43,3D,00,00,00,
6189605,00000201,false,Rx,0,8,35,35,40,41,3D,00,00,00,
6191489,00000203,false,Rx,0,8,35,35,40,45,3B,00,00,00,
6194309,00000200,false,Rx,0,8,34,35,40,3E,3C,00,00,00,
6195273,00000102,false,Rx,0,8,00,00,00,10,00,00,90,5B,
6195652,00000101,false,Rx,0,8,00,00,00,10,00,00,90,F4,
6197453,00000103,false,Rx,0,8,00,00,00,10,00,00,40,C6,
6200357,00000100,false,Rx,0,8,00,00,00,10,00,00,90,91,
6205628,00000205,false,Rx,0,8,34,34,40,46,3C,00,00,00,
6212697,00000105,false,Rx,0,8,00,00,00,10,00,00,A0,37,
6223023,000001D4,false,Rx,0,8,22,99,29,22,22,22,99,99,
6235034,00000104,false,Rx,0,8,00,00,00,10,00,00,70,AA,
6245140,00000102,false,Rx,0,8,00,00,00,10,00,00,A0,11,
6245689,00000101,false,Rx,0,8,00,00,00,10,00,00,A0,BE,
6247573,00000103,false,Rx,0,8,00,00,00,10,00,00,50,0B,
6249550,000001D5,false,Rx,0,8,22,99,29,22,22,22,99,99,
6250262,00000100,false,Rx,0,8,00,00,00,10,00,00,A0,DB,
6255105,000001C4,false,Rx,0,8,22,11,92,22,22,22,42,22,
6261639,00000105,false,Rx,0,8,00,00,00,10,00,00,B0,FA,
6279125,00000204,false,Rx,0,8,35,35,40,3A,3D,00,00,00,
6281439,000001C5,false,Rx,0,8,22,11,92,22,22,22,42,22,
6285189,00000104,false,Rx,0,8,00,00,00,10,00,00,80,D5,
6289132,00000202,false,Rx,0,8,35,36,40,43,3D,00,00,00,
6289596,00000201,false,Rx,0,8,35,35,40,41,3D,00,00,00,
6291648,00000203,false,Rx,0,8,35,35,40,45,3B,00,00,00,
6294293,00000200,false,Rx,0,8,34,35,40,3E,3C,00,00,00,
6295175,00000102,false,Rx,0,8,00,00,00,10,00,00,B0,DC,
6295546,00000101,false,Rx,0,8,00,00,00,10,00,00,B0,73,
6297693,00000103,false,Rx,0,8,00,00,00,10,00,00,60,41,
6300252,00000100,false,Rx,0,8,00,00,00,10,00,00,B0,16,
6305514,00000205,false,Rx,0,8,34,34,40,46,3C,00,00,00,
6311536,00000105,false,Rx,0,8,00,00,00,10,00,00,C0,A3,
6333175,000001D2,false,Rx,0,8,22,99,29,22,22,22,99,99,
6333464,000001D1,false,Rx,0,8,22,99,29,22,22,22,99,99,
6335106,00000104,false,Rx,0,8,00,00,00,10,00,00,90,18,
6335477,000001D3,false,Rx,0,8,22,99,29,22,22,22,99,99,
6338299,000001D0,false,Rx,0,8,22,99,29,22,22,22,99,99,
6345135,00000102,false,Rx,0,8,00,00,00,10,00,00,C0,85,
6345507,00000101,false,Rx,0,8,00,00,00,10,00,00,C0,2A,
6347568,00000103,false,Rx,0,8,00,00,00,10,00,00,70,8C,
6350220,00000100,false,Rx,0,8,00,00,00,10,00,00,C0,4F,
6361579,00000105,false,Rx,0,8,00,00,00,10,00,00,D0,6E,
6365620,000001C2,false,Rx,0,8,22,22,92,22,22,22,42,22,
6365708,000001C1,false,Rx,0,8,22,22,92,22,22,22,42,22,
6367341,000001C3,false,Rx,0,8,22,11,92,22,22,22,42,22,
6370160,000001C0,false,Rx,0,8,22,22,92,22,22,22,42,22,
6378981,00000204,false,Rx,0,8,35,35,40,3A,3D,00,00,00,
6384921,00000104,false,Rx,0,8,00,00,00,10,00,00,A0,52,
6389003,00000202,false,Rx,0,8,35,36,40,43,3D,00,00,00,
6389542,00000201,false,Rx,0,8,35,35,40,41,3D,00,00,00,
6391437,00000203,false,Rx,0,8,35,35,40,45,3B,00,00,00,
6394172,00000200,false,Rx,0,8,34,35,40,3D,3C,00,00,00,
6394970,00000102,false,Rx,0,8,00,00,00,10,00,00,D0,48,
6395428,00000101,false,Rx,0,8,00,00,00,10,00,00,D0,E7,
6397486,00000103,false,Rx,0,8,00,00,00,10,00,00,80,F3,
6400139,00000100,false,Rx,0,8,00,00,00,10,00,00,D0,82,
6405662,00000205,false,Rx,0,8,34,34,40,46,3C,00,00,00,
6411766,00000105,false,Rx,0,8,00,00,00,10,00,00,E0,24,
6422913,000001D4,false,Rx,0,8,22,99,29,22,22,22,99,99,
6434928,00000104,false,Rx,0,8,00,00,00,10,00,00,B0,9F,
6445026,00000102,false,Rx,0,8,00,00,00,10,00,00,E0,02,
6445313,00000101,false,Rx,0,8,00,00,00,10,00,00,E0,AD,
6447473,00000103,false,Rx,0,8,00,00,00,10,00,00,90,3E,
6449708,000001D5,false,Rx,0,8,22,99,29,22,22,22,99,99,
6449995,00000100,false,Rx,0,8,00,00,00,10,00,00,E0,C8,
6454924,000001C4,false,Rx,0,8,22,11,92,22,22,22,42,22,
6461791,00000105,false,Rx,0,8,00,00,00,10,00,00,00,96,
6478906,00000204,false,Rx,0,8,35,35,40,3A,3D,00,00,00,
6481812,000001C5,false,Rx,0,8,22,11,92,22,22,22,42,22,
6484886,00000104,false,Rx,0,8,00,00,00,10,00,00,C0,C6,
6489139,00000202,false,Rx,0,8,35,36,40,43,3D,00,00,00,
6489342,00000201,false,Rx,0,8,35,35,40,41,3D,00,00,00,
6491316,00000203,false,Rx,0,8,35,35,40,45,3B,00,00,00,
6493969,00000200,false,Rx,0,8,34,35,40,3E,3C,00,00,00,
6495102,00000102,false,Rx,0,8,00,00,00,10,00,00,00,B0,
6495391,00000101,false,Rx,0,8,00,00,00,10,00,00,00,1F,
6497365,00000103,false,Rx,0,8,00,00,00,10,00,00,A0,74,
6499939,00000100,false,Rx,0,8,00,00,00,10,00,00,00,7A,
6505798,00000205,false,Rx,0,8,34,34,40,47,3C,00,00,00,
6511739,00000105,false,Rx,0,8,00,00,00,10,00,00,10,5B,
6533169,000001D2,false,Rx,0,8,22,99,29,22,22,22,99,99,
6533373,000001D1,false,Rx,0,8,22,99,29,22,22,22,99,99,
6534931,00000104,false,Rx,0,8,00,00,00,10,00,00,D0,0B,
6535301,000001D3,false,Rx,0,8,22,99,29,22,22,22,99,99,
6537875,000001D0,false,Rx,0,8,22,99,29,22,22,22,99,99,
6545116,00000102,false,Rx,0,8,00,00,00,10,00,00,10,7D,
6545405,00000101,false,Rx,0,8,00,00,00,10,00,00,10,D2,
6547239,00000103,false,Rx,0,8,00,00,00,10,00,00,B0,B9,
6549992,00000100,false,Rx,0,8,00,00,00,10,00,00,10,B7,
6561667,00000105,false,Rx,0,8,00,00,00,10,00,00,20,11,
6565167,000001C2,false,Rx,0,8,22,22,92,22,22,22,42,22,
6565370,000001C1,false,Rx,0,8,22,22,92,22,22,22,42,22,
6567182,000001C3,false,Rx,0,8,22,11,92,22,22,22,42,22,
6570908,000001C0,false,Rx,0,8,22,22,92,22,22,22,42,22,
6578969,00000204,false,Rx,0,8,35,35,40,39,3D,00,00,00,
6584993,00000104,false,Rx,0,8,00,00,00,10,00,00,E0,41,
6589160,00000202,false,Rx,0,8,35,36,40,43,3D,00,00,00,
6589364,00000201,false,Rx,0,8,35,35,40,41,3D,00,00,00,
6591172,00000203,false,Rx,0,8,35,35,40,45,3B,00,00,00,
6593910,00000200,false,Rx,0,8,34,35,40,3D,3C,00,00,00,
6595292,00000102,false,Rx,0,8,00,00,00,10,00,00,20,37,
6595497,00000101,false,Rx,0,8,00,00,00,10,00,00,20,98,
6597221,00000103,false,Rx,0,8,00,00,00,10,00,00,C0,E0,
6599958,00000100,false,Rx,0,8,00,00,00,10,00,00,20,FD,
6605734,00000205,false,Rx,0,8,34,34,40,46,3C,00,00,00,
6611705,00000105,false,Rx,0,8,00,00,00,10,00,00,30,DC,
6623020,000001D4,false,Rx,0,8,22,99,29,22,22,22,99,99,
6634867,00000104,false,Rx,0,8,00,00,00,10,00,00,00,F3,
6645190,00000102,false,Rx,0,8,00,00,00,10,00,00,30,FA,
6645398,00000101,false,Rx,0,8,00,00,00,10,00,00,30,55,
6647291,00000103,false,Rx,0,8,00,00,00,10,00,00,D0,2D,
6649642,000001D5,false,Rx,0,8,22,99,29,22,22,22,99,99,
6650096,00000100,false,Rx,0,8,00,00,00,10,00,00,30,30,
6654784,000001C4,false,Rx,0,8,22,11,92,22,22,22,42,22,
6661641,00000105,false,Rx,0,8,00,00,00,10,00,00,40,85,
6678916,00000204,false,Rx,0,8,35,35,40,3A,3D,00,00,00,
6681653,000001C5,false,Rx,0,8,22,11,92,22,22,22,42,22,
6684810,00000104,false,Rx,0,8,00,00,00,10,00,00,10,3E,
6689062,00000202,false,Rx,0,8,35,36,40,43,3D,00,00,00,
6689266,00000201,false,Rx,0,8,35,35,40,41,3D,00,00,00,
6691411,00000203,false,Rx,0,8,35,35,40,45,3B,00,00,00,
6694062,00000200,false,Rx,0,8,34,35,40,3D,3C,00,00,00,
6695112,00000101,false,Rx,0,8,00,00,00,10,00,00,40,0C,
6695316,00000102,false,Rx,0,8,00,00,00,10,00,00,40,A3,
6697461,00000103,false,Rx,0,8,00,00,00,10,00,00,E0,67,
6700115,00000100,false,Rx,0,8,00,00,00,10,00,00,40,69,
6705639,00000205,false,Rx,0,8,34,34,40,46,3C,00,00,00,
6711655,00000105,false,Rx,0,8,00,00,00,10,00,00,50,48,
6733013,000001D1,false,Rx,0,8,22,99,29,22,22,22,99,99,
6733217,000001D2,false,Rx,0,8,22,99,29,22,22,22,99,99,
6734859,00000104,false,Rx,0,8,00,00,00,10,00,00,20,74,
6735313,000001D3,false,Rx,0,8,22,99,29,22,22,22,99,99,
6737969,000001D0,false,Rx,0,8,22,99,29,22,22,22,99,99,
6744856,00000101,false,Rx,0,8,00,00,00,10,00,00,50,C1,
6745143,00000102,false,Rx,0,8,00,00,00,10,00,00,50,6E,
6747373,00000103,false,Rx,0,8,00,00,00,10,00,00,00,D5,
6750031,00000100,false,Rx,0,8,00,00,00,10,00,00,50,A4,
6761667,00000105,false,Rx,0,8,00,00,00,10,00,00,60,02,
6764835,000001C1,false,Rx,0,8,22,22,92,22,22,22,42,22,
6765122,000001C2,false,Rx,0,8,22,22,92,22,22,22,42,22,
6767435,000001C3,false,Rx,0,8,22,11,92,22,22,22,42,22,
6770005,000001C0,false,Rx,0,8,22,22,92,22,22,22,42,22,
6778824,00000204,false,Rx,0,8,35,35,40,3A,3D,00,00,00,
6784766,00000104,false,Rx,0,8,00,00,00,10,00,00,30,B9,
6788875,00000201,false,Rx,0,8,35,35,40,41,3D,00,00,00,
6789079,00000202,false,Rx,0,8,35,36,40,43,3D,00,00,00,
6791476,00000203,false,Rx,0,8,35,35,40,45,3B,00,00,00,
6793965,00000200,false,Rx,0,8,34,35,40,3D,3C,00,00,00,
6794847,00000101,false,Rx,0,8,00,00,00,10,00,00,60,8B,
6795135,00000102,false,Rx,0,8,00,00,00,10,00,00,60,24,
6797448,00000103,false,Rx,0,8,00,00,00,10,00,00,10,18,
6799933,00000100,false,Rx,0,8,00,00,00,10,00,00,60,EE,
6805449,00000205,false,Rx,0,8,34,34,40,46,3C,00,00,00,
6811476,00000105,false,Rx,0,8,00,00,00,10,00,00,70,CF,
6822817,000001D4,false,Rx,0,8,22,99,29,22,22,22,99,99,
6834856,00000104,false,Rx,0,8,00,00,00,10,00,00,40,E0,
6844674,00000101,false,Rx,0,8,00,00,00,10,00,00,70,46,
6844961,00000102,false,Rx,0,8,00,00,00,10,00,00,70,E9,
6847356,00000103,false,Rx,0,8,00,00,00,10,00,00,20,52,
6849417,000001D5,false,Rx,0,8,22,99,29,22,22,22,99,99,
6849795,00000100,false,Rx,0,8,00,00,00,10,00,00,70,23,
6854748,000001C4,false,Rx,0,8,22,11,92,22,22,22,42,22,
6861452,00000105,false,Rx,0,8,00,00,00,10,00,00,80,B0,
6878818,00000204,false,Rx,0,8,35,35,40,39,3D,00,00,00,
6881382,000001C5,false,Rx,0,8,22,11,92,22,22,22,42,22,
6884794,00000104,false,Rx,0,8,00,00,00,10,00,00,50,2D,
6888628,00000201,false,Rx,0,8,35,35,40,41,3D,00,00,00,
6888832,00000202,false,Rx,0,8,35,36,40,43,3D,00,00,00,
6891309,00000203,false,Rx,0,8,35,35,40,45,3B,00,00,00,
6893798,00000200,false,Rx,0,8,34,35,40,3D,3C,00,00,00,
6894677,00000101,false,Rx,0,8,00,00,00,10,00,00,80,39,
6894881,00000102,false,Rx,0,8,00,00,00,10,00,00,80,96,
6897277,00000103,false,Rx,0,8,00,00,00,10,00,00,30,9F,
6899764,00000100,false,Rx,0,8,00,00,00,10,00,00,80,5C,
6905360,00000205,false,Rx,0,8,34,34,40,47,3C,00,00,00,
6911383,00000105,false,Rx,0,8,00,00,00,10,00,00,90,7D,
6932483,000001D1,false,Rx,0,8,22,99,29,22,22,22,99,99,
6932695,000001D2,false,Rx,0,8,22,99,29,22,22,22,99,99,
6934837,00000104,false,Rx,0,8,00,00,00,10,00,00,60,67,
6935292,000001D3,false,Rx,0,8,22,99,29,22,22,22,99,99,
6937784,000001D0,false,Rx,0,8,22,99,29,22,22,22,99,99,
6944489,00000101,false,Rx,0,8,00,00,00,10,00,00,90,F4,
6944700,00000102,false,Rx,0,8,00,00,00,10,00,00,90,5B,
6947344,00000103,false,Rx,0,8,00,00,00,10,00,00,40,C6,
6949753,00000100,false,Rx,0,8,00,00,00,10,00,00,90,91,
6961372,00000105,false,Rx,0,8,00,00,00,10,00,00,A0,37,
6964461,000001C1,false,Rx,0,8,22,22,92,22,22,22,42,22,
6964672,000001C2,false,Rx,0,8,22,22,92,22,22,22,42,22,
6967232,000001C3,false,Rx,0,8,22,11,92,22,22,22,42,22,
6969720,000001C0,false,Rx,0,8,22,22,92,22,22,22,42,22,
6978794,00000204,false,Rx,0,8,35,35,40,3A,3D,00,00,00,
6984855,00000104,false,Rx,0,8,00,00,00,10,00,00,70,AA,
6988433,00000201,false,Rx,0,8,35,35,40,41,3D,00,00,00,
6988727,00000202,false,Rx,0,8,35,36,40,43,3D,00,00,00,
6991375,00000203,false,Rx,0,8,35,35,40,46,3B,00,00,00,
6993697,00000200,false,Rx,0,8,34,35,40,3E,3C,00,00,00,
6994486,00000101,false,Rx,0,8,00,00,00,10,00,00,A0,BE,
6994781,00000102,false,Rx,0,8,00,00,00,10,00,00,A0,11,
6997257,00000103,false,Rx,0,8,00,00,00,10,00,00,50,0B,
6999660,00000100,false,Rx,0,8,00,00,00,10,00,00,A0,DB,
7005336,00000205,false,Rx,0,8,34,34,40,46,3C,00,00,00,
7011277,00000105,false,Rx,0,8,00,00,00,10,00,00,B0,FA,
7022789,000001D4,false,Rx,0,8,22,99,29,22,22,22,99,99,
7034746,00000104,false,Rx,0,8,00,00,00,10,00,00,80,D5,
7044500,00000101,false,Rx,0,8,00,00,00,10,00,00,B0,73,
7044711,00000102,false,Rx,0,8,00,00,00,10,00,00,B0,DC,
7047357,00000103,false,Rx,0,8,00,00,00,10,00,00,60,41,
7049421,000001D5,false,Rx,0,8,22,99,29,22,22,22,99,99,
7049631,00000100,false,Rx,0,8,00,00,00,10,00,00,B0,16,
7054812,000001C4,false,Rx,0,8,22,11,92,22,22,22,42,22,
7061382,00000105,false,Rx,0,8,00,00,00,10,00,00,C0,A3,
7078856,00000204,false,Rx,0,8,35,35,40,3A,3D,00,00,00,
7081250,000001C5,false,Rx,0,8,22,22,92,22,22,22,42,22,
7084835,00000104,false,Rx,0,8,00,00,00,10,00,00,90,18,
7088490,00000201,false,Rx,0,8,35,35,40,41,3D,00,00,00,
7088702,00000202,false,Rx,0,8,35,36,40,43,3D,00,00,00,
7091262,00000203,false,Rx,0,8,35,35,40,46,3B,00,00,00,
7093663,00000200,false,Rx,0,8,34,35,40,3E,3C,00,00,00,
7094540,00000101,false,Rx,0,8,00,00,00,10,00,00,C0,2A,
7094752,00000102,false,Rx,0,8,00,00,00,10,00,00,C0,85,
7097312,00000103,false,Rx,0,8,00,00,00,10,00,00,70,8C,
7099544,00000100,false,Rx,0,8,00,00,00,10,00,00,C0,4F,
7105233,00000205,false,Rx,0,8,34,34,40,47,3C,00,00,00,
7111254,00000105,false,Rx,0,8,00,00,00,10,00,00,D0,6E,
7132473,000001D1,false,Rx,0,8,22,99,29,22,22,22,99,99,
7132684,000001D2,false,Rx,0,8,22,99,29,22,22,22,99,99,
7134891,00000104,false,Rx,0,8,00,00,00,10,00,00,A0,52,
7135261,000001D3,false,Rx,0,8,22,99,29,22,22,22,99,99,
7137663,000001D0,false,Rx,0,8,22,99,29,22,22,22,99,99,
7144533,00000102,false,Rx,0,8,00,00,00,10,00,00,D0,48,
7144745,00000101,false,Rx,0,8,00,00,00,10,00,00,D0,E7,
7147305,00000103,false,Rx,0,8,00,00,00,10,00,00,80,F3,
7149630,00000100,false,Rx,0,8,00,00,00,10,00,00,D0,82,
7161129,00000105,false,Rx,0,8,00,00,00,10,00,00,E0,24,
7164508,000001C2,false,Rx,0,8,22,22,92,22,22,22,42,22,
7164718,000001C1,false,Rx,0,8,22,22,92,22,22,22,42,22,
7167196,000001C3,false,Rx,0,8,22,11,92,22,22,22,42,22,
7169673,000001C0,false,Rx,0,8,22,22,92,22,22,22,42,22,
7178918,00000204,false,Rx,0,8,35,35,40,3A,3D,00,00,00,
7185470,00000104,false,Rx,0,8,00,00,00,10,00,00,B0,9F,
7188462,00000201,false,Rx,0,8,35,35,40,41,3D,00,00,00,
7188674,00000202,false,Rx,0,8,35,36,40,43,3D,00,00,00,
7191151,00000203,false,Rx,0,8,35,35,40,46,3B,00,00,00,
7193551,00000200,false,Rx,0,8,34,35,40,3D,3C,00,00,00,
7194517,00000101,false,Rx,0,8,00,00,00,10,00,00,E0,AD,
7194812,00000102,false,Rx,0,8,00,00,00,10,00,00,E0,02,
7197125,00000103,false,Rx,0,8,00,00,00,10,00,00,90,3E,
7199522,00000100,false,Rx,0,8,00,00,00,10,00,00,E0,C8,
7205131,00000205,false,Rx,0,8,34,34,40,46,3C,00,00,00,
7211157,00000105,false,Rx,0,8,00,00,00,10,00,00,00,96,
7222921,000001D4,false,Rx,0,8,22,99,29,22,22,22,99,99,
7234931,00000104,false,Rx,0,8,00,00,00,10,00,00,C0,C6,
7244466,00000101,false,Rx,0,8,00,00,00,10,00,00,00,1F,
7244678,00000102,false,Rx,0,8,00,00,00,10,00,00,00,B0,
7247236,00000103,false,Rx,0,8,00,00,00,10,00,00,A0,74,
7249212,000001D5,false,Rx,0,8,22,99,29,22,22,22,99,99,
7249500,00000100,false,Rx,0,8,00,00,00,10,00,00,00,7A,
7254940,000001C4,false,Rx,0,8,22,22,92,22,22,22,42,22,
7261212,00000105,false,Rx,0,8,00,00,00,10,00,00,10,5B,
7279023,00000204,false,Rx,0,8,35,35,40,3A,3D,00,00,00,
7281250,000001C5,false,Rx,0,8,22,22,92,22,22,22,42,22,
7284998,00000104,false,Rx,0,8,00,00,00,10,00,00,D0,0B,
7288321,00000201,false,Rx,0,8,35,35,40,41,3D,00,00,00,
7288618,00000202,false,Rx,0,8,35,36,40,43,3D,00,00,00,
7291345,00000203,false,Rx,0,8,35,35,40,45,3B,00,00,00,
7293405,00000200,false,Rx,0,8,34,35,40,3D,3C,00,00,00,
7294368,00000101,false,Rx,0,8,00,00,00,10,00,00,10,D2,
7294573,00000102,false,Rx,0,8,00,00,00,10,00,00,10,7D,
7297308,00000103,false,Rx,0,8,00,00,00,10,00,00,B0,B9,
7299367,00000100,false,Rx,0,8,00,00,00,10,00,00,10,B7,
7305224,00000205,false,Rx,0,8,34,34,40,47,3C,00,00,00,
7311332,00000105,false,Rx,0,8,00,00,00,10,00,00,20,11,
7332367,000001D1,false,Rx,0,8,22,99,29,22,22,22,99,99,
7332572,000001D2,false,Rx,0,8,22,99,29,22,22,22,99,99,
7334974,00000104,false,Rx,0,8,00,00,00,10,00,00,E0,41,
7335262,000001D3,false,Rx,0,8,22,99,29,22,22,22,99,99,
7337320,000001D0,false,Rx,0,8,22,99,29,22,22,22,99,99,
7344360,00000101,false,Rx,0,8,00,00,00,10,00,00,20,98,
7344564,00000102,false,Rx,0,8,00,00,00,10,00,00,20,37,
7347390,00000103,false,Rx,0,8,00,00,00,10,00,00,C0,E0,
7349450,00000100,false,Rx,0,8,00,00,00,10,00,00,20,FD,
7361295,00000105,false,Rx,0,8,00,00,00,10,00,00,30,DC,
7364215,000001C1,false,Rx,0,8,22,22,92,22,22,22,42,22,
7364425,000001C2,false,Rx,0,8,22,22,92,22,22,22,42,22,
7367373,000001C3,false,Rx,0,8,22,22,92,22,22,22,42,22,
7369435,000001C0,false,Rx,0,8,22,22,92,22,22,22,42,22,
7379014,00000204,false,Rx,0,8,35,35,40,3A,3D,00,00,00,
7385056,00000104,false,Rx,0,8,00,00,00,10,00,00,00,F3,
7388131,00000201,false,Rx,0,8,35,35,40,41,3D,00,00,00,
7388420,00000202,false,Rx,0,8,35,36,40,43,3D,00,00,00,
7391292,00000203,false,Rx,0,8,35,35,40,45,3B,00,00,00,
7393440,00000200,false,Rx,0,8,34,35,40,3D,3C,00,00,00,
7394236,00000101,false,Rx,0,8,00,00,00,10,00,00,30,55,
7394441,00000102,false,Rx,0,8,00,00,00,10,00,00,30,FA,
7397176,00000103,false,Rx,0,8,00,00,00,10,00,00,D0,2D,
7399404,00000100,false,Rx,0,8,00,00,00,10,00,00,30,30,
7405175,00000205,false,Rx,0,8,34,34,40,46,3C,00,00,00,
7411279,00000105,false,Rx,0,8,00,00,00,10,00,00,40,85,
7423042,000001D4,false,Rx,0,8,22,99,29,22,22,22,99,99,
7435226,00000104,false,Rx,0,8,00,00,00,10,00,00,10,3E,
7444175,00000101,false,Rx,0,8,00,00,00,10,00,00,40,0C,
7444462,00000102,false,Rx,0,8,00,00,00,10,00,00,40,A3,
7447285,00000103,false,Rx,0,8,00,00,00,10,00,00,E0,67,
7449095,000001D5,false,Rx,0,8,22,99,29,22,22,22,99,99,
7449382,00000100,false,Rx,0,8,00,00,00,10,00,00,40,69,
7455152,000001C4,false,Rx,0,8,22,22,92,22,22,22,42,22,
7461176,00000105,false,Rx,0,8,00,00,00,10,00,00,50,48,
7479158,00000204,false,Rx,0,8,35,35,40,3A,3D,00,00,00,
7481052,000001C5,false,Rx,0,8,22,22,92,22,22,22,42,22,
7485053,00000104,false,Rx,0,8,00,00,00,10,00,00,20,74,
7488045,00000201,false,Rx,0,8,35,35,40,41,3D,00,00,00,
7488499,00000202,false,Rx,0,8,35,36,40,43,3D,00,00,00,
7491232,00000203,false,Rx,0,8,35,35,40,46,3B,00,00,00,
7493347,00000200,false,Rx,0,8,34,35,40,3D,3C,00,00,00,
7494062,00000101,false,Rx,0,8,00,00,00,10,00,00,50,C1,
7494688,00000102,false,Rx,0,8,00,00,00,10,00,00,50,6E,
7497249,00000103,false,Rx,0,8,00,00,00,10,00,00,00,D5,
7499309,00000100,false,Rx,0,8,00,00,00,10,00,00,50,A4,
7505163,00000205,false,Rx,0,8,34,34,40,46,3C,00,00,00,
7511190,00000105,false,Rx,0,8,00,00,00,10,00,00,60,02,
7532140,000001D1,false,Rx,0,8,22,99,29,22,22,22,99,99,
7532515,000001D2,false,Rx,0,8,22,99,29,22,22,22,99,99,
7535166,00000104,false,Rx,0,8,00,00,00,10,00,00,30,B9,
7535369,000001D3,false,Rx,0,8,22,99,29,22,22,22,99,99,
7537345,000001D0,false,Rx,0,8,22,99,29,22,22,22,99,99,
7544151,00000101,false,Rx,0,8,00,00,00,10,00,00,60,8B,
7544616,00000102,false,Rx,0,8,00,00,00,10,00,00,60,24,
7547430,00000103,false,Rx,0,8,00,00,00,10,00,00,10,18,
7549320,00000100,false,Rx,0,8,00,00,00,10,00,00,60,EE,
7561082,00000105,false,Rx,0,8,00,00,00,10,00,00,70,CF,
7564082,000001C1,false,Rx,0,8,22,22,92,22,22,22,42,22,
7564539,000001C2,false,Rx,0,8,22,22,92,22,22,22,42,22,
7567446,000001C3,false,Rx,0,8,22,22,92,22,22,22,42,22,
7569253,000001C0,false,Rx,0,8,22,22,92,22,22,22,42,22,
7579220,00000204,false,Rx,0,8,35,35,40,3A,3D,00,00,00,
7585160,00000104,false,Rx,0,8,00,00,00,10,00,00,40,E0,
7588148,00000201,false,Rx,0,8,35,35,40,41,3D,00,00,00,
7588520,00000202,false,Rx,0,8,35,36,40,43,3D,00,00,00,
7591425,00000203,false,Rx,0,8,35,35,40,46,3B,00,00,00,
7593232,00000200,false,Rx,0,8,34,35,40,3D,3C,00,00,00,
7595887,00000101,false,Rx,0,8,00,00,00,10,00,00,70,46,
7595976,00000102,false,Rx,0,8,00,00,00,10,00,00,70,E9,
7597445,00000103,false,Rx,0,8,00,00,00,10,00,00,20,52,
7599252,00000100,false,Rx,0,8,00,00,00,10,00,00,70,23,
7605107,00000205,false,Rx,0,8,34,34,40,47,3C,00,00,00,
7611046,00000105,false,Rx,0,8,00,00,00,10,00,00,80,B0,
7623059,000001D4,false,Rx,0,8,22,99,29,22,22,22,99,99,
7635068,00000104,false,Rx,0,8,00,00,00,10,00,00,50,2D,
7644151,00000101,false,Rx,0,8,00,00,00,10,00,00,80,39,
7644525,00000102,false,Rx,0,8,00,00,00,10,00,00,80,96,
7647559,00000103,false,Rx,0,8,00,00,00,10,00,00,30,9F,
