Time Stamp,ID,Extended,Dir,Bus,LEN,D1,D2,D3,D4,D5,D6,D7,D8
18875292,00000205,false,Rx,0,8,34,34,E0,00,00,00,00,00,
130043,00000080,false,Rx,0,8,68,10,00,50,00,00,B0,5A,
130786,00000110,false,Rx,0,8,00,00,33,00,00,00,00,00,
136556,000001D5,false,Rx,0,8,22,99,29,22,22,22,99,99,
136757,00000200,false,Rx,0,8,33,34,40,3A,39,00,00,00,
142687,00000100,false,Rx,0,8,00,00,00,00,00,00,90,B4,
142888,00000201,false,Rx,0,8,34,34,40,3D,38,00,00,00,
143172,00000202,false,Rx,0,8,34,34,40,3F,38,00,00,00,
144953,00000204,false,Rx,0,8,34,34,40,35,38,00,00,00,
148482,00000105,false,Rx,0,8,00,00,00,00,00,00,A0,12,
148765,00000102,false,Rx,0,8,00,00,00,00,00,00,90,7E,
149049,00000101,false,Rx,0,8,00,00,00,00,00,00,90,D1,
150501,00000203,false,Rx,0,8,34,34,40,41,37,00,00,00,
151030,00000104,false,Rx,0,8,00,00,00,00,00,00,90,3D,
156637,00000103,false,Rx,0,8,00,00,00,00,00,00,90,1B,
168545,000001C5,false,Rx,0,8,22,22,92,22,22,22,42,22,
181727,000001D0,false,Rx,0,8,22,99,29,22,22,22,99,99,
181815,00000081,false,Rx,0,8,68,10,00,50,00,00,C0,66,
181901,00000111,false,Rx,0,8,00,00,33,00,00,00,00,00,
186584,000001D2,false,Rx,0,8,22,99,29,22,22,22,99,99,
187616,000001D1,false,Rx,0,8,22,99,29,22,22,22,99,99,
188978,000001D4,false,Rx,0,8,22,99,29,22,22,22,99,99,
192667,00000205,false,Rx,0,8,34,34,40,43,39,00,00,00,
192868,00000100,false,Rx,0,8,00,00,00,00,00,00,A0,FE,
194484,000001D3,false,Rx,0,8,22,99,29,22,22,22,99,99,
198665,00000105,false,Rx,0,8,00,00,00,00,00,00,B0,DF,
198948,00000102,false,Rx,0,8,00,00,00,00,00,00,A0,34,
199652,00000101,false,Rx,0,8,00,00,00,00,00,00,A0,9B,
200930,00000104,false,Rx,0,8,00,00,00,00,00,00,A0,77,
206536,00000103,false,Rx,0,8,00,00,00,00,00,00,A0,51,
212586,000001C0,false,Rx,0,8,22,22,92,22,22,22,42,22,
218598,000001C2,false,Rx,0,8,22,22,92,22,22,22,42,22,
219630,000001C1,false,Rx,0,8,22,22,92,22,22,22,42,22,
220991,000001C4,false,Rx,0,8,22,22,92,22,22,22,42,22,
226507,000001C3,false,Rx,0,8,22,22,92,22,22,22,42,22,
234300,00000082,false,Rx,0,8,68,10,00,50,00,00,D0,04,
234387,00000112,false,Rx,0,8,00,00,33,00,00,00,00,00,
236498,00000200,false,Rx,0,8,33,34,40,39,39,00,00,00,
242507,00000100,false,Rx,0,8,00,00,00,00,00,00,B0,33,
243542,00000201,false,Rx,0,8,34,34,40,3D,38,00,00,00,
243825,00000202,false,Rx,0,8,34,34,40,3E,38,00,00,00,
245108,00000204,false,Rx,0,8,34,34,40,36,38,00,00,00,
248719,00000105,false,Rx,0,8,00,00,00,00,00,00,C0,86,
249588,00000101,false,Rx,0,8,00,00,00,00,00,00,B0,56,
249871,00000102,false,Rx,0,8,00,00,00,00,00,00,B0,F9,
250493,00000203,false,Rx,0,8,34,34,40,41,37,00,00,00,
251022,00000104,false,Rx,0,8,00,00,00,00,00,00,B0,BA,
256545,00000103,false,Rx,0,8,00,00,00,00,00,00,B0,9C,
283066,00000083,false,Rx,0,8,68,10,00,50,00,00,E0,2B,
285838,00000113,false,Rx,0,8,00,00,33,00,00,00,00,00,
292527,00000100,false,Rx,0,8,00,00,00,00,00,00,C0,6A,
292728,00000205,false,Rx,0,8,34,34,40,43,39,00,00,00,
298741,00000105,false,Rx,0,8,00,00,00,00,00,00,D0,4B,
299528,00000101,false,Rx,0,8,00,00,00,00,00,00,C0,0F,
299812,00000102,false,Rx,0,8,00,00,00,00,00,00,C0,A0,
300927,00000104,false,Rx,0,8,00,00,00,00,00,00,C0,E3,
307302,00000103,false,Rx,0,8,00,00,00,00,00,00,C0,C5,
333975,00000084,false,Rx,0,8,68,10,00,50,00,00,00,BF,
335094,00000114,false,Rx,0,8,00,00,33,00,00,00,00,00,
336570,00000200,false,Rx,0,8,33,34,40,3A,39,00,00,00,
336773,000001D5,false,Rx,0,8,22,99,29,22,22,22,99,99,
342382,00000100,false,Rx,0,8,00,00,00,00,00,00,D0,A7,
343579,00000202,false,Rx,0,8,34,34,40,3F,38,00,00,00,
343780,00000201,false,Rx,0,8,34,34,40,3D,38,00,00,00,
345892,00000204,false,Rx,0,8,34,34,40,36,38,00,00,00,
348670,00000105,false,Rx,0,8,00,00,00,00,00,00,E0,01,
349540,00000102,false,Rx,0,8,00,00,00,00,00,00,D0,6D,
349741,00000101,false,Rx,0,8,00,00,00,00,00,00,D0,C2,
351268,00000203,false,Rx,0,8,34,34,40,41,37,00,00,00,
351971,00000104,false,Rx,0,8,00,00,00,00,00,00,D0,2E,
357235,00000103,false,Rx,0,8,00,00,00,00,00,00,D0,08,
368625,000001C5,false,Rx,0,8,22,22,92,22,22,22,42,22,
380203,000001D0,false,Rx,0,8,22,99,29,22,22,22,99,99,
384972,00000085,false,Rx,0,8,68,10,00,50,00,00,10,17,
385840,00000115,false,Rx,0,8,00,00,33,00,00,00,00,00,
388519,000001D2,false,Rx,0,8,22,99,29,22,22,22,99,99,
388606,000001D1,false,Rx,0,8,22,99,29,22,22,22,99,99,
389888,000001D4,false,Rx,0,8,22,99,29,22,22,22,99,99,
392248,00000100,false,Rx,0,8,00,00,00,00,00,00,E0,ED,
393700,00000205,false,Rx,0,8,34,34,40,43,39,00,00,00,
395059,000001D3,false,Rx,0,8,22,99,29,22,22,22,99,99,
399330,00000102,false,Rx,0,8,00,00,00,00,00,00,E0,27,
399612,00000101,false,Rx,0,8,00,00,00,00,00,00,E0,88,
399812,00000105,false,Rx,0,8,00,00,00,00,00,00,00,B3,
401923,00000104,false,Rx,0,8,00,00,00,00,00,00,E0,64,
407111,00000103,false,Rx,0,8,00,00,00,00,00,00,E0,42,
412134,000001C0,false,Rx,0,8,22,22,92,22,22,22,42,22,
419440,000001C2,false,Rx,0,8,22,22,92,22,22,22,42,22,
419641,000001C1,false,Rx,0,8,22,22,92,22,22,22,42,22,
421833,000001C4,false,Rx,0,8,22,22,92,22,22,22,42,22,
427267,000001C3,false,Rx,0,8,22,22,92,22,22,22,42,22,
436074,00000086,false,Rx,0,8,68,10,00,50,00,00,20,F2,
436276,00000200,false,Rx,0,8,33,34,40,3A,39,00,00,00,
442212,00000100,false,Rx,0,8,00,00,00,00,00,00,00,5F,
443417,00000202,false,Rx,0,8,34,34,40,3E,38,00,00,00,
443618,00000201,false,Rx,0,8,34,34,40,3D,38,00,00,00,
445893,00000204,false,Rx,0,8,34,34,40,35,38,00,00,00,
449421,00000102,false,Rx,0,8,00,00,00,00,00,00,00,95,
449704,00000101,false,Rx,0,8,00,00,00,00,00,00,00,3A,
449905,00000105,false,Rx,0,8,00,00,00,00,00,00,10,7E,
451189,00000203,false,Rx,0,8,34,34,40,42,37,00,00,00,
451973,00000104,false,Rx,0,8,00,00,00,00,00,00,00,D6,
457237,00000103,false,Rx,0,8,00,00,00,00,00,00,00,F0,
486998,00000087,false,Rx,0,8,68,10,00,50,00,00,30,5A,
492193,00000100,false,Rx,0,8,00,00,00,00,00,00,10,92,
493644,00000205,false,Rx,0,8,34,34,40,43,39,00,00,00,
499326,00000102,false,Rx,0,8,00,00,00,00,00,00,10,58,
499609,00000101,false,Rx,0,8,00,00,00,00,00,00,10,F7,
499810,00000105,false,Rx,0,8,00,00,00,00,00,00,20,34,
501839,00000104,false,Rx,0,8,00,00,00,00,00,00,10,1B,
502121,00000351,false,Rx,0,8,EB,01,2C,01,2C,01,80,01,
502412,00000355,false,Rx,0,8,00,00,64,00,00,00,00,00,
502613,00000356,false,Rx,0,8,00,00,00,00,00,00,00,00,
504396,0000035A,false,Rx,0,8,00,00,00,00,00,00,00,00,
504598,0000035E,false,Rx,0,8,53,49,4D,50,20,42,4D,53,
506394,00000370,false,Rx,0,8,54,4F,4D,20,44,45,20,42,
507091,00000103,false,Rx,0,8,00,00,00,00,00,00,10,3D,
510788,00000373,false,Rx,0,8,88,13,00,00,11,01,11,01,
536140,00000200,false,Rx,0,8,33,34,40,3A,39,00,00,00,
537509,000001D5,false,Rx,0,8,22,99,29,22,22,22,99,99,
538040,00000080,false,Rx,0,8,68,10,00,50,00,00,40,25,
539239,00000110,false,Rx,0,8,00,00,33,00,00,00,00,00,
544225,00000100,false,Rx,0,8,00,00,00,00,00,00,20,D8,
544320,00000202,false,Rx,0,8,34,34,40,3E,38,00,00,00,
544407,00000201,false,Rx,0,8,34,34,40,3D,38,00,00,00,
545851,00000204,false,Rx,0,8,34,34,40,35,38,00,00,00,
549210,00000102,false,Rx,0,8,00,00,00,00,00,00,20,12,
549418,00000101,false,Rx,0,8,00,00,00,00,00,00,20,BD,
549701,00000105,false,Rx,0,8,00,00,00,00,00,00,30,F9,
551062,00000203,false,Rx,0,8,34,34,40,41,37,00,00,00,
551932,00000104,false,Rx,0,8,00,00,00,00,00,00,20,51,
557120,00000103,false,Rx,0,8,00,00,00,00,00,00,20,77,
569619,000001C5,false,Rx,0,8,22,22,92,22,22,22,42,22,
580705,000001D0,false,Rx,0,8,22,99,29,22,22,22,99,99,
587134,000001D2,false,Rx,0,8,22,99,29,22,22,22,99,99,
587425,000001D1,false,Rx,0,8,22,99,29,22,22,22,99,99,
588954,00000081,false,Rx,0,8,68,10,00,50,00,00,50,8D,
589822,000001D4,false,Rx,0,8,22,99,29,22,22,22,99,99,
590361,00000111,false,Rx,0,8,00,00,33,00,00,00,00,00,
592641,00000100,false,Rx,0,8,00,00,00,00,00,00,30,15,
593591,00000205,false,Rx,0,8,34,34,40,43,39,00,00,00,
596780,000001D3,false,Rx,0,8,22,99,29,22,22,22,99,99,
599226,00000102,false,Rx,0,8,00,00,00,00,00,00,30,DF,
599599,00000105,false,Rx,0,8,00,00,00,00,00,00,40,A0,
600302,00000101,false,Rx,0,8,00,00,00,00,00,00,30,70,
601827,00000104,false,Rx,0,8,00,00,00,00,00,00,30,9C,
607007,00000103,false,Rx,0,8,00,00,00,00,00,00,30,BA,
612535,000001C0,false,Rx,0,8,22,22,92,22,22,22,42,22,
619188,000001C2,false,Rx,0,8,22,22,92,22,22,22,42,22,
620230,000001C1,false,Rx,0,8,22,22,92,22,22,22,42,22,
621934,000001C4,false,Rx,0,8,22,22,92,22,22,22,42,22,
627120,000001C3,false,Rx,0,8,22,22,92,22,22,22,42,22,
636564,00000200,false,Rx,0,8,33,34,40,39,39,00,00,00,
639999,00000082,false,Rx,0,8,68,10,00,50,00,00,60,68,
641367,00000112,false,Rx,0,8,00,00,33,00,00,00,00,00,
642654,00000100,false,Rx,0,8,00,00,00,00,00,00,40,4C,
644182,00000202,false,Rx,0,8,34,34,40,3E,38,00,00,00,
644391,00000201,false,Rx,0,8,34,34,40,3D,38,00,00,00,
645835,00000204,false,Rx,0,8,34,34,40,36,38,00,00,00,
649534,00000105,false,Rx,0,8,00,00,00,00,00,00,50,6D,
650147,00000102,false,Rx,0,8,00,00,00,00,00,00,40,86,
650356,00000101,false,Rx,0,8,00,00,00,00,00,00,40,29,
651050,00000203,false,Rx,0,8,34,34,40,41,37,00,00,00,
651836,00000104,false,Rx,0,8,00,00,00,00,00,00,40,C5,
657025,00000103,false,Rx,0,8,00,00,00,00,00,00,40,E3,
691025,00000083,false,Rx,0,8,68,10,00,50,00,00,70,C0,
692057,00000113,false,Rx,0,8,00,00,33,00,00,00,00,00,
692515,00000100,false,Rx,0,8,00,00,00,00,00,00,50,81,
693467,00000205,false,Rx,0,8,34,34,40,43,39,00,00,00,
699949,00000105,false,Rx,0,8,00,00,00,00,00,00,60,27,
700036,00000101,false,Rx,0,8,00,00,00,00,00,00,50,E4,
700329,00000102,false,Rx,0,8,00,00,00,00,00,00,50,4B,
701772,00000104,false,Rx,0,8,00,00,00,00,00,00,50,08,
707972,00000103,false,Rx,0,8,00,00,00,00,00,00,50,2E,
736392,00000200,false,Rx,0,8,33,34,40,39,39,00,00,00,
737342,000001D5,false,Rx,0,8,22,99,29,22,22,22,99,99,
742025,00000084,false,Rx,0,8,68,10,00,50,00,00,80,99,
742400,00000100,false,Rx,0,8,00,00,00,00,00,00,60,CB,
742848,00000114,false,Rx,0,8,00,00,33,00,00,00,00,00,
743883,00000201,false,Rx,0,8,34,34,40,3D,38,00,00,00,
744340,00000202,false,Rx,0,8,34,34,40,3F,38,00,00,00,
746696,00000204,false,Rx,0,8,34,34,40,35,38,00,00,00,
749316,00000105,false,Rx,0,8,00,00,00,00,00,00,70,EA,
749846,00000101,false,Rx,0,8,00,00,00,00,00,00,60,AE,
751656,00000102,false,Rx,0,8,00,00,00,00,00,00,60,01,
751940,00000203,false,Rx,0,8,34,34,40,42,37,00,00,00,
752726,00000104,false,Rx,0,8,00,00,00,00,00,00,60,42,
757988,00000103,false,Rx,0,8,00,00,00,00,00,00,60,64,
769149,000001C5,false,Rx,0,8,22,22,92,22,22,22,42,22,
780225,000001D0,false,Rx,0,8,22,99,29,22,22,22,99,99,
787818,000001D1,false,Rx,0,8,22,99,29,22,22,22,99,99,
788268,000001D2,false,Rx,0,8,22,99,29,22,22,22,99,99,
790800,000001D4,false,Rx,0,8,22,99,29,22,22,22,99,99,
792164,00000100,false,Rx,0,8,00,00,00,00,00,00,70,06,
793031,00000085,false,Rx,0,8,68,10,00,50,00,00,90,31,
793234,00000205,false,Rx,0,8,34,34,40,43,39,00,00,00,
794185,00000115,false,Rx,0,8,00,00,33,00,00,00,00,00,
795885,000001D3,false,Rx,0,8,22,99,29,22,22,22,99,99,
799905,00000101,false,Rx,0,8,00,00,00,00,00,00,70,63,
800110,00000105,false,Rx,0,8,00,00,00,00,00,00,80,95,
800400,00000102,false,Rx,0,8,00,00,00,00,00,00,70,CC,
803853,00000104,false,Rx,0,8,00,00,00,00,00,00,70,8F,
807879,00000103,false,Rx,0,8,00,00,00,00,00,00,70,A9,
812150,000001C0,false,Rx,0,8,22,22,92,22,22,22,42,22,
819825,000001C1,false,Rx,0,8,22,22,92,22,22,22,42,22,
820191,000001C2,false,Rx,0,8,22,22,92,22,22,22,42,22,
822723,000001C4,false,Rx,0,8,22,22,92,22,22,22,42,22,
827884,000001C3,false,Rx,0,8,22,22,92,22,22,22,42,22,
836065,00000200,false,Rx,0,8,33,34,40,3A,39,00,00,00,
842076,00000100,false,Rx,0,8,00,00,00,00,00,00,80,79,
843939,00000201,false,Rx,0,8,34,34,40,3D,38,00,00,00,
844225,00000086,false,Rx,0,8,68,10,00,50,00,00,A0,D4,
844434,00000202,false,Rx,0,8,34,34,40,3F,38,00,00,00,
846792,00000204,false,Rx,0,8,34,34,40,36,38,00,00,00,
849982,00000101,false,Rx,0,8,00,00,00,00,00,00,80,1C,
850184,00000102,false,Rx,0,8,00,00,00,00,00,00,80,B3,
850476,00000105,false,Rx,0,8,00,00,00,00,00,00,90,58,
851838,00000203,false,Rx,0,8,34,34,40,42,37,00,00,00,
852790,00000104,false,Rx,0,8,00,00,00,00,00,00,80,F0,
857811,00000103,false,Rx,0,8,00,00,00,00,00,00,80,D6,
892075,00000100,false,Rx,0,8,00,00,00,00,00,00,90,B4,
894021,00000205,false,Rx,0,8,34,34,40,43,39,00,00,00,
895055,00000087,false,Rx,0,8,68,10,00,50,00,00,B0,7C,
899905,00000102,false,Rx,0,8,00,00,00,00,00,00,90,7E,
900191,00000101,false,Rx,0,8,00,00,00,00,00,00,90,D1,
900399,00000105,false,Rx,0,8,00,00,00,00,00,00,A0,12,
902838,00000104,false,Rx,0,8,00,00,00,00,00,00,90,3D,
907769,00000103,false,Rx,0,8,00,00,00,00,00,00,90,1B,
935952,00000200,false,Rx,0,8,33,34,40,3A,39,00,00,00,
937899,000001D5,false,Rx,0,8,22,99,29,22,22,22,99,99,
942002,00000100,false,Rx,0,8,00,00,00,00,00,00,A0,FE,
943871,00000202,false,Rx,0,8,34,34,40,3E,38,00,00,00,
944159,00000201,false,Rx,0,8,34,34,40,3D,38,00,00,00,
946022,00000080,false,Rx,0,8,68,10,00,50,00,00,C0,03,
946808,00000204,false,Rx,0,8,34,34,40,35,38,00,00,00,
947094,00000110,false,Rx,0,8,00,00,33,00,00,00,00,00,
949873,00000102,false,Rx,0,8,00,00,00,00,00,00,A0,34,
950158,00000101,false,Rx,0,8,00,00,00,00,00,00,A0,9B,
950366,00000105,false,Rx,0,8,00,00,00,00,00,00,B0,DF,
951646,00000203,false,Rx,0,8,34,34,40,42,37,00,00,00,
952843,00000104,false,Rx,0,8,00,00,00,00,00,00,A0,77,
958117,00000103,false,Rx,0,8,00,00,00,00,00,00,A0,51,
969952,000001C5,false,Rx,0,8,22,22,92,22,22,22,42,22,
980871,000001D0,false,Rx,0,8,22,99,29,22,22,22,99,99,
987803,000001D2,false,Rx,0,8,22,99,29,22,22,22,99,99,
988091,000001D1,false,Rx,0,8,22,99,29,22,22,22,99,99,
990790,000001D4,false,Rx,0,8,22,99,29,22,22,22,99,99,
992818,00000100,false,Rx,0,8,00,00,00,00,00,00,B0,33,
993851,00000205,false,Rx,0,8,34,34,40,43,39,00,00,00,
995636,000001D3,false,Rx,0,8,22,99,29,22,22,22,99,99,
997080,00000081,false,Rx,0,8,68,10,00,50,00,00,D0,AB,
997947,00000111,false,Rx,0,8,00,00,33,00,00,00,00,00,
999894,00000105,false,Rx,0,8,00,00,00,00,00,00,C0,86,
1000097,00000102,false,Rx,0,8,00,00,00,00,00,00,B0,F9,
1001099,00000101,false,Rx,0,8,00,00,00,00,00,00,B0,56,
1002808,00000104,false,Rx,0,8,00,00,00,00,00,00,B0,BA,
1003174,00000351,false,Rx,0,8,EB,01,2C,01,2C,01,80,01,
1003464,00000355,false,Rx,0,8,00,00,64,00,00,00,00,00,
1003664,00000356,false,Rx,0,8,00,00,00,00,00,00,00,00,
1005439,0000035A,false,Rx,0,8,00,00,00,00,00,00,00,00,
1005640,0000035E,false,Rx,0,8,53,49,4D,50,20,42,4D,53,
1007416,00000370,false,Rx,0,8,54,4F,4D,20,44,45,20,42,
1007698,00000103,false,Rx,0,8,00,00,00,00,00,00,B0,9C,
1011773,00000373,false,Rx,0,8,88,13,00,00,11,01,11,01,
1012724,000001C0,false,Rx,0,8,22,22,92,22,22,22,42,22,
1019956,000001C2,false,Rx,0,8,22,22,92,22,22,22,42,22,
1020820,000001C1,false,Rx,0,8,22,22,92,22,22,22,42,22,
1022842,000001C4,false,Rx,0,8,22,22,92,22,22,22,42,22,
1027629,000001C3,false,Rx,0,8,22,22,92,22,22,22,42,22,
1036718,00000200,false,Rx,0,8,33,34,40,3A,39,00,00,00,
1042657,00000100,false,Rx,0,8,00,00,00,00,00,00,C0,6A,
1044021,00000202,false,Rx,0,8,34,34,40,3F,38,00,00,00,
1044809,00000201,false,Rx,0,8,34,34,40,3D,38,00,00,00,
1046759,00000204,false,Rx,0,8,34,34,40,36,38,00,00,00,
1048041,00000082,false,Rx,0,8,68,10,00,50,00,00,E0,4E,
1049159,00000112,false,Rx,0,8,00,00,33,00,00,00,00,00,
1049699,00000105,false,Rx,0,8,00,00,00,00,00,00,D0,4B,
1050897,00000101,false,Rx,0,8,00,00,00,00,00,00,C0,0F,
1051182,00000102,false,Rx,0,8,00,00,00,00,00,00,C0,A0,
1051557,00000203,false,Rx,0,8,34,34,40,41,37,00,00,00,
1052756,00000104,false,Rx,0,8,00,00,00,00,00,00,C0,E3,
1057461,00000103,false,Rx,0,8,00,00,00,00,00,00,C0,C5,
1092644,00000100,false,Rx,0,8,00,00,00,00,00,00,D0,A7,
1093679,00000205,false,Rx,0,8,34,34,40,43,39,00,00,00,
1099044,00000083,false,Rx,0,8,68,10,00,50,00,00,00,99,
1099502,00000113,false,Rx,0,8,00,00,33,00,00,00,00,00,
1099786,00000105,false,Rx,0,8,00,00,00,00,00,00,E0,01,
1100737,00000101,false,Rx,0,8,00,00,00,00,00,00,D0,C2,
1101188,00000102,false,Rx,0,8,00,00,00,00,00,00,D0,6D,
1102562,00000104,false,Rx,0,8,00,00,00,00,00,00,D0,2E,
1108349,00000103,false,Rx,0,8,00,00,00,00,00,00,D0,08,
1136543,00000200,false,Rx,0,8,33,34,40,39,39,00,00,00,
1137660,000001D5,false,Rx,0,8,22,99,29,22,22,22,99,99,
1142521,00000100,false,Rx,0,8,00,00,00,00,00,00,E0,ED,
1144802,00000201,false,Rx,0,8,34,34,40,3D,38,00,00,00,
1145091,00000202,false,Rx,0,8,34,34,40,3F,38,00,00,00,
1146546,00000204,false,Rx,0,8,34,34,40,35,38,00,00,00,
1149659,00000105,false,Rx,0,8,00,00,00,00,00,00,00,B3,
1150024,00000084,false,Rx,0,8,68,10,00,50,00,00,10,72,
1150647,00000114,false,Rx,0,8,00,00,33,00,00,00,00,00,
1150931,00000101,false,Rx,0,8,00,00,00,00,00,00,E0,88,
1151134,00000102,false,Rx,0,8,00,00,00,00,00,00,E0,27,
1152340,00000203,false,Rx,0,8,34,34,40,42,37,00,00,00,
1153459,00000104,false,Rx,0,8,00,00,00,00,00,00,E0,64,
1158402,00000103,false,Rx,0,8,00,00,00,00,00,00,E0,42,
1169609,000001C5,false,Rx,0,8,22,22,92,22,22,22,42,22,
1180480,000001D0,false,Rx,0,8,22,99,29,22,22,22,99,99,
1188827,000001D1,false,Rx,0,8,22,99,29,22,22,22,99,99,
1189028,000001D2,false,Rx,0,8,22,99,29,22,22,22,99,99,
1191315,000001D4,false,Rx,0,8,22,99,29,22,22,22,99,99,
1192514,00000100,false,Rx,0,8,00,00,00,00,00,00,00,5F,
1193550,00000205,false,Rx,0,8,34,34,40,43,39,00,00,00,
1196242,000001D3,false,Rx,0,8,22,99,29,22,22,22,99,99,
1199610,00000105,false,Rx,0,8,00,00,00,00,00,00,10,7E,
1200727,00000101,false,Rx,0,8,00,00,00,00,00,00,00,3A,
1201011,00000085,false,Rx,0,8,68,10,00,50,00,00,20,5D,
1201303,00000102,false,Rx,0,8,00,00,00,00,00,00,00,95,
1201669,00000115,false,Rx,0,8,00,00,33,00,00,00,00,00,
1203368,00000104,false,Rx,0,8,00,00,00,00,00,00,00,D6,
1208145,00000103,false,Rx,0,8,00,00,00,00,00,00,00,F0,
1212425,000001C0,false,Rx,0,8,22,22,92,22,22,22,42,22,
1220714,000001C1,false,Rx,0,8,22,22,92,22,22,22,42,22,
1221165,000001C2,false,Rx,0,8,22,22,92,22,22,22,42,22,
1223287,000001C4,false,Rx,0,8,22,22,92,22,22,22,42,22,
1228148,000001C3,false,Rx,0,8,22,22,92,22,22,22,42,22,
1236302,00000200,false,Rx,0,8,33,34,40,39,39,00,00,00,
1242324,00000100,false,Rx,0,8,00,00,00,00,00,00,10,92,
1244769,00000201,false,Rx,0,8,34,34,40,3D,38,00,00,00,
1245136,00000202,false,Rx,0,8,34,34,40,3F,38,00,00,00,
1247249,00000204,false,Rx,0,8,34,34,40,35,38,00,00,00,
1250541,00000105,false,Rx,0,8,00,00,00,00,00,00,20,34,
1250825,00000101,false,Rx,0,8,00,00,00,00,00,00,10,F7,
1251193,00000102,false,Rx,0,8,00,00,00,00,00,00,10,58,
1252061,00000086,false,Rx,0,8,68,10,00,50,00,00,30,3F,
1252264,00000203,false,Rx,0,8,34,34,40,42,37,00,00,00,
1253308,00000104,false,Rx,0,8,00,00,00,00,00,00,10,1B,
1258076,00000103,false,Rx,0,8,00,00,00,00,00,00,10,3D,
1292225,00000100,false,Rx,0,8,00,00,00,00,00,00,20,D8,
1294512,00000205,false,Rx,0,8,34,34,40,43,39,00,00,00,
1300547,00000105,false,Rx,0,8,00,00,00,00,00,00,30,F9,
1300831,00000101,false,Rx,0,8,00,00,00,00,00,00,20,BD,
1301116,00000102,false,Rx,0,8,00,00,00,00,00,00,20,12,
1303063,00000087,false,Rx,0,8,68,10,00,50,00,00,40,03,
1303350,00000104,false,Rx,0,8,00,00,00,00,00,00,20,51,
1308056,00000103,false,Rx,0,8,00,00,00,00,00,00,20,77,
1336026,00000200,false,Rx,0,8,33,34,40,3A,39,00,00,00,
1338575,000001D5,false,Rx,0,8,22,99,29,22,22,22,99,99,
1342017,00000100,false,Rx,0,8,00,00,00,00,00,00,30,15,
1344802,00000201,false,Rx,0,8,34,34,40,3D,38,00,00,00,
1345174,00000202,false,Rx,0,8,34,34,40,3E,38,00,00,00,
1347296,00000204,false,Rx,0,8,34,34,40,35,38,00,00,00,
1350654,00000105,false,Rx,0,8,00,00,00,00,00,00,40,A0,
1350938,00000101,false,Rx,0,8,00,00,00,00,00,00,30,70,
1351143,00000102,false,Rx,0,8,00,00,00,00,00,00,30,DF,
1351846,00000203,false,Rx,0,8,34,34,40,42,37,00,00,00,
1353212,00000104,false,Rx,0,8,00,00,00,00,00,00,30,9C,
1353998,00000080,false,Rx,0,8,68,10,00,50,00,00,50,E8,
1355120,00000110,false,Rx,0,8,00,00,33,00,00,00,00,00,
1357901,00000103,false,Rx,0,8,00,00,00,00,00,00,30,BA,
1371815,000001C5,false,Rx,0,8,22,22,92,22,22,22,42,22,
1380996,000001D0,false,Rx,0,8,22,99,29,22,22,22,99,99,
1388790,000001D1,false,Rx,0,8,22,99,29,22,22,22,99,99,
1389074,000001D2,false,Rx,0,8,22,99,29,22,22,22,99,99,
1391272,000001D4,false,Rx,0,8,22,99,29,22,22,22,99,99,
1392973,00000100,false,Rx,0,8,00,00,00,00,00,00,40,4C,
1394676,00000205,false,Rx,0,8,34,34,40,43,39,00,00,00,
1395875,000001D3,false,Rx,0,8,22,99,29,22,22,22,99,99,
1400736,00000105,false,Rx,0,8,00,00,00,00,00,00,50,6D,
1401019,00000101,false,Rx,0,8,00,00,00,00,00,00,40,29,
1401225,00000102,false,Rx,0,8,00,00,00,00,00,00,40,86,
1403257,00000104,false,Rx,0,8,00,00,00,00,00,00,40,C5,
1405040,00000081,false,Rx,0,8,68,10,00,50,00,00,60,C7,
1405910,00000111,false,Rx,0,8,00,00,33,00,00,00,00,00,
1407941,00000103,false,Rx,0,8,00,00,00,00,00,00,40,E3,
1412973,000001C0,false,Rx,0,8,22,22,92,22,22,22,42,22,
1421074,000001C2,false,Rx,0,8,22,22,92,22,22,22,42,22,
1423952,000001C1,false,Rx,0,8,22,22,92,22,22,22,42,22,
1424040,000001C4,false,Rx,0,8,22,22,92,22,22,22,42,22,
1427833,000001C3,false,Rx,0,8,22,22,92,22,22,22,42,22,
1436872,00000200,false,Rx,0,8,33,34,40,3A,39,00,00,00,
1442937,00000100,false,Rx,0,8,00,00,00,00,00,00,50,81,
1445140,00000202,false,Rx,0,8,34,34,40,3F,38,00,00,00,
1445925,00000201,false,Rx,0,8,34,34,40,3D,38,00,00,00,
1447211,00000204,false,Rx,0,8,34,34,40,36,38,00,00,00,
1450660,00000105,false,Rx,0,8,00,00,00,00,00,00,60,27,
1451192,00000102,false,Rx,0,8,00,00,00,00,00,00,50,4B,
1451812,00000101,false,Rx,0,8,00,00,00,00,00,00,50,E4,
1452097,00000203,false,Rx,0,8,34,34,40,42,37,00,00,00,
1453214,00000104,false,Rx,0,8,00,00,00,00,00,00,50,08,
1455994,00000082,false,Rx,0,8,68,10,00,50,00,00,70,A5,
1457284,00000112,false,Rx,0,8,00,00,33,00,00,00,00,00,
1457897,00000103,false,Rx,0,8,00,00,00,00,00,00,50,2E,
1492809,00000100,false,Rx,0,8,00,00,00,00,00,00,60,CB,
1494594,00000205,false,Rx,0,8,34,34,40,43,39,00,00,00,
1500629,00000105,false,Rx,0,8,00,00,00,00,00,00,70,EA,
1501746,00000101,false,Rx,0,8,00,00,00,00,00,00,60,AE,
1502116,00000102,false,Rx,0,8,00,00,00,00,00,00,60,01,
1503232,00000104,false,Rx,0,8,00,00,00,00,00,00,60,42,
1504108,00000351,false,Rx,0,8,EB,01,2C,01,2C,01,80,01,
1504400,00000355,false,Rx,0,8,00,00,64,00,00,00,00,00,
1504601,00000356,false,Rx,0,8,00,00,00,00,00,00,00,00,
1506400,0000035A,false,Rx,0,8,00,00,00,00,00,00,00,00,
1506600,0000035E,false,Rx,0,8,53,49,4D,50,20,42,4D,53,
1507718,00000103,false,Rx,0,8,00,00,00,00,00,00,60,64,
1508340,00000370,false,Rx,0,8,54,4F,4D,20,44,45,20,42,
1512792,00000373,false,Rx,0,8,88,13,00,00,11,01,11,01,
1531255,00000083,false,Rx,0,8,68,10,00,50,00,00,80,BF,
1531794,00000113,false,Rx,0,8,00,00,33,00,00,00,00,00,
1536820,00000200,false,Rx,0,8,33,34,40,3A,39,00,00,00,
1538441,000001D5,false,Rx,0,8,22,99,29,22,22,22,99,99,
1542749,00000100,false,Rx,0,8,00,00,00,00,00,00,70,06,
1545778,00000201,false,Rx,0,8,34,34,40,3D,38,00,00,00,
1545979,00000202,false,Rx,0,8,34,34,40,3F,38,00,00,00,
1547183,00000204,false,Rx,0,8,34,34,40,35,38,00,00,00,
1550470,00000105,false,Rx,0,8,00,00,00,00,00,00,80,95,
1551751,00000101,false,Rx,0,8,00,00,00,00,00,00,70,63,
1552034,00000102,false,Rx,0,8,00,00,00,00,00,00,70,CC,
1552739,00000203,false,Rx,0,8,34,34,40,41,37,00,00,00,
1553189,00000104,false,Rx,0,8,00,00,00,00,00,00,70,8F,
1558727,00000103,false,Rx,0,8,00,00,00,00,00,00,70,A9,
1570407,000001C5,false,Rx,0,8,22,22,92,22,22,22,42,22,
1580898,000001D0,false,Rx,0,8,22,99,29,22,22,22,99,99,
1582098,00000084,false,Rx,0,8,68,10,00,50,00,00,90,54,
1583216,00000114,false,Rx,0,8,00,00,33,00,00,00,00,00,
1589576,000001D1,false,Rx,0,8,22,99,29,22,22,22,99,99,
1589942,000001D2,false,Rx,0,8,22,99,29,22,22,22,99,99,
1592224,000001D4,false,Rx,0,8,22,99,29,22,22,22,99,99,
1592762,00000100,false,Rx,0,8,00,00,00,00,00,00,80,79,
1594468,00000205,false,Rx,0,8,34,34,40,43,39,00,00,00,
1596664,000001D3,false,Rx,0,8,22,99,29,22,22,22,99,99,
1600445,00000105,false,Rx,0,8,00,00,00,00,00,00,90,58,
1601562,00000101,false,Rx,0,8,00,00,00,00,00,00,80,1C,
1602011,00000102,false,Rx,0,8,00,00,00,00,00,00,80,B3,
1604212,00000104,false,Rx,0,8,00,00,00,00,00,00,80,F0,
1608660,00000103,false,Rx,0,8,00,00,00,00,00,00,80,D6,
1612688,000001C0,false,Rx,0,8,22,22,92,22,22,22,42,22,
1621467,000001C1,false,Rx,0,8,22,22,92,22,22,22,42,22,
1621833,000001C2,false,Rx,0,8,22,22,92,22,22,22,42,22,
1624114,000001C4,false,Rx,0,8,22,22,92,22,22,22,42,22,
1628572,000001C3,false,Rx,0,8,22,22,92,22,22,22,42,22,
1633041,00000085,false,Rx,0,8,68,10,00,50,00,00,A0,7B,
1634414,00000115,false,Rx,0,8,00,00,33,00,00,00,00,00,
1636692,00000200,false,Rx,0,8,33,34,40,39,39,00,00,00,
1642593,00000100,false,Rx,0,8,00,00,00,00,00,00,90,B4,
1645478,00000201,false,Rx,0,8,34,34,40,3D,38,00,00,00,
1645844,00000202,false,Rx,0,8,34,34,40,3E,38,00,00,00,
1648128,00000204,false,Rx,0,8,34,34,40,36,38,00,00,00,
1651413,00000105,false,Rx,0,8,00,00,00,00,00,00,A0,12,
1651697,00000101,false,Rx,0,8,00,00,00,00,00,00,90,D1,
1651897,00000102,false,Rx,0,8,00,00,00,00,00,00,90,7E,
1652602,00000203,false,Rx,0,8,34,34,40,42,37,00,00,00,
1654132,00000104,false,Rx,0,8,00,00,00,00,00,00,90,3D,
1658497,00000103,false,Rx,0,8,00,00,00,00,00,00,90,1B,
1684048,00000086,false,Rx,0,8,68,10,00,50,00,00,B0,19,
1692570,00000100,false,Rx,0,8,00,00,00,00,00,00,A0,FE,
1695435,00000205,false,Rx,0,8,34,34,40,43,39,00,00,00,
1701385,00000105,false,Rx,0,8,00,00,00,00,00,00,B0,DF,
1701668,00000101,false,Rx,0,8,00,00,00,00,00,00,A0,9B,
1701952,00000102,false,Rx,0,8,00,00,00,00,00,00,A0,34,
1704067,00000104,false,Rx,0,8,00,00,00,00,00,00,A0,77,
1708528,00000103,false,Rx,0,8,00,00,00,00,00,00,A0,51,
1735051,00000087,false,Rx,0,8,68,10,00,50,00,00,C0,25,
1736340,00000200,false,Rx,0,8,33,34,40,39,39,00,00,00,
1739293,000001D5,false,Rx,0,8,22,99,29,22,22,22,99,99,
1742404,00000100,false,Rx,0,8,00,00,00,00,00,00,B0,33,
1745374,00000201,false,Rx,0,8,34,34,40,3D,38,00,00,00,
1745822,00000202,false,Rx,0,8,34,34,40,3E,38,00,00,00,
1748029,00000204,false,Rx,0,8,34,34,40,36,38,00,00,00,
1751315,00000101,false,Rx,0,8,00,00,00,00,00,00,B0,56,
1751515,00000105,false,Rx,0,8,00,00,00,00,00,00,C0,86,
1751799,00000102,false,Rx,0,8,00,00,00,00,00,00,B0,F9,
1752421,00000203,false,Rx,0,8,34,34,40,42,37,00,00,00,
1754032,00000104,false,Rx,0,8,00,00,00,00,00,00,B0,BA,
1758483,00000103,false,Rx,0,8,00,00,00,00,00,00,B0,9C,
1771235,000001C5,false,Rx,0,8,22,22,92,22,22,22,42,22,
1780253,000001D0,false,Rx,0,8,22,99,29,22,22,22,99,99,
1786019,00000080,false,Rx,0,8,68,10,00,50,00,00,D0,CE,
1787314,00000110,false,Rx,0,8,00,00,33,00,00,00,00,00,
1789428,000001D1,false,Rx,0,8,22,99,29,22,22,22,99,99,
1789794,000001D2,false,Rx,0,8,22,99,29,22,22,22,99,99,
1791990,000001D4,false,Rx,0,8,22,99,29,22,22,22,99,99,
1793272,00000100,false,Rx,0,8,00,00,00,00,00,00,C0,6A,
1795315,00000205,false,Rx,0,8,34,34,40,43,39,00,00,00,
1796349,000001D3,false,Rx,0,8,22,99,29,22,22,22,99,99,
1801302,00000105,false,Rx,0,8,00,00,00,00,00,00,D0,4B,
1801585,00000101,false,Rx,0,8,00,00,00,00,00,00,C0,0F,
1801786,00000102,false,Rx,0,8,00,00,00,00,00,00,C0,A0,
1803984,00000104,false,Rx,0,8,00,00,00,00,00,00,C0,E3,
1808433,00000103,false,Rx,0,8,00,00,00,00,00,00,C0,C5,
1813128,000001C0,false,Rx,0,8,22,22,92,22,22,22,42,22,
1821483,000001C1,false,Rx,0,8,22,22,92,22,22,22,42,22,
1821684,000001C2,false,Rx,0,8,22,22,92,22,22,22,42,22,
1823799,000001C4,false,Rx,0,8,22,22,92,22,22,22,42,22,
1828341,000001C3,false,Rx,0,8,22,22,92,22,22,22,42,22,
1837689,00000081,false,Rx,0,8,68,10,00,50,00,00,E0,E1,
1837776,00000200,false,Rx,0,8,33,34,40,39,39,00,00,00,
1837863,00000111,false,Rx,0,8,00,00,33,00,00,00,00,00,
1843225,00000100,false,Rx,0,8,00,00,00,00,00,00,D0,A7,
1845594,00000202,false,Rx,0,8,34,34,40,3F,38,00,00,00,
1846372,00000201,false,Rx,0,8,34,34,40,3D,38,00,00,00,
1847846,00000204,false,Rx,0,8,34,34,40,35,38,00,00,00,
1851137,00000105,false,Rx,0,8,00,00,00,00,00,00,E0,01,
1851594,00000102,false,Rx,0,8,00,00,00,00,00,00,D0,6D,
1852299,00000101,false,Rx,0,8,00,00,00,00,00,00,D0,C2,
1852501,00000203,false,Rx,0,8,34,34,40,42,37,00,00,00,
1853864,00000104,false,Rx,0,8,00,00,00,00,00,00,D0,2E,
1858480,00000103,false,Rx,0,8,00,00,00,00,00,00,D0,08,
1889018,00000082,false,Rx,0,8,68,10,00,50,00,00,00,FC,
1889110,00000112,false,Rx,0,8,00,00,33,00,00,00,00,00,
1893056,00000100,false,Rx,0,8,00,00,00,00,00,00,E0,ED,
1895172,00000205,false,Rx,0,8,34,34,40,43,39,00,00,00,
1901140,00000105,false,Rx,0,8,00,00,00,00,00,00,00,B3,
1902346,00000101,false,Rx,0,8,00,00,00,00,00,00,E0,88,
1902713,00000102,false,Rx,0,8,00,00,00,00,00,00,E0,27,
1903994,00000104,false,Rx,0,8,00,00,00,00,00,00,E0,64,
1908461,00000103,false,Rx,0,8,00,00,00,00,00,00,E0,42,
1936978,00000200,false,Rx,0,8,33,34,40,3A,39,00,00,00,
1939009,00000083,false,Rx,0,8,68,10,00,50,00,00,10,54,
1940019,000001D5,false,Rx,0,8,22,99,29,22,22,22,99,99,
1940480,00000113,false,Rx,0,8,00,00,33,00,00,00,00,00,
1943091,00000100,false,Rx,0,8,00,00,00,00,00,00,00,5F,
1946371,00000201,false,Rx,0,8,34,34,40,3D,38,00,00,00,
1946655,00000202,false,Rx,0,8,34,34,40,3F,38,00,00,00,
1948018,00000204,false,Rx,0,8,34,34,40,35,38,00,00,00,
1951237,00000105,false,Rx,0,8,00,00,00,00,00,00,10,7E,
1952372,00000101,false,Rx,0,8,00,00,00,00,00,00,00,3A,
1952655,00000102,false,Rx,0,8,00,00,00,00,00,00,00,95,
1953443,00000203,false,Rx,0,8,34,34,40,42,37,00,00,00,
1953973,00000104,false,Rx,0,8,00,00,00,00,00,00,00,D6,
1959502,00000103,false,Rx,0,8,00,00,00,00,00,00,00,F0,
1971091,000001C5,false,Rx,0,8,22,22,92,22,22,22,42,22,
1980955,000001D0,false,Rx,0,8,22,99,29,22,22,22,99,99,
1991547,00000084,false,Rx,0,8,68,10,00,50,00,00,20,38,
1991635,000001D1,false,Rx,0,8,22,99,29,22,22,22,99,99,
1991721,000001D2,false,Rx,0,8,22,99,29,22,22,22,99,99,
1991808,00000114,false,Rx,0,8,00,00,33,00,00,00,00,00,
1993007,00000100,false,Rx,0,8,00,00,00,00,00,00,10,92,
1993212,000001D4,false,Rx,0,8,22,99,29,22,22,22,99,99,
1995077,00000205,false,Rx,0,8,34,34,40,43,39,00,00,00,
1997364,000001D3,false,Rx,0,8,22,99,29,22,22,22,99,99,
2001070,00000105,false,Rx,0,8,00,00,00,00,00,00,20,34,
2002467,00000101,false,Rx,0,8,00,00,00,00,00,00,10,F7,
2002668,00000102,false,Rx,0,8,00,00,00,00,00,00,10,58,
2005028,00000104,false,Rx,0,8,00,00,00,00,00,00,10,1B,
2005321,00000351,false,Rx,0,8,EB,01,2C,01,2C,01,80,01,
2005521,00000355,false,Rx,0,8,00,00,64,00,00,00,00,00,
2005805,00000356,false,Rx,0,8,00,00,00,00,00,00,00,00,
2007426,0000035A,false,Rx,0,8,00,00,00,00,00,00,00,00,
2007627,0000035E,false,Rx,0,8,53,49,4D,50,20,42,4D,53,
2009328,00000103,false,Rx,0,8,00,00,00,00,00,00,10,3D,
2009530,00000370,false,Rx,0,8,54,4F,4D,20,44,45,20,42,
2012891,000001C0,false,Rx,0,8,22,22,92,22,22,22,42,22,
2013760,00000373,false,Rx,0,8,88,13,00,00,11,01,11,01,
2022378,000001C1,false,Rx,0,8,22,22,92,22,22,22,42,22,
2022580,000001C2,false,Rx,0,8,22,22,92,22,22,22,42,22,
2025024,000001C4,false,Rx,0,8,22,22,92,22,22,22,42,22,
2029231,000001C3,false,Rx,0,8,22,22,92,22,22,22,42,22,
2036846,00000200,false,Rx,0,8,33,34,40,3A,39,00,00,00,
2041044,00000085,false,Rx,0,8,68,10,00,50,00,00,30,90,
2045676,00000115,false,Rx,0,8,00,00,33,00,00,00,00,00,
2045764,00000100,false,Rx,0,8,00,00,00,00,00,00,20,D8,
2046303,00000201,false,Rx,0,8,34,34,40,3D,38,00,00,00,
2046586,00000202,false,Rx,0,8,34,34,40,3F,38,00,00,00,
2049035,00000204,false,Rx,0,8,34,34,40,35,38,00,00,00,
2051996,00000105,false,Rx,0,8,00,00,00,00,00,00,30,F9,
2052299,00000101,false,Rx,0,8,00,00,00,00,00,00,20,BD,
2052747,00000102,false,Rx,0,8,00,00,00,00,00,00,20,12,
2053287,00000203,false,Rx,0,8,34,34,40,42,37,00,00,00,
2055075,00000104,false,Rx,0,8,00,00,00,00,00,00,20,51,
2059358,00000103,false,Rx,0,8,00,00,00,00,00,00,20,77,
2092044,00000086,false,Rx,0,8,68,10,00,50,00,00,40,66,
2092750,00000100,false,Rx,0,8,00,00,00,00,00,00,30,15,
2097070,00000205,false,Rx,0,8,34,34,40,43,39,00,00,00,
2101932,00000105,false,Rx,0,8,00,00,00,00,00,00,40,A0,
2102218,00000101,false,Rx,0,8,00,00,00,00,00,00,30,70,
2102675,00000102,false,Rx,0,8,00,00,00,00,00,00,30,DF,
2104875,00000104,false,Rx,0,8,00,00,00,00,00,00,30,9C,
2109336,00000103,false,Rx,0,8,00,00,00,00,00,00,30,BA,
2136499,00000200,false,Rx,0,8,33,34,40,3A,39,00,00,00,
2139938,000001D5,false,Rx,0,8,22,99,29,22,22,22,99,99,
2142480,00000100,false,Rx,0,8,00,00,00,00,00,00,40,4C,
2143009,00000087,false,Rx,0,8,68,10,00,50,00,00,50,CE,
2146128,00000201,false,Rx,0,8,34,34,40,3D,38,00,00,00,
2146750,00000202,false,Rx,0,8,34,34,40,3F,38,00,00,00,
2148908,00000204,false,Rx,0,8,34,34,40,35,38,00,00,00,
2151861,00000105,false,Rx,0,8,00,00,00,00,00,00,50,6D,
2152156,00000101,false,Rx,0,8,00,00,00,00,00,00,40,29,
2152694,00000102,false,Rx,0,8,00,00,00,00,00,00,40,86,
2153317,00000203,false,Rx,0,8,34,34,40,41,37,00,00,00,
2154933,00000104,false,Rx,0,8,00,00,00,00,00,00,40,C5,
2159410,00000103,false,Rx,0,8,00,00,00,00,00,00,40,E3,
2171830,000001C5,false,Rx,0,8,22,22,92,22,22,22,42,22,
2180349,000001D0,false,Rx,0,8,22,99,29,22,22,22,99,99,
2190044,000001D1,false,Rx,0,8,22,99,29,22,22,22,99,99,
2190831,000001D2,false,Rx,0,8,22,99,29,22,22,22,99,99,
2192369,00000100,false,Rx,0,8,00,00,00,00,00,00,50,81,
2192817,000001D4,false,Rx,0,8,22,99,29,22,22,22,99,99,
2194016,00000080,false,Rx,0,8,68,10,00,50,00,00,60,A2,
2195473,00000110,false,Rx,0,8,00,00,33,00,00,00,00,00,
2195674,00000205,false,Rx,0,8,34,34,40,43,39,00,00,00,
2197378,000001D3,false,Rx,0,8,22,99,29,22,22,22,99,99,
2201699,00000105,false,Rx,0,8,00,00,00,00,00,00,60,27,
2201983,00000101,false,Rx,0,8,00,00,00,00,00,00,50,E4,
2202853,00000102,false,Rx,0,8,00,00,00,00,00,00,50,4B,
2204807,00000104,false,Rx,0,8,00,00,00,00,00,00,50,08,
2209420,00000103,false,Rx,0,8,00,00,00,00,00,00,50,2E,
2213274,000001C0,false,Rx,0,8,22,22,92,22,22,22,42,22,
2221973,000001C1,false,Rx,0,8,22,22,92,22,22,22,42,22,
2222761,000001C2,false,Rx,0,8,22,22,92,22,22,22,42,22,
2224797,000001C4,false,Rx,0,8,22,22,92,22,22,22,42,22,
2229247,000001C3,false,Rx,0,8,22,22,92,22,22,22,42,22,
2237302,00000200,false,Rx,0,8,33,34,40,3A,39,00,00,00,
2243324,00000100,false,Rx,0,8,00,00,00,00,00,00,60,CB,
2245017,00000081,false,Rx,0,8,68,10,00,50,00,00,70,0A,
2246138,00000111,false,Rx,0,8,00,00,33,00,00,00,00,00,
2246841,00000202,false,Rx,0,8,34,34,40,3F,38,00,00,00,
2247042,00000201,false,Rx,0,8,34,34,40,3D,38,00,00,00,
2248909,00000204,false,Rx,0,8,34,34,40,35,38,00,00,00,
2252539,00000105,false,Rx,0,8,00,00,00,00,00,00,70,EA,
2252824,00000102,false,Rx,0,8,00,00,00,00,00,00,60,01,
2253025,00000101,false,Rx,0,8,00,00,00,00,00,00,60,AE,
2253319,00000203,false,Rx,0,8,34,34,40,42,37,00,00,00,
2254847,00000104,false,Rx,0,8,00,00,00,00,00,00,60,42,
2259325,00000103,false,Rx,0,8,00,00,00,00,00,00,60,64,
2293225,00000100,false,Rx,0,8,00,00,00,00,00,00,70,06,
2295676,00000205,false,Rx,0,8,34,34,40,43,39,00,00,00,
2296042,00000082,false,Rx,0,8,68,10,00,50,00,00,80,DA,
2296828,00000112,false,Rx,0,8,00,00,33,00,00,00,00,00,
2301604,00000105,false,Rx,0,8,00,00,00,00,00,00,80,95,
2303531,00000101,false,Rx,0,8,00,00,00,00,00,00,70,63,
2303815,00000102,false,Rx,0,8,00,00,00,00,00,00,70,CC,
2304849,00000104,false,Rx,0,8,00,00,00,00,00,00,70,8F,
2309143,00000103,false,Rx,0,8,00,00,00,00,00,00,70,A9,
2337145,00000200,false,Rx,0,8,33,34,40,3A,39,00,00,00,
2339680,000001D5,false,Rx,0,8,22,99,29,22,22,22,99,99,
2343212,00000100,false,Rx,0,8,00,00,00,00,00,00,80,79,
2346907,00000201,false,Rx,0,8,34,34,40,3D,38,00,00,00,
2347110,00000083,false,Rx,0,8,68,10,00,50,00,00,90,72,
2347978,00000202,false,Rx,0,8,34,34,40,3E,38,00,00,00,
2348353,00000113,false,Rx,0,8,00,00,33,00,00,00,00,00,
2348884,00000204,false,Rx,0,8,34,34,40,35,38,00,00,00,
2351668,00000105,false,Rx,0,8,00,00,00,00,00,00,90,58,
2352867,00000101,false,Rx,0,8,00,00,00,00,00,00,80,1C,
2355063,00000102,false,Rx,0,8,00,00,00,00,00,00,80,B3,
2355153,00000203,false,Rx,0,8,34,34,40,42,37,00,00,00,
2355239,00000104,false,Rx,0,8,00,00,00,00,00,00,80,F0,
2360206,00000103,false,Rx,0,8,00,00,00,00,00,00,80,D6,
2371650,000001C5,false,Rx,0,8,22,22,92,22,22,22,42,22,
2381076,000001D0,false,Rx,0,8,22,99,29,22,22,22,99,99,
2390675,000001D1,false,Rx,0,8,22,99,29,22,22,22,99,99,
2391958,000001D2,false,Rx,0,8,22,99,29,22,22,22,99,99,
2392827,000001D4,false,Rx,0,8,22,99,29,22,22,22,99,99,
2393114,00000100,false,Rx,0,8,00,00,00,00,00,00,90,B4,
2395647,00000205,false,Rx,0,8,34,34,40,43,39,00,00,00,
2398094,00000084,false,Rx,0,8,68,10,00,50,00,00,A0,1E,
2398304,000001D3,false,Rx,0,8,22,99,29,22,22,22,99,99,
2398917,00000114,false,Rx,0,8,00,00,33,00,00,00,00,00,
2401542,00000105,false,Rx,0,8,00,00,00,00,00,00,A0,12,
2402740,00000101,false,Rx,0,8,00,00,00,00,00,00,90,D1,
2404021,00000102,false,Rx,0,8,00,00,00,00,00,00,90,7E,
2407230,00000104,false,Rx,0,8,00,00,00,00,00,00,90,3D,
2410037,00000103,false,Rx,0,8,00,00,00,00,00,00,90,1B,
2412984,000001C0,false,Rx,0,8,22,22,92,22,22,22,42,22,
2422833,000001C1,false,Rx,0,8,22,22,92,22,22,22,42,22,
2424031,000001C2,false,Rx,0,8,22,22,92,22,22,22,42,22,
2425980,000001C4,false,Rx,0,8,22,22,92,22,22,22,42,22,
2429897,000001C3,false,Rx,0,8,22,22,92,22,22,22,42,22,
2436962,00000200,false,Rx,0,8,33,34,40,3A,39,00,00,00,
2442985,00000100,false,Rx,0,8,00,00,00,00,00,00,A0,FE,
2446849,00000201,false,Rx,0,8,34,34,40,3D,38,00,00,00,
2447884,00000202,false,Rx,0,8,34,34,40,3E,38,00,00,00,
2449085,00000085,false,Rx,0,8,68,10,00,50,00,00,B0,B6,
2449953,00000204,false,Rx,0,8,34,34,40,35,38,00,00,00,
2450494,00000115,false,Rx,0,8,00,00,33,00,00,00,00,00,
2452443,00000105,false,Rx,0,8,00,00,00,00,00,00,B0,DF,
2452810,00000101,false,Rx,0,8,00,00,00,00,00,00,A0,9B,
2453761,00000203,false,Rx,0,8,34,34,40,42,37,00,00,00,
2454045,00000102,false,Rx,0,8,00,00,00,00,00,00,A0,34,
2456078,00000104,false,Rx,0,8,00,00,00,00,00,00,A0,77,
2459801,00000103,false,Rx,0,8,00,00,00,00,00,00,A0,51,
2492892,00000100,false,Rx,0,8,00,00,00,00,00,00,B0,33,
2496342,00000205,false,Rx,0,8,34,34,40,43,39,00,00,00,
2500037,00000086,false,Rx,0,8,68,10,00,50,00,00,C0,40,
2502409,00000105,false,Rx,0,8,00,00,00,00,00,00,C0,86,
2502693,00000101,false,Rx,0,8,00,00,00,00,00,00,B0,56,
2503973,00000102,false,Rx,0,8,00,00,00,00,00,00,B0,F9,
2505922,00000104,false,Rx,0,8,00,00,00,00,00,00,B0,BA,
2506220,00000351,false,Rx,0,8,EB,01,2C,01,2C,01,80,01,
2506428,00000355,false,Rx,0,8,00,00,64,00,00,00,00,00,
2506711,00000356,false,Rx,0,8,00,00,00,00,00,00,00,00,
2508496,0000035A,false,Rx,0,8,00,00,00,00,00,00,00,00,
2508698,0000035E,false,Rx,0,8,53,49,4D,50,20,42,4D,53,
2509732,00000103,false,Rx,0,8,00,00,00,00,00,00,B0,9C,
2511351,00000370,false,Rx,0,8,54,4F,4D,20,44,45,20,42,
2514883,00000373,false,Rx,0,8,88,13,00,00,11,01,11,01,
2536729,00000200,false,Rx,0,8,33,34,40,3A,39,00,00,00,
2540346,000001D5,false,Rx,0,8,22,99,29,22,22,22,99,99,
2542712,00000100,false,Rx,0,8,00,00,00,00,00,00,C0,6A,
2546657,00000201,false,Rx,0,8,34,34,40,3D,38,00,00,00,
2547855,00000202,false,Rx,0,8,34,34,40,3F,38,00,00,00,
2549891,00000204,false,Rx,0,8,34,34,40,35,38,00,00,00,
2551091,00000087,false,Rx,0,8,68,10,00,50,00,00,D0,E8,
2552381,00000105,false,Rx,0,8,00,00,00,00,00,00,D0,4B,
2552664,00000101,false,Rx,0,8,00,00,00,00,00,00,C0,0F,
2553783,00000203,false,Rx,0,8,34,34,40,41,37,00,00,00,
2553983,00000102,false,Rx,0,8,00,00,00,00,00,00,C0,A0,
2556015,00000104,false,Rx,0,8,00,00,00,00,00,00,C0,E3,
2559717,00000103,false,Rx,0,8,00,00,00,00,00,00,C0,C5,
2572242,000001C5,false,Rx,0,8,22,22,92,22,22,22,42,22,
2580679,000001D0,false,Rx,0,8,22,99,29,22,22,22,99,99,
2590632,000001D1,false,Rx,0,8,22,99,29,22,22,22,99,99,
2591832,000001D2,false,Rx,0,8,22,99,29,22,22,22,99,99,
2592702,00000100,false,Rx,0,8,00,00,00,00,00,00,D0,A7,
2593901,000001D4,false,Rx,0,8,22,99,29,22,22,22,99,99,
2596264,00000205,false,Rx,0,8,34,34,40,43,39,00,00,00,
2597719,000001D3,false,Rx,0,8,22,99,29,22,22,22,99,99,
2602076,00000080,false,Rx,0,8,68,10,00,50,00,00,E0,84,
2602361,00000105,false,Rx,0,8,00,00,00,00,00,00,E0,01,
2602727,00000101,false,Rx,0,8,00,00,00,00,00,00,D0,C2,
2602929,00000110,false,Rx,0,8,00,00,33,00,00,00,00,00,
2603881,00000102,false,Rx,0,8,00,00,00,00,00,00,D0,6D,
2605997,00000104,false,Rx,0,8,00,00,00,00,00,00,D0,2E,
2609776,00000103,false,Rx,0,8,00,00,00,00,00,00,D0,08,
2614916,000001C0,false,Rx,0,8,22,22,92,22,22,22,42,22,
2622625,000001C1,false,Rx,0,8,22,22,92,22,22,22,42,22,
2623825,000001C2,false,Rx,0,8,22,22,92,22,22,22,42,22,
2626021,000001C4,false,Rx,0,8,22,22,92,22,22,22,42,22,
2629815,000001C3,false,Rx,0,8,22,22,92,22,22,22,42,22,
2637680,00000200,false,Rx,0,8,33,34,40,3A,39,00,00,00,
2643715,00000100,false,Rx,0,8,00,00,00,00,00,00,E0,ED,
2646662,00000201,false,Rx,0,8,34,34,40,3D,38,00,00,00,
2647943,00000202,false,Rx,0,8,34,34,40,3F,38,00,00,00,
2650059,00000204,false,Rx,0,8,34,34,40,36,38,00,00,00,
2652257,00000105,false,Rx,0,8,00,00,00,00,00,00,00,B3,
2652797,00000101,false,Rx,0,8,00,00,00,00,00,00,E0,88,
2652997,00000081,false,Rx,0,8,68,10,00,50,00,00,00,53,
2653784,00000111,false,Rx,0,8,00,00,33,00,00,00,00,00,
2654068,00000102,false,Rx,0,8,00,00,00,00,00,00,E0,27,
2654271,00000203,false,Rx,0,8,34,34,40,42,37,00,00,00,
2656056,00000104,false,Rx,0,8,00,00,00,00,00,00,E0,64,
2659754,00000103,false,Rx,0,8,00,00,00,00,00,00,E0,42,
2693644,00000100,false,Rx,0,8,00,00,00,00,00,00,00,5F,
2696171,00000205,false,Rx,0,8,34,34,40,43,39,00,00,00,
2702296,00000105,false,Rx,0,8,00,00,00,00,00,00,10,7E,
2703660,00000101,false,Rx,0,8,00,00,00,00,00,00,00,3A,
2703944,00000102,false,Rx,0,8,00,00,00,00,00,00,00,95,
2704149,00000082,false,Rx,0,8,68,10,00,50,00,00,10,31,
2704934,00000112,false,Rx,0,8,00,00,33,00,00,00,00,00,
2705969,00000104,false,Rx,0,8,00,00,00,00,00,00,00,D6,
2709759,00000103,false,Rx,0,8,00,00,00,00,00,00,00,F0,
2737561,00000200,false,Rx,0,8,33,34,40,39,39,00,00,00,
2740089,000001D5,false,Rx,0,8,22,99,29,22,22,22,99,99,
2743543,00000100,false,Rx,0,8,00,00,00,00,00,00,10,92,
2747736,00000201,false,Rx,0,8,34,34,40,3D,38,00,00,00,
2748853,00000202,false,Rx,0,8,34,34,40,3F,38,00,00,00,
2749974,00000204,false,Rx,0,8,34,34,40,35,38,00,00,00,
2752255,00000105,false,Rx,0,8,00,00,00,00,00,00,20,34,
2753630,00000203,false,Rx,0,8,34,34,40,42,37,00,00,00,
2753830,00000101,false,Rx,0,8,00,00,00,00,00,00,10,F7,
2755029,00000102,false,Rx,0,8,00,00,00,00,00,00,10,58,
2755232,00000083,false,Rx,0,8,68,10,00,50,00,00,20,1E,
2755936,00000104,false,Rx,0,8,00,00,00,00,00,00,10,1B,
2756725,00000113,false,Rx,0,8,00,00,33,00,00,00,00,00,
2760671,00000103,false,Rx,0,8,00,00,00,00,00,00,10,3D,
2772230,000001C5,false,Rx,0,8,22,22,92,22,22,22,42,22,
2781499,000001D0,false,Rx,0,8,22,99,29,22,22,22,99,99,
2791679,000001D1,false,Rx,0,8,22,99,29,22,22,22,99,99,
2793044,000001D2,false,Rx,0,8,22,99,29,22,22,22,99,99,
2793502,00000100,false,Rx,0,8,00,00,00,00,00,00,20,D8,
2793951,000001D4,false,Rx,0,8,22,99,29,22,22,22,99,99,
2796230,00000205,false,Rx,0,8,34,34,40,42,39,00,00,00,
2798600,000001D3,false,Rx,0,8,22,99,29,22,22,22,99,99,
2802212,00000105,false,Rx,0,8,00,00,00,00,00,00,30,F9,
2803749,00000101,false,Rx,0,8,00,00,00,00,00,00,20,BD,
2805032,00000102,false,Rx,0,8,00,00,00,00,00,00,20,12,
2805984,00000104,false,Rx,0,8,00,00,00,00,00,00,20,51,
2806270,00000084,false,Rx,0,8,68,10,00,50,00,00,30,F5,
2807140,00000114,false,Rx,0,8,00,00,33,00,00,00,00,00,
2810671,00000103,false,Rx,0,8,00,00,00,00,00,00,20,77,
2813461,000001C0,false,Rx,0,8,22,22,92,22,22,22,42,22,
2823651,000001C1,false,Rx,0,8,22,22,92,22,22,22,42,22,
2825099,000001C2,false,Rx,0,8,22,22,92,22,22,22,42,22,
2826963,000001C4,false,Rx,0,8,22,22,92,22,22,22,42,22,
2830600,000001C3,false,Rx,0,8,22,22,92,22,22,22,42,22,
2837385,00000200,false,Rx,0,8,33,34,40,3A,39,00,00,00,
2843407,00000100,false,Rx,0,8,00,00,00,00,00,00,30,15,
2847682,00000201,false,Rx,0,8,34,34,40,3D,38,00,00,00,
2848963,00000202,false,Rx,0,8,34,34,40,3F,38,00,00,00,
2850914,00000204,false,Rx,0,8,34,34,40,35,38,00,00,00,
2852197,00000105,false,Rx,0,8,00,00,00,00,00,00,40,A0,
2853732,00000101,false,Rx,0,8,00,00,00,00,00,00,30,70,
2854520,00000203,false,Rx,0,8,34,34,40,42,37,00,00,00,
2855051,00000102,false,Rx,0,8,00,00,00,00,00,00,30,DF,
2856919,00000104,false,Rx,0,8,00,00,00,00,00,00,30,9C,
2857207,00000085,false,Rx,0,8,68,10,00,50,00,00,40,C9,
2858331,00000115,false,Rx,0,8,00,00,33,00,00,00,00,00,
2860444,00000103,false,Rx,0,8,00,00,00,00,00,00,30,BA,
52850782,00000100,false,Rx,0,8,00,00,00,00,00,00,40,4C,
52854717,00000205,false,Rx,0,8,34,34,40,43,39,00,00,00,
52860760,00000105,false,Rx,0,8,00,00,00,00,00,00,50,6D,
52861373,00000101,false,Rx,0,8,00,00,00,00,00,00,40,29,
52862409,00000102,false,Rx,0,8,00,00,00,00,00,00,40,86,
52864372,00000104,false,Rx,0,8,00,00,00,00,00,00,40,C5,
52865489,00000086,false,Rx,0,8,68,10,00,50,00,00,50,AB,
52867945,00000103,false,Rx,0,8,00,00,00,00,00,00,40,E3,
52894608,00000200,false,Rx,0,8,33,34,40,3A,39,00,00,00,
52898717,000001D5,false,Rx,0,8,22,99,29,22,22,22,99,99,
52900671,00000100,false,Rx,0,8,00,00,00,00,00,00,50,81,
52905116,00000201,false,Rx,0,8,34,34,40,3D,38,00,00,00,
52906315,00000202,false,Rx,0,8,34,34,40,3F,38,00,00,00,
52908433,00000204,false,Rx,0,8,34,34,40,35,38,00,00,00,
52910803,00000105,false,Rx,0,8,00,00,00,00,00,00,60,27,
52911169,00000101,false,Rx,0,8,00,00,00,00,00,00,50,E4,
52911874,00000203,false,Rx,0,8,34,34,40,42,37,00,00,00,
52912322,00000102,false,Rx,0,8,00,00,00,00,00,00,50,4B,
52914435,00000104,false,Rx,0,8,00,00,00,00,00,00,50,08,
52916553,00000087,false,Rx,0,8,68,10,00,50,00,00,60,84,
52917843,00000103,false,Rx,0,8,00,00,00,00,00,00,50,2E,
52930686,000001C5,false,Rx,0,8,22,22,92,22,22,22,42,22,
52938687,000001D0,false,Rx,0,8,22,99,29,22,22,22,99,99,
52949037,000001D1,false,Rx,0,8,22,99,29,22,22,22,99,99,
52950401,000001D2,false,Rx,0,8,22,99,29,22,22,22,99,99,
52950687,00000100,false,Rx,0,8,00,00,00,00,00,00,60,CB,
52952306,000001D4,false,Rx,0,8,22,99,29,22,22,22,99,99,
52954674,00000205,false,Rx,0,8,34,34,40,43,39,00,00,00,
52955964,000001D3,false,Rx,0,8,22,99,29,22,22,22,99,99,
52960703,00000105,false,Rx,0,8,00,00,00,00,00,00,70,EA,
52961078,00000101,false,Rx,0,8,00,00,00,00,00,00,60,AE,
52962442,00000102,false,Rx,0,8,00,00,00,00,00,00,60,01,
52964308,00000104,false,Rx,0,8,00,00,00,00,00,00,60,42,
52964676,00000351,false,Rx,0,8,EB,01,2C,01,2C,01,80,01,
52964885,00000355,false,Rx,0,8,00,00,64,00,00,00,00,00,
52965169,00000356,false,Rx,0,8,00,00,00,00,00,00,00,00,
52966872,0000035A,false,Rx,0,8,00,00,00,00,00,00,00,00,
52967155,0000035E,false,Rx,0,8,53,49,4D,50,20,42,4D,53,
52967859,00000103,false,Rx,0,8,00,00,00,00,00,00,60,64,
52968894,00000370,false,Rx,0,8,54,4F,4D,20,44,45,20,42,
52970590,000001C0,false,Rx,0,8,22,22,92,22,22,22,42,22,
52973288,00000373,false,Rx,0,8,88,13,00,00,11,01,11,01,
52980975,000001C1,false,Rx,0,8,22,22,92,22,22,22,42,22,
52982506,000001C2,false,Rx,0,8,22,22,92,22,22,22,42,22,
52986632,000001C4,false,Rx,0,8,22,22,92,22,22,22,42,22,
52987791,000001C3,false,Rx,0,8,22,22,92,22,22,22,42,22,
52991800,00000080,false,Rx,0,8,68,10,00,50,00,00,70,6F,
52992577,00000110,false,Rx,0,8,00,00,33,00,00,00,00,00,
52995524,00000200,false,Rx,0,8,33,34,40,3A,39,00,00,00,
53001554,00000100,false,Rx,0,8,00,00,00,00,00,00,70,06,
53004764,00000201,false,Rx,0,8,34,34,40,3D,38,00,00,00,
53006537,00000202,false,Rx,0,8,34,34,40,3F,38,00,00,00,
53008321,00000204,false,Rx,0,8,34,34,40,36,39,00,00,00,
53010687,00000105,false,Rx,0,8,00,00,00,00,00,00,80,95,
53010896,00000101,false,Rx,0,8,00,00,00,00,00,00,70,63,
53011766,00000203,false,Rx,0,8,34,34,40,41,37,00,00,00,
53012545,00000102,false,Rx,0,8,00,00,00,00,00,00,70,CC,
53014328,00000104,false,Rx,0,8,00,00,00,00,00,00,70,8F,
53017780,00000103,false,Rx,0,8,00,00,00,00,00,00,70,A9,
53042527,00000081,false,Rx,0,8,68,10,00,50,00,00,80,75,
53043818,00000111,false,Rx,0,8,00,00,33,00,00,00,00,00,
53051424,00000100,false,Rx,0,8,00,00,00,00,00,00,80,79,
53054624,00000205,false,Rx,0,8,34,34,40,43,39,00,00,00,
53060730,00000105,false,Rx,0,8,00,00,00,00,00,00,90,58,
53061771,00000101,false,Rx,0,8,00,00,00,00,00,00,80,1C,
53062553,00000102,false,Rx,0,8,00,00,00,00,00,00,80,B3,
53064353,00000104,false,Rx,0,8,00,00,00,00,00,00,80,F0,
53067803,00000103,false,Rx,0,8,00,00,00,00,00,00,80,D6,
53093530,00000082,false,Rx,0,8,68,10,00,50,00,00,90,17,
53094482,00000112,false,Rx,0,8,00,00,33,00,00,00,00,00,
53095606,00000200,false,Rx,0,8,33,34,40,3A,39,00,00,00,
53098716,000001D5,false,Rx,0,8,22,99,29,22,22,22,99,99,
53101499,00000100,false,Rx,0,8,00,00,00,00,00,00,90,B4,
53105609,00000201,false,Rx,0,8,34,34,40,3D,38,00,00,00,
53107311,00000202,false,Rx,0,8,34,34,40,3F,38,00,00,00,
53108427,00000204,false,Rx,0,8,34,34,40,36,38,00,00,00,
53110708,00000105,false,Rx,0,8,00,00,00,00,00,00,A0,12,
53111495,00000101,false,Rx,0,8,00,00,00,00,00,00,90,D1,
53111697,00000203,false,Rx,0,8,34,34,40,41,37,00,00,00,
53113399,00000102,false,Rx,0,8,00,00,00,00,00,00,90,7E,
53114353,00000104,false,Rx,0,8,00,00,00,00,00,00,90,3D,
53117632,00000103,false,Rx,0,8,00,00,00,00,00,00,90,1B,
53130667,000001C5,false,Rx,0,8,22,22,92,22,22,22,42,22,
53140773,000001D0,false,Rx,0,8,22,99,29,22,22,22,99,99,
53144462,00000083,false,Rx,0,8,68,10,00,50,00,00,A0,38,
53145668,00000113,false,Rx,0,8,00,00,33,00,00,00,00,00,
53149530,000001D1,false,Rx,0,8,22,99,29,22,22,22,99,99,
53151316,000001D2,false,Rx,0,8,22,99,29,22,22,22,99,99,
53151517,00000100,false,Rx,0,8,00,00,00,00,00,00,A0,FE,
53152304,000001D4,false,Rx,0,8,22,99,29,22,22,22,99,99,
53154674,00000205,false,Rx,0,8,34,34,40,43,39,00,00,00,
53156627,000001D3,false,Rx,0,8,22,99,29,22,22,22,99,99,
53160735,00000105,false,Rx,0,8,00,00,00,00,00,00,B0,DF,
53161603,00000101,false,Rx,0,8,00,00,00,00,00,00,A0,9B,
53163303,00000102,false,Rx,0,8,00,00,00,00,00,00,A0,34,
53164338,00000104,false,Rx,0,8,00,00,00,00,00,00,A0,77,
53168614,00000103,false,Rx,0,8,00,00,00,00,00,00,A0,51,
53171561,000001C0,false,Rx,0,8,22,22,92,22,22,22,42,22,
53181506,000001C1,false,Rx,0,8,22,22,92,22,22,22,42,22,
53183125,000001C2,false,Rx,0,8,22,22,92,22,22,22,42,22,
53184324,000001C4,false,Rx,0,8,22,22,92,22,22,22,42,22,
53188538,000001C3,false,Rx,0,8,22,22,92,22,22,22,42,22,
53195505,00000084,false,Rx,0,8,68,10,00,50,00,00,B0,D3,
53195798,00000200,false,Rx,0,8,33,34,40,3A,39,00,00,00,
53196411,00000114,false,Rx,0,8,00,00,33,00,00,00,00,00,
53201604,00000100,false,Rx,0,8,00,00,00,00,00,00,B0,33,
53205551,00000201,false,Rx,0,8,34,34,40,3D,38,00,00,00,
53207170,00000202,false,Rx,0,8,34,34,40,3F,38,00,00,00,
53209284,00000204,false,Rx,0,8,34,34,40,35,38,00,00,00,
53210905,00000105,false,Rx,0,8,00,00,00,00,00,00,C0,86,
53211518,00000101,false,Rx,0,8,00,00,00,00,00,00,B0,56,
53212469,00000203,false,Rx,0,8,34,34,40,41,37,00,00,00,
53213258,00000102,false,Rx,0,8,00,00,00,00,00,00,B0,F9,
53215206,00000104,false,Rx,0,8,00,00,00,00,00,00,B0,BA,
53218483,00000103,false,Rx,0,8,00,00,00,00,00,00,B0,9C,
53246526,00000085,false,Rx,0,8,68,10,00,50,00,00,C0,EF,
53247900,00000115,false,Rx,0,8,00,00,33,00,00,00,00,00,
53251429,00000100,false,Rx,0,8,00,00,00,00,00,00,C0,6A,
53255877,00000205,false,Rx,0,8,34,34,40,43,39,00,00,00,
53261396,00000101,false,Rx,0,8,00,00,00,00,00,00,C0,0F,
53261854,00000105,false,Rx,0,8,00,00,00,00,00,00,D0,4B,
53263053,00000102,false,Rx,0,8,00,00,00,00,00,00,C0,A0,
53265266,00000104,false,Rx,0,8,00,00,00,00,00,00,C0,E3,
53268378,00000103,false,Rx,0,8,00,00,00,00,00,00,C0,C5,
53295232,00000200,false,Rx,0,8,33,34,40,3A,39,00,00,00,
53297515,00000086,false,Rx,0,8,68,10,00,50,00,00,D0,8D,
53299967,000001D5,false,Rx,0,8,22,99,29,22,22,22,99,99,
53301168,00000100,false,Rx,0,8,00,00,00,00,00,00,D0,A7,
53305523,00000201,false,Rx,0,8,34,34,40,3D,38,00,00,00,
53306978,00000202,false,Rx,0,8,34,34,40,3F,38,00,00,00,
53309176,00000204,false,Rx,0,8,34,34,40,36,38,00,00,00,
53311455,00000101,false,Rx,0,8,00,00,00,00,00,00,D0,C2,
53311995,00000105,false,Rx,0,8,00,00,00,00,00,00,E0,01,
53312195,00000203,false,Rx,0,8,34,34,40,42,37,00,00,00,
53313065,00000102,false,Rx,0,8,00,00,00,00,00,00,D0,6D,
53315182,00000104,false,Rx,0,8,00,00,00,00,00,00,D0,2E,
53318130,00000103,false,Rx,0,8,00,00,00,00,00,00,D0,08,
53331967,000001C5,false,Rx,0,8,22,22,92,22,22,22,42,22,
53339088,000001D0,false,Rx,0,8,22,99,29,22,22,22,99,99,
53348533,00000087,false,Rx,0,8,68,10,00,50,00,00,E0,A2,
53349485,000001D1,false,Rx,0,8,22,99,29,22,22,22,99,99,
53351106,00000100,false,Rx,0,8,00,00,00,00,00,00,E0,ED,
53351308,000001D2,false,Rx,0,8,22,99,29,22,22,22,99,99,
53353012,000001D4,false,Rx,0,8,22,99,29,22,22,22,99,99,
53355958,00000205,false,Rx,0,8,34,34,40,43,39,00,00,00,
53356242,000001D3,false,Rx,0,8,22,99,29,22,22,22,99,99,
53361518,00000101,false,Rx,0,8,00,00,00,00,00,00,E0,88,
53361977,00000105,false,Rx,0,8,00,00,00,00,00,00,00,B3,
53363176,00000102,false,Rx,0,8,00,00,00,00,00,00,E0,27,
53365044,00000104,false,Rx,0,8,00,00,00,00,00,00,E0,64,
53368074,00000103,false,Rx,0,8,00,00,00,00,00,00,E0,42,
53371023,000001C0,false,Rx,0,8,22,22,92,22,22,22,42,22,
53381449,000001C1,false,Rx,0,8,22,22,92,22,22,22,42,22,
53383069,000001C2,false,Rx,0,8,22,22,92,22,22,22,42,22,
53384871,000001C4,false,Rx,0,8,22,22,92,22,22,22,42,22,
53387997,000001C3,false,Rx,0,8,22,22,92,22,22,22,42,22,
53395034,00000200,false,Rx,0,8,33,34,40,3A,39,00,00,00,
53399474,00000080,false,Rx,0,8,68,10,00,50,00,00,00,36,
53400096,00000110,false,Rx,0,8,00,00,33,00,00,00,00,00,
53401964,00000100,false,Rx,0,8,00,00,00,00,00,00,00,5F,
53405403,00000201,false,Rx,0,8,34,34,40,3D,38,00,00,00,
53407107,00000202,false,Rx,0,8,34,34,40,3F,38,00,00,00,
53408891,00000204,false,Rx,0,8,34,34,40,36,38,00,00,00,
53411503,00000101,false,Rx,0,8,00,00,00,00,00,00,00,3A,
53411961,00000105,false,Rx,0,8,00,00,00,00,00,00,10,7E,
53412163,00000203,false,Rx,0,8,34,34,40,41,37,00,00,00,
53413197,00000102,false,Rx,0,8,00,00,00,00,00,00,00,95,
53414901,00000104,false,Rx,0,8,00,00,00,00,00,00,00,D6,
53418098,00000103,false,Rx,0,8,00,00,00,00,00,00,00,F0,
53450582,00000081,false,Rx,0,8,68,10,00,50,00,00,10,9E,
53451533,00000111,false,Rx,0,8,00,00,33,00,00,00,00,00,
53452073,00000100,false,Rx,0,8,00,00,00,00,00,00,10,92,
53456024,00000205,false,Rx,0,8,34,34,40,43,39,00,00,00,
53461965,00000105,false,Rx,0,8,00,00,00,00,00,00,20,34,
53462413,00000101,false,Rx,0,8,00,00,00,00,00,00,10,F7,
53463035,00000102,false,Rx,0,8,00,00,00,00,00,00,10,58,
53464998,00000104,false,Rx,0,8,00,00,00,00,00,00,10,1B,
53465613,00000351,false,Rx,0,8,EB,01,2C,01,2C,01,80,01,
53465905,00000355,false,Rx,0,8,00,00,64,00,00,00,00,00,
53466107,00000356,false,Rx,0,8,00,00,00,00,00,00,00,00,
53467892,0000035A,false,Rx,0,8,00,00,00,00,00,00,00,00,
53468093,00000103,false,Rx,0,8,00,00,00,00,00,00,10,3D,
53468377,0000035E,false,Rx,0,8,53,49,4D,50,20,42,4D,53,
53469836,00000370,false,Rx,0,8,54,4F,4D,20,44,45,20,42,
53474275,00000373,false,Rx,0,8,88,13,00,00,11,01,11,01,
53495843,00000200,false,Rx,0,8,33,34,40,39,39,00,00,00,
53499911,000001D5,false,Rx,0,8,22,99,29,22,22,22,99,99,
53502829,00000082,false,Rx,0,8,68,10,00,50,00,00,20,7B,
53502917,00000100,false,Rx,0,8,00,00,00,00,00,00,20,D8,
53503005,00000112,false,Rx,0,8,00,00,33,00,00,00,00,00,
53506397,00000201,false,Rx,0,8,34,34,40,3D,38,00,00,00,
53507950,00000202,false,Rx,0,8,34,34,40,3F,38,00,00,00,
53508911,00000204,false,Rx,0,8,34,34,40,35,38,00,00,00,
53511886,00000203,false,Rx,0,8,34,34,40,41,37,00,00,00,
53512089,00000105,false,Rx,0,8,00,00,00,00,00,00,30,F9,
53512376,00000101,false,Rx,0,8,00,00,00,00,00,00,20,BD,
53513929,00000102,false,Rx,0,8,00,00,00,00,00,00,20,12,
53514973,00000104,false,Rx,0,8,00,00,00,00,00,00,20,51,
53517950,00000103,false,Rx,0,8,00,00,00,00,00,00,20,77,
53531926,000001C5,false,Rx,0,8,22,22,92,22,22,22,42,22,
53539686,000001D0,false,Rx,0,8,22,99,29,22,22,22,99,99,
53550259,000001D1,false,Rx,0,8,22,99,29,22,22,22,99,99,
53551721,00000100,false,Rx,0,8,00,00,00,00,00,00,30,15,
53551932,000001D2,false,Rx,0,8,22,99,29,22,22,22,99,99,
53552468,00000083,false,Rx,0,8,68,10,00,50,00,00,30,D3,
53555224,000001D4,false,Rx,0,8,22,99,29,22,22,22,99,99,
53555313,00000113,false,Rx,0,8,00,00,33,00,00,00,00,00,
53555860,00000205,false,Rx,0,8,34,34,40,43,39,00,00,00,
53556729,000001D3,false,Rx,0,8,22,99,29,22,22,22,99,99,
53561894,00000105,false,Rx,0,8,00,00,00,00,00,00,40,A0,
53562428,00000101,false,Rx,0,8,00,00,00,00,00,00,30,70,
53563897,00000102,false,Rx,0,8,00,00,00,00,00,00,30,DF,
53564943,00000104,false,Rx,0,8,00,00,00,00,00,00,30,9C,
53568760,00000103,false,Rx,0,8,00,00,00,00,00,00,30,BA,
53571644,000001C0,false,Rx,0,8,22,22,92,22,22,22,42,22,
53582345,000001C1,false,Rx,0,8,22,22,92,22,22,22,42,22,
53583722,000001C2,false,Rx,0,8,22,22,92,22,22,22,42,22,
53584872,000001C4,false,Rx,0,8,22,22,92,22,22,22,42,22,
53588700,000001C3,false,Rx,0,8,22,22,92,22,22,22,42,22,
53595540,00000200,false,Rx,0,8,33,34,40,39,39,00,00,00,
53601541,00000100,false,Rx,0,8,00,00,00,00,00,00,40,4C,
53603508,00000084,false,Rx,0,8,68,10,00,50,00,00,40,AC,
53604978,00000114,false,Rx,0,8,00,00,33,00,00,00,00,00,
53607557,00000201,false,Rx,0,8,34,34,40,3D,38,00,00,00,
53607770,00000202,false,Rx,0,8,34,34,40,3F,38,00,00,00,
53609820,00000204,false,Rx,0,8,34,34,40,35,38,00,00,00,
53611872,00000105,false,Rx,0,8,00,00,00,00,00,00,50,6D,
53612324,00000101,false,Rx,0,8,00,00,00,00,00,00,40,29,
53612610,00000203,false,Rx,0,8,34,34,40,42,37,00,00,00,
53613653,00000102,false,Rx,0,8,00,00,00,00,00,00,40,86,
53615879,00000104,false,Rx,0,8,00,00,00,00,00,00,40,C5,
53618603,00000103,false,Rx,0,8,00,00,00,00,00,00,40,E3,
53651530,00000100,false,Rx,0,8,00,00,00,00,00,00,50,81,
53654593,00000085,false,Rx,0,8,68,10,00,50,00,00,50,04,
53655977,00000115,false,Rx,0,8,00,00,33,00,00,00,00,00,
53656854,00000205,false,Rx,0,8,34,34,40,43,39,00,00,00,
53662235,00000101,false,Rx,0,8,00,00,00,00,00,00,50,E4,
53662946,00000105,false,Rx,0,8,00,00,00,00,00,00,60,27,
53663567,00000102,false,Rx,0,8,00,00,00,00,00,00,50,4B,
53665887,00000104,false,Rx,0,8,00,00,00,00,00,00,50,08,
53668522,00000103,false,Rx,0,8,00,00,00,00,00,00,50,2E,
53695375,00000200,false,Rx,0,8,33,34,40,3A,39,00,00,00,
53700959,000001D5,false,Rx,0,8,22,99,29,22,22,22,99,99,
53701328,00000100,false,Rx,0,8,00,00,00,00,00,00,60,CB,
53705560,00000086,false,Rx,0,8,68,10,00,50,00,00,60,E1,
53706353,00000201,false,Rx,0,8,34,34,40,3D,38,00,00,00,
53707649,00000202,false,Rx,0,8,34,34,40,3E,38,00,00,00,
53709957,00000204,false,Rx,0,8,34,34,40,36,38,00,00,00,
53712259,00000101,false,Rx,0,8,00,00,00,00,00,00,60,AE,
53712547,00000203,false,Rx,0,8,34,34,40,42,37,00,00,00,
53712924,00000105,false,Rx,0,8,00,00,00,00,00,00,70,EA,
53713628,00000102,false,Rx,0,8,00,00,00,00,00,00,60,01,
53715940,00000104,false,Rx,0,8,00,00,00,00,00,00,60,42,
53718575,00000103,false,Rx,0,8,00,00,00,00,00,00,60,64,
53732975,000001C5,false,Rx,0,8,22,22,92,22,22,22,42,22,
53739224,000001D0,false,Rx,0,8,22,99,29,22,22,22,99,99,
53750345,000001D1,false,Rx,0,8,22,99,29,22,22,22,99,99,
53751499,00000100,false,Rx,0,8,00,00,00,00,00,00,70,06,
53751704,000001D2,false,Rx,0,8,22,99,29,22,22,22,99,99,
53753942,000001D4,false,Rx,0,8,22,99,29,22,22,22,99,99,
53756579,00000087,false,Rx,0,8,68,10,00,50,00,00,70,49,
53756790,000001D3,false,Rx,0,8,22,99,29,22,22,22,99,99,
53756992,00000205,false,Rx,0,8,34,34,40,43,39,00,00,00,
53762392,00000101,false,Rx,0,8,00,00,00,00,00,00,70,63,
53763021,00000105,false,Rx,0,8,00,00,00,00,00,00,80,95,
53763474,00000102,false,Rx,0,8,00,00,00,00,00,00,70,CC,
53766036,00000104,false,Rx,0,8,00,00,00,00,00,00,70,8F,
53768763,00000103,false,Rx,0,8,00,00,00,00,00,00,70,A9,
53771312,000001C0,false,Rx,0,8,22,22,92,22,22,22,42,22,
53782184,000001C1,false,Rx,0,8,22,22,92,22,22,22,42,22,
53783477,000001C2,false,Rx,0,8,22,22,92,22,22,22,42,22,
53785969,000001C4,false,Rx,0,8,22,22,92,22,22,22,42,22,
53788709,000001C3,false,Rx,0,8,22,22,92,22,22,22,42,22,
53795133,00000200,false,Rx,0,8,33,34,40,3A,39,00,00,00,
53801133,00000100,false,Rx,0,8,00,00,00,00,00,00,80,79,
53806209,00000201,false,Rx,0,8,34,34,40,3D,38,00,00,00,
53807502,00000080,false,Rx,0,8,68,10,00,50,00,00,80,10,
53807797,00000202,false,Rx,0,8,34,34,40,3F,38,00,00,00,
53808250,00000110,false,Rx,0,8,00,00,33,00,00,00,00,00,
53809885,00000204,false,Rx,0,8,34,34,40,36,38,00,00,00,
53814029,00000101,false,Rx,0,8,00,00,00,00,00,00,80,1C,
53814118,00000203,false,Rx,0,8,34,34,40,41,37,00,00,00,
53814205,00000105,false,Rx,0,8,00,00,00,00,00,00,90,58,
53814292,00000102,false,Rx,0,8,00,00,00,00,00,00,80,B3,
53816012,00000104,false,Rx,0,8,00,00,00,00,00,00,80,F0,
53818651,00000103,false,Rx,0,8,00,00,00,00,00,00,80,D6,
53852027,00000100,false,Rx,0,8,00,00,00,00,00,00,90,B4,
53857059,00000205,false,Rx,0,8,34,34,40,43,39,00,00,00,
53858520,00000081,false,Rx,0,8,68,10,00,50,00,00,90,B8,
53859314,00000111,false,Rx,0,8,00,00,33,00,00,00,00,00,
53862967,00000105,false,Rx,0,8,00,00,00,00,00,00,A0,12,
53863253,00000101,false,Rx,0,8,00,00,00,00,00,00,90,D1,
53863635,00000102,false,Rx,0,8,00,00,00,00,00,00,90,7E,
53865930,00000104,false,Rx,0,8,00,00,00,00,00,00,90,3D,
53868480,00000103,false,Rx,0,8,00,00,00,00,00,00,90,1B,
53896017,00000200,false,Rx,0,8,33,34,40,3A,39,00,00,00,
53901010,000001D5,false,Rx,0,8,22,99,29,22,22,22,99,99,
53902068,00000100,false,Rx,0,8,00,00,00,00,00,00,A0,FE,
53907390,00000201,false,Rx,0,8,34,34,40,3D,38,00,00,00,
53907770,00000202,false,Rx,0,8,34,34,40,3F,38,00,00,00,
53909564,00000082,false,Rx,0,8,68,10,00,50,00,00,A0,5D,
53909767,00000204,false,Rx,0,8,34,34,40,35,38,00,00,00,
53910895,00000112,false,Rx,0,8,00,00,33,00,00,00,00,00,
53912522,00000203,false,Rx,0,8,34,34,40,42,37,00,00,00,
53913151,00000105,false,Rx,0,8,00,00,00,00,00,00,B0,DF,
53913354,00000101,false,Rx,0,8,00,00,00,00,00,00,A0,9B,
53914822,00000102,false,Rx,0,8,00,00,00,00,00,00,A0,34,
53916932,00000104,false,Rx,0,8,00,00,00,00,00,00,A0,77,
53918562,00000103,false,Rx,0,8,00,00,00,00,00,00,A0,51,
53933132,000001C5,false,Rx,0,8,22,22,92,22,22,22,42,22,
53939973,000001D0,false,Rx,0,8,22,99,29,22,22,22,99,99,
53951259,000001D1,false,Rx,0,8,22,99,29,22,22,22,99,99,
53951971,00000100,false,Rx,0,8,00,00,00,00,00,00,B0,33,
53952765,000001D2,false,Rx,0,8,22,99,29,22,22,22,99,99,
53953808,000001D4,false,Rx,0,8,22,99,29,22,22,22,99,99,
53956637,000001D3,false,Rx,0,8,22,99,29,22,22,22,99,99,
53957097,00000205,false,Rx,0,8,34,34,40,43,39,00,00,00,
53960528,00000083,false,Rx,0,8,68,10,00,50,00,00,B0,F5,
53961831,00000113,false,Rx,0,8,00,00,33,00,00,00,00,00,
53963124,00000105,false,Rx,0,8,00,00,00,00,00,00,C0,86,
53963327,00000101,false,Rx,0,8,00,00,00,00,00,00,B0,56,
53964796,00000102,false,Rx,0,8,00,00,00,00,00,00,B0,F9,
53965844,00000104,false,Rx,0,8,00,00,00,00,00,00,B0,BA,
53966714,00000351,false,Rx,0,8,EB,01,2C,01,2C,01,80,01,
53966924,00000355,false,Rx,0,8,00,00,64,00,00,00,00,00,
53969335,00000356,false,Rx,0,8,00,00,00,00,00,00,00,00,
53969424,0000035A,false,Rx,0,8,00,00,00,00,00,00,00,00,
53969511,0000035E,false,Rx,0,8,53,49,4D,50,20,42,4D,53,
53969633,00000103,false,Rx,0,8,00,00,00,00,00,00,B0,9C,
53970934,00000370,false,Rx,0,8,54,4F,4D,20,44,45,20,42,
53971894,000001C0,false,Rx,0,8,22,22,92,22,22,22,42,22,
53975285,00000373,false,Rx,0,8,88,13,00,00,11,01,11,01,
53983216,000001C1,false,Rx,0,8,22,22,92,22,22,22,42,22,
53984680,000001C2,false,Rx,0,8,22,22,92,22,22,22,42,22,
53985912,000001C4,false,Rx,0,8,22,22,92,22,22,22,42,22,
53989599,000001C3,false,Rx,0,8,22,22,92,22,22,22,42,22,
53995776,00000200,false,Rx,0,8,33,34,40,3A,39,00,00,00,
54001862,00000100,false,Rx,0,8,00,00,00,00,00,00,C0,6A,
54007267,00000201,false,Rx,0,8,34,34,40,3D,38,00,00,00,
54008818,00000202,false,Rx,0,8,34,34,40,3E,38,00,00,00,
54010029,00000204,false,Rx,0,8,34,34,40,36,38,00,00,00,
54011573,00000084,false,Rx,0,8,68,10,00,50,00,00,C0,8A,
54012115,00000114,false,Rx,0,8,00,00,33,00,00,00,00,00,
54012992,00000105,false,Rx,0,8,00,00,00,00,00,00,D0,4B,
54013278,00000101,false,Rx,0,8,00,00,00,00,00,00,C0,0F,
54013649,00000203,false,Rx,0,8,34,34,40,42,37,00,00,00,
54014784,00000102,false,Rx,0,8,00,00,00,00,00,00,C0,A0,
54017003,00000104,false,Rx,0,8,00,00,00,00,00,00,C0,E3,
54022677,00000103,false,Rx,0,8,00,00,00,00,00,00,C0,C5,
54051602,00000100,false,Rx,0,8,00,00,00,00,00,00,D0,A7,
54057100,00000205,false,Rx,0,8,34,34,40,43,39,00,00,00,
54062553,00000085,false,Rx,0,8,68,10,00,50,00,00,D0,22,
54063180,00000115,false,Rx,0,8,00,00,33,00,00,00,00,00,
54063382,00000101,false,Rx,0,8,00,00,00,00,00,00,D0,C2,
54064108,00000105,false,Rx,0,8,00,00,00,00,00,00,E0,01,
54064819,00000102,false,Rx,0,8,00,00,00,00,00,00,D0,6D,
54066953,00000104,false,Rx,0,8,00,00,00,00,00,00,D0,2E,
54069502,00000103,false,Rx,0,8,00,00,00,00,00,00,D0,08,
54095561,00000200,false,Rx,0,8,33,34,40,3A,39,00,00,00,
54101642,00000100,false,Rx,0,8,00,00,00,00,00,00,E0,ED,
54102102,000001D5,false,Rx,0,8,22,99,29,22,22,22,99,99,
54107180,00000201,false,Rx,0,8,34,34,40,3D,38,00,00,00,
54108814,00000202,false,Rx,0,8,34,34,40,3F,38,00,00,00,
54111034,00000204,false,Rx,0,8,34,34,40,35,38,00,00,00,
54113252,00000101,false,Rx,0,8,00,00,00,00,00,00,E0,88,
54113539,00000086,false,Rx,0,8,68,10,00,50,00,00,E0,C7,
54113750,00000203,false,Rx,0,8,34,34,40,42,37,00,00,00,
54114036,00000105,false,Rx,0,8,00,00,00,00,00,00,00,B3,
54114829,00000102,false,Rx,0,8,00,00,00,00,00,00,E0,27,
54117129,00000104,false,Rx,0,8,00,00,00,00,00,00,E0,64,
54119602,00000103,false,Rx,0,8,00,00,00,00,00,00,E0,42,
54133987,000001C5,false,Rx,0,8,22,22,92,22,22,22,42,22,
54139474,000001D0,false,Rx,0,8,22,99,29,22,22,22,99,99,
54151187,000001D1,false,Rx,0,8,22,99,29,22,22,22,99,99,
54151559,00000100,false,Rx,0,8,00,00,00,00,00,00,00,5F,
54152862,000001D2,false,Rx,0,8,22,99,29,22,22,22,99,99,
54154913,000001D4,false,Rx,0,8,22,99,29,22,22,22,99,99,
54157547,000001D3,false,Rx,0,8,22,99,29,22,22,22,99,99,
54158033,00000205,false,Rx,0,8,34,34,40,43,39,00,00,00,
54163225,00000101,false,Rx,0,8,00,00,00,00,00,00,00,3A,
54164021,00000105,false,Rx,0,8,00,00,00,00,00,00,10,7E,
54164473,00000087,false,Rx,0,8,68,10,00,50,00,00,00,10,
54164852,00000102,false,Rx,0,8,00,00,00,00,00,00,00,95,
54166904,00000104,false,Rx,0,8,00,00,00,00,00,00,00,D6,
54169622,00000103,false,Rx,0,8,00,00,00,00,00,00,00,F0,
54171509,000001C0,false,Rx,0,8,22,22,92,22,22,22,42,22,
54182943,000001C1,false,Rx,0,8,22,22,92,22,22,22,42,22,
54184654,000001C2,false,Rx,0,8,22,22,92,22,22,22,42,22,
54186807,000001C4,false,Rx,0,8,22,22,92,22,22,22,42,22,
54189534,000001C3,false,Rx,0,8,22,22,92,22,22,22,42,22,
54195452,00000200,false,Rx,0,8,33,34,40,3A,39,00,00,00,
54201451,00000100,false,Rx,0,8,00,00,00,00,00,00,10,92,
54206869,00000201,false,Rx,0,8,34,34,40,3D,38,00,00,00,
54208577,00000202,false,Rx,0,8,34,34,40,3F,38,00,00,00,
54210886,00000204,false,Rx,0,8,34,34,40,36,39,00,00,00,
54212941,00000101,false,Rx,0,8,00,00,00,00,00,00,10,F7,
54213560,00000203,false,Rx,0,8,34,34,40,42,37,00,00,00,
54213938,00000105,false,Rx,0,8,00,00,00,00,00,00,20,34,
54214559,00000102,false,Rx,0,8,00,00,00,00,00,00,10,58,
54215517,00000080,false,Rx,0,8,68,10,00,50,00,00,10,FB,
54216478,00000110,false,Rx,0,8,00,00,33,00,00,00,00,00,
54216940,00000104,false,Rx,0,8,00,00,00,00,00,00,10,1B,
54219577,00000103,false,Rx,0,8,00,00,00,00,00,00,10,3D,
54252307,00000100,false,Rx,0,8,00,00,00,00,00,00,20,D8,
54257975,00000205,false,Rx,0,8,34,34,40,43,39,00,00,00,
54262911,00000101,false,Rx,0,8,00,00,00,00,00,00,20,BD,
54264051,00000105,false,Rx,0,8,00,00,00,00,00,00,30,F9,
54264432,00000102,false,Rx,0,8,00,00,00,00,00,00,20,12,
54266484,00000081,false,Rx,0,8,68,10,00,50,00,00,20,D4,
54266862,00000104,false,Rx,0,8,00,00,00,00,00,00,20,51,
54267990,00000111,false,Rx,0,8,00,00,33,00,00,00,00,00,
54269703,00000103,false,Rx,0,8,00,00,00,00,00,00,20,77,
54296319,00000200,false,Rx,0,8,33,34,40,3A,39,00,00,00,
54302149,000001D5,false,Rx,0,8,22,99,29,22,22,22,99,99,
54302352,00000100,false,Rx,0,8,00,00,00,00,00,00,30,15,
54307850,00000201,false,Rx,0,8,34,34,40,3D,38,00,00,00,
54308469,00000202,false,Rx,0,8,34,34,40,3F,38,00,00,00,
54310866,00000204,false,Rx,0,8,34,34,40,36,39,00,00,00,
54313669,00000203,false,Rx,0,8,34,34,40,41,37,00,00,00,
54313879,00000101,false,Rx,0,8,00,00,00,00,00,00,30,70,
54314165,00000105,false,Rx,0,8,00,00,00,00,00,00,40,A0,
54314452,00000102,false,Rx,0,8,00,00,00,00,00,00,30,DF,
54316847,00000104,false,Rx,0,8,00,00,00,00,00,00,30,9C,
54317553,00000082,false,Rx,0,8,68,10,00,50,00,00,30,B6,
54318513,00000112,false,Rx,0,8,00,00,33,00,00,00,00,00,
54319642,00000103,false,Rx,0,8,00,00,00,00,00,00,30,BA,
54334057,000001C5,false,Rx,0,8,22,22,92,22,22,22,42,22,
54340222,000001D0,false,Rx,0,8,22,99,29,22,22,22,99,99,
54351938,000001D1,false,Rx,0,8,22,99,29,22,22,22,99,99,
54352390,00000100,false,Rx,0,8,00,00,00,00,00,00,40,4C,
54353267,000001D2,false,Rx,0,8,22,99,29,22,22,22,99,99,
54354820,000001D4,false,Rx,0,8,22,99,29,22,22,22,99,99,
54357797,000001D3,false,Rx,0,8,22,99,29,22,22,22,99,99,
54358167,00000205,false,Rx,0,8,34,34,40,43,39,00,00,00,
54363913,00000101,false,Rx,0,8,00,00,00,00,00,00,40,29,
54364200,00000105,false,Rx,0,8,00,00,00,00,00,00,50,6D,
54365351,00000102,false,Rx,0,8,00,00,00,00,00,00,40,86,
54366841,00000104,false,Rx,0,8,00,00,00,00,00,00,40,C5,
54368553,00000083,false,Rx,0,8,68,10,00,50,00,00,40,8A,
54369771,00000113,false,Rx,0,8,00,00,33,00,00,00,00,00,
54370723,00000103,false,Rx,0,8,00,00,00,00,00,00,40,E3,
54372276,000001C0,false,Rx,0,8,22,22,92,22,22,22,42,22,
54383818,000001C1,false,Rx,0,8,22,22,92,22,22,22,42,22,
54385288,000001C2,false,Rx,0,8,22,22,92,22,22,22,42,22,
54386843,000001C4,false,Rx,0,8,22,22,92,22,22,22,42,22,
54390666,000001C3,false,Rx,0,8,22,22,92,22,22,22,42,22,
54396246,00000200,false,Rx,0,8,33,34,40,39,39,00,00,00,
54402241,00000100,false,Rx,0,8,00,00,00,00,00,00,50,81,
54407816,00000201,false,Rx,0,8,34,34,40,3D,38,00,00,00,
54409195,00000202,false,Rx,0,8,34,34,40,3F,38,00,00,00,
54410914,00000204,false,Rx,0,8,34,34,40,35,38,00,00,00,
54413797,00000101,false,Rx,0,8,00,00,00,00,00,00,50,E4,
54414188,00000105,false,Rx,0,8,00,00,00,00,00,00,60,27,
54414725,00000203,false,Rx,0,8,34,34,40,41,37,00,00,00,
54415185,00000102,false,Rx,0,8,00,00,00,00,00,00,50,4B,
54416905,00000104,false,Rx,0,8,00,00,00,00,00,00,50,08,
54419539,00000084,false,Rx,0,8,68,10,00,50,00,00,50,61,
54420669,00000103,false,Rx,0,8,00,00,00,00,00,00,50,2E,
54420962,00000114,false,Rx,0,8,00,00,33,00,00,00,00,00,
54452084,00000100,false,Rx,0,8,00,00,00,00,00,00,60,CB,
54458080,00000205,false,Rx,0,8,34,34,40,43,39,00,00,00,
54463755,00000101,false,Rx,0,8,00,00,00,00,00,00,60,AE,
54464041,00000105,false,Rx,0,8,00,00,00,00,00,00,70,EA,
54465084,00000102,false,Rx,0,8,00,00,00,00,00,00,60,01,
54467671,00000351,false,Rx,0,8,EB,01,2C,01,2C,01,80,01,
54467882,00000104,false,Rx,0,8,00,00,00,00,00,00,60,42,
54468168,00000355,false,Rx,0,8,00,00,64,00,00,00,00,00,
54468453,00000356,false,Rx,0,8,00,00,00,00,00,00,00,00,
54469939,0000035A,false,Rx,0,8,00,00,00,00,00,00,00,00,
54470142,0000035E,false,Rx,0,8,53,49,4D,50,20,42,4D,53,
54470680,00000103,false,Rx,0,8,00,00,00,00,00,00,60,64,
54471897,00000370,false,Rx,0,8,54,4F,4D,20,44,45,20,42,
54476299,00000373,false,Rx,0,8,88,13,00,00,11,01,11,01,
54494780,00000085,false,Rx,0,8,68,10,00,50,00,00,60,4E,
54495990,00000200,false,Rx,0,8,33,34,40,39,39,00,00,00,
54496276,00000115,false,Rx,0,8,00,00,33,00,00,00,00,00,
54502027,00000100,false,Rx,0,8,00,00,00,00,00,00,70,06,
54503070,000001D5,false,Rx,0,8,22,99,29,22,22,22,99,99,
54507640,00000201,false,Rx,0,8,34,34,40,3D,38,00,00,00,
54509026,00000202,false,Rx,0,8,34,34,40,3E,38,00,00,00,
54511754,00000204,false,Rx,0,8,34,34,40,35,39,00,00,00,
54513713,00000101,false,Rx,0,8,00,00,00,00,00,00,70,63,
54514766,00000203,false,Rx,0,8,34,34,40,41,37,00,00,00,
54515052,00000102,false,Rx,0,8,00,00,00,00,00,00,70,CC,
54515255,00000105,false,Rx,0,8,00,00,00,00,00,00,80,95,
54517723,00000104,false,Rx,0,8,00,00,00,00,00,00,70,8F,
54520792,00000103,false,Rx,0,8,00,00,00,00,00,00,70,A9,
54535016,000001C5,false,Rx,0,8,22,22,92,22,22,22,42,22,
54539883,000001D0,false,Rx,0,8,22,99,29,22,22,22,99,99,
54545541,00000086,false,Rx,0,8,68,10,00,50,00,00,70,2C,
54551708,000001D1,false,Rx,0,8,22,99,29,22,22,22,99,99,
54552003,00000100,false,Rx,0,8,00,00,00,00,00,00,80,79,
54552880,000001D2,false,Rx,0,8,22,99,29,22,22,22,99,99,
54555685,000001D4,false,Rx,0,8,22,99,29,22,22,22,99,99,
54558660,000001D3,false,Rx,0,8,22,99,29,22,22,22,99,99,
54559036,00000205,false,Rx,0,8,34,34,40,43,39,00,00,00,
54563863,00000101,false,Rx,0,8,00,00,00,00,00,00,80,1C,
54564907,00000102,false,Rx,0,8,00,00,00,00,00,00,80,B3,
54565192,00000105,false,Rx,0,8,00,00,00,00,00,00,90,58,
54567752,00000104,false,Rx,0,8,00,00,00,00,00,00,80,F0,
54570579,00000103,false,Rx,0,8,00,00,00,00,00,00,80,D6,
54571892,000001C0,false,Rx,0,8,22,22,92,22,22,22,42,22,
54583770,000001C1,false,Rx,0,8,22,22,92,22,22,22,42,22,
54584908,000001C2,false,Rx,0,8,22,22,92,22,22,22,42,22,
54587814,000001C4,false,Rx,0,8,22,22,92,22,22,22,42,22,
54590559,000001C3,false,Rx,0,8,22,22,92,22,22,22,42,22,
54595808,00000200,false,Rx,0,8,33,34,40,39,39,00,00,00,
54596510,00000087,false,Rx,0,8,68,10,00,50,00,00,80,36,
54601843,00000100,false,Rx,0,8,00,00,00,00,00,00,90,B4,
54607760,00000201,false,Rx,0,8,34,34,40,3D,38,00,00,00,
54608887,00000202,false,Rx,0,8,34,34,40,3F,38,00,00,00,
54611866,00000204,false,Rx,0,8,34,34,40,35,39,00,00,00,
54613751,00000101,false,Rx,0,8,00,00,00,00,00,00,90,D1,
54614536,00000203,false,Rx,0,8,34,34,40,41,37,00,00,00,
54614998,00000102,false,Rx,0,8,00,00,00,00,00,00,90,7E,
54615284,00000105,false,Rx,0,8,00,00,00,00,00,00,A0,12,
54617843,00000104,false,Rx,0,8,00,00,00,00,00,00,90,3D,
54620561,00000103,false,Rx,0,8,00,00,00,00,00,00,90,1B,
54647617,00000080,false,Rx,0,8,68,10,00,50,00,00,90,DD,
54648834,00000110,false,Rx,0,8,00,00,33,00,00,00,00,00,
54652810,00000100,false,Rx,0,8,00,00,00,00,00,00,A0,FE,
54659140,00000205,false,Rx,0,8,34,34,40,43,39,00,00,00,
54663718,00000101,false,Rx,0,8,00,00,00,00,00,00,A0,9B,
54664771,00000102,false,Rx,0,8,00,00,00,00,00,00,A0,34,
54665141,00000105,false,Rx,0,8,00,00,00,00,00,00,B0,DF,
54667953,00000104,false,Rx,0,8,00,00,00,00,00,00,A0,77,
54670442,00000103,false,Rx,0,8,00,00,00,00,00,00,A0,51,
54696700,00000200,false,Rx,0,8,33,34,40,3A,39,00,00,00,
54698499,00000081,false,Rx,0,8,68,10,00,50,00,00,A0,F2,
54699886,00000111,false,Rx,0,8,00,00,33,00,00,00,00,00,
54702775,00000100,false,Rx,0,8,00,00,00,00,00,00,B0,33,
54703144,000001D5,false,Rx,0,8,22,99,29,22,22,22,99,99,
54708720,00000202,false,Rx,0,8,34,34,40,3E,38,00,00,00,
54708931,00000201,false,Rx,0,8,34,34,40,3D,38,00,00,00,
54711906,00000204,false,Rx,0,8,34,34,40,36,38,00,00,00,
54714457,00000203,false,Rx,0,8,34,34,40,42,37,00,00,00,
54714751,00000101,false,Rx,0,8,00,00,00,00,00,00,B0,56,
54715037,00000102,false,Rx,0,8,00,00,00,00,00,00,B0,F9,
54715240,00000105,false,Rx,0,8,00,00,00,00,00,00,C0,86,
54717882,00000104,false,Rx,0,8,00,00,00,00,00,00,B0,BA,
54720433,00000103,false,Rx,0,8,00,00,00,00,00,00,B0,9C,
54735085,000001C5,false,Rx,0,8,22,22,92,22,22,22,42,22,
54740823,000001D0,false,Rx,0,8,22,99,29,22,22,22,99,99,
54749578,00000082,false,Rx,0,8,68,10,00,50,00,00,B0,90,
54750797,00000112,false,Rx,0,8,00,00,33,00,00,00,00,00,
54752676,000001D1,false,Rx,0,8,22,99,29,22,22,22,99,99,
54752886,00000100,false,Rx,0,8,00,00,00,00,00,00,C0,6A,
54753594,000001D2,false,Rx,0,8,22,99,29,22,22,22,99,99,
54755730,000001D4,false,Rx,0,8,22,99,29,22,22,22,99,99,
54758537,000001D3,false,Rx,0,8,22,99,29,22,22,22,99,99,
54759165,00000205,false,Rx,0,8,34,34,40,43,39,00,00,00,
54764738,00000101,false,Rx,0,8,00,00,00,00,00,00,C0,0F,
54765197,00000105,false,Rx,0,8,00,00,00,00,00,00,D0,4B,
54765652,00000102,false,Rx,0,8,00,00,00,00,00,00,C0,A0,
54767792,00000104,false,Rx,0,8,00,00,00,00,00,00,C0,E3,
54770508,00000103,false,Rx,0,8,00,00,00,00,00,00,C0,C5,
54772644,000001C0,false,Rx,0,8,22,22,92,22,22,22,42,22,
54784736,000001C1,false,Rx,0,8,22,22,92,22,22,22,42,22,
54785620,000001C2,false,Rx,0,8,22,22,92,22,22,22,42,22,
54787685,000001C4,false,Rx,0,8,22,22,92,22,22,22,42,22,
54790494,000001C3,false,Rx,0,8,22,22,92,22,22,22,42,22,
54796683,00000200,false,Rx,0,8,33,34,40,3A,39,00,00,00,
54800499,00000083,false,Rx,0,8,68,10,00,50,00,00,C0,AC,
54801628,00000113,false,Rx,0,8,00,00,33,00,00,00,00,00,
54802503,00000100,false,Rx,0,8,00,00,00,00,00,00,D0,A7,
54808669,00000201,false,Rx,0,8,34,34,40,3D,38,00,00,00,
54809629,00000202,false,Rx,0,8,34,34,40,3F,38,00,00,00,
54811774,00000204,false,Rx,0,8,34,34,40,36,39,00,00,00,
54814658,00000101,false,Rx,0,8,00,00,00,00,00,00,D0,C2,
54815118,00000105,false,Rx,0,8,00,00,00,00,00,00,E0,01,
54815573,00000203,false,Rx,0,8,34,34,40,42,37,00,00,00,
54815781,00000102,false,Rx,0,8,00,00,00,00,00,00,D0,6D,
54817749,00000104,false,Rx,0,8,00,00,00,00,00,00,D0,2E,
54821640,00000103,false,Rx,0,8,00,00,00,00,00,00,D0,08,
54851551,00000084,false,Rx,0,8,68,10,00,50,00,00,D0,47,
54852427,00000100,false,Rx,0,8,00,00,00,00,00,00,E0,ED,
54852889,00000114,false,Rx,0,8,00,00,33,00,00,00,00,00,
54859136,00000205,false,Rx,0,8,34,34,40,43,39,00,00,00,
54864642,00000101,false,Rx,0,8,00,00,00,00,00,00,E0,88,
54865103,00000105,false,Rx,0,8,00,00,00,00,00,00,00,B3,
54865640,00000102,false,Rx,0,8,00,00,00,00,00,00,E0,27,
54868790,00000104,false,Rx,0,8,00,00,00,00,00,00,E0,64,
54871597,00000103,false,Rx,0,8,00,00,00,00,00,00,E0,42,
54896310,00000200,false,Rx,0,8,33,34,40,3A,39,00,00,00,
54902285,00000100,false,Rx,0,8,00,00,00,00,00,00,00,5F,
54902576,00000085,false,Rx,0,8,68,10,00,50,00,00,E0,68,
54903285,00000115,false,Rx,0,8,00,00,33,00,00,00,00,00,
54904163,000001D5,false,Rx,0,8,22,99,29,22,22,22,99,99,
54908561,00000201,false,Rx,0,8,34,34,40,3D,38,00,00,00,
54909520,00000202,false,Rx,0,8,34,34,40,3F,38,00,00,00,
54912754,00000204,false,Rx,0,8,34,34,40,35,38,00,00,00,
54914630,00000101,false,Rx,0,8,00,00,00,00,00,00,00,3A,
54915506,00000102,false,Rx,0,8,00,00,00,00,00,00,00,95,
54915710,00000203,false,Rx,0,8,34,34,40,41,37,00,00,00,
54916170,00000105,false,Rx,0,8,00,00,00,00,00,00,10,7E,
54918813,00000104,false,Rx,0,8,00,00,00,00,00,00,00,D6,
54921783,00000103,false,Rx,0,8,00,00,00,00,00,00,00,F0,
54936034,000001C5,false,Rx,0,8,22,22,92,22,22,22,42,22,
54940187,000001D0,false,Rx,0,8,22,99,29,22,22,22,99,99,
54952287,00000100,false,Rx,0,8,00,00,00,00,00,00,10,92,
54952576,000001D1,false,Rx,0,8,22,99,29,22,22,22,99,99,
54953451,000001D2,false,Rx,0,8,22,99,29,22,22,22,99,99,
54953656,00000086,false,Rx,0,8,68,10,00,50,00,00,00,75,
54956804,000001D4,false,Rx,0,8,22,99,29,22,22,22,99,99,
54959774,000001D3,false,Rx,0,8,22,99,29,22,22,22,99,99,
54960060,00000205,false,Rx,0,8,34,34,40,43,39,00,00,00,
54964626,00000101,false,Rx,0,8,00,00,00,00,00,00,10,F7,
54965502,00000102,false,Rx,0,8,00,00,00,00,00,00,10,58,
54966130,00000105,false,Rx,0,8,00,00,00,00,00,00,20,34,
54968685,00000351,false,Rx,0,8,EB,01,2C,01,2C,01,80,01,
54968979,00000104,false,Rx,0,8,00,00,00,00,00,00,10,1B,
54969182,00000355,false,Rx,0,8,00,00,64,00,00,00,00,00,
54969469,00000356,false,Rx,0,8,00,00,00,00,00,00,00,00,
54970940,0000035A,false,Rx,0,8,00,00,00,00,00,00,00,00,
54971143,0000035E,false,Rx,0,8,53,49,4D,50,20,42,4D,53,
54971771,00000103,false,Rx,0,8,00,00,00,00,00,00,10,3D,
54972224,000001C0,false,Rx,0,8,22,22,92,22,22,22,42,22,
54972936,00000370,false,Rx,0,8,54,4F,4D,20,44,45,20,42,
54977334,00000373,false,Rx,0,8,88,13,00,00,11,01,11,01,
54984811,000001C1,false,Rx,0,8,22,22,92,22,22,22,42,22,
54985430,000001C2,false,Rx,0,8,22,22,92,22,22,22,42,22,
54988787,000001C4,false,Rx,0,8,22,22,92,22,22,22,42,22,
54991669,000001C3,false,Rx,0,8,22,22,92,22,22,22,42,22,
54996158,00000200,false,Rx,0,8,33,34,40,3A,39,00,00,00,
55004331,00000100,false,Rx,0,8,00,00,00,00,00,00,20,D8,
55004535,00000087,false,Rx,0,8,68,10,00,50,00,00,10,DD,
55008689,00000201,false,Rx,0,8,34,34,40,3D,38,00,00,00,
55009481,00000202,false,Rx,0,8,34,34,40,3F,38,00,00,00,
55012884,00000204,false,Rx,0,8,34,34,40,35,38,00,00,00,
55014597,00000101,false,Rx,0,8,00,00,00,00,00,00,20,BD,
55015473,00000102,false,Rx,0,8,00,00,00,00,00,00,20,12,
55015677,00000203,false,Rx,0,8,34,34,40,42,37,00,00,00,
55016137,00000105,false,Rx,0,8,00,00,00,00,00,00,30,F9,
55018949,00000104,false,Rx,0,8,00,00,00,00,00,00,20,51,
55021760,00000103,false,Rx,0,8,00,00,00,00,00,00,20,77,
55052192,00000100,false,Rx,0,8,00,00,00,00,00,00,30,15,
55055535,00000080,false,Rx,0,8,68,10,00,50,00,00,20,B1,
55056247,00000110,false,Rx,0,8,00,00,33,00,00,00,00,00,
55060230,00000205,false,Rx,0,8,34,34,40,43,39,00,00,00,
55064645,00000101,false,Rx,0,8,00,00,00,00,00,00,30,70,
55065355,00000102,false,Rx,0,8,00,00,00,00,00,00,30,DF,
55066234,00000105,false,Rx,0,8,00,00,00,00,00,00,40,A0,
55068959,00000104,false,Rx,0,8,00,00,00,00,00,00,30,9C,
55071857,00000103,false,Rx,0,8,00,00,00,00,00,00,30,BA,
55097237,00000200,false,Rx,0,8,33,34,40,3A,39,00,00,00,
55103318,00000100,false,Rx,0,8,00,00,00,00,00,00,40,4C,
55104195,000001D5,false,Rx,0,8,22,99,29,22,22,22,99,99,
55106580,00000081,false,Rx,0,8,68,10,00,50,00,00,30,19,
55107707,00000111,false,Rx,0,8,00,00,33,00,00,00,00,00,
55109259,00000202,false,Rx,0,8,34,34,40,3F,38,00,00,00,
55109629,00000201,false,Rx,0,8,34,34,40,3D,38,00,00,00,
55112949,00000204,false,Rx,0,8,34,34,40,35,39,00,00,00,
55115333,00000102,false,Rx,0,8,00,00,00,00,00,00,40,86,
55115628,00000101,false,Rx,0,8,00,00,00,00,00,00,40,29,
55115839,00000203,false,Rx,0,8,34,34,40,42,37,00,00,00,
55116291,00000105,false,Rx,0,8,00,00,00,00,00,00,50,6D,
55118938,00000104,false,Rx,0,8,00,00,00,00,00,00,40,C5,
55121739,00000103,false,Rx,0,8,00,00,00,00,00,00,40,E3,
55136305,000001C5,false,Rx,0,8,22,22,92,22,22,22,42,22,
55141211,000001D0,false,Rx,0,8,22,99,29,22,22,22,99,99,
55153093,00000100,false,Rx,0,8,00,00,00,00,00,00,50,81,
55153296,000001D2,false,Rx,0,8,22,99,29,22,22,22,99,99,
55153584,000001D1,false,Rx,0,8,22,99,29,22,22,22,99,99,
55158481,000001D4,false,Rx,0,8,22,99,29,22,22,22,99,99,
55158573,00000082,false,Rx,0,8,68,10,00,50,00,00,40,EF,
55158660,00000112,false,Rx,0,8,00,00,33,00,00,00,00,00,
55159795,000001D3,false,Rx,0,8,22,99,29,22,22,22,99,99,
55160414,00000205,false,Rx,0,8,34,34,40,43,39,00,00,00,
55165655,00000101,false,Rx,0,8,00,00,00,00,00,00,50,E4,
55166365,00000102,false,Rx,0,8,00,00,00,00,00,00,50,4B,
55166569,00000105,false,Rx,0,8,00,00,00,00,00,00,60,27,
55168878,00000104,false,Rx,0,8,00,00,00,00,00,00,50,08,
55171855,00000103,false,Rx,0,8,00,00,00,00,00,00,50,2E,
55172982,000001C0,false,Rx,0,8,22,22,92,22,22,22,42,22,
55185502,000001C1,false,Rx,0,8,22,22,92,22,22,22,42,22,
55186306,000001C2,false,Rx,0,8,22,22,92,22,22,22,42,22,
55188884,000001C4,false,Rx,0,8,22,22,92,22,22,22,42,22,
55191780,000001C3,false,Rx,0,8,22,22,92,22,22,22,42,22,
55196854,00000200,false,Rx,0,8,33,34,40,3A,39,00,00,00,
55202934,00000100,false,Rx,0,8,00,00,00,00,00,00,60,CB,
55208509,00000083,false,Rx,0,8,68,10,00,50,00,00,50,47,
55210920,00000201,false,Rx,0,8,34,34,40,3D,38,00,00,00,
55211009,00000113,false,Rx,0,8,00,00,33,00,00,00,00,00,
55211096,00000202,false,Rx,0,8,34,34,40,3F,38,00,00,00,
55212981,00000204,false,Rx,0,8,34,34,40,36,39,00,00,00,
55215450,00000101,false,Rx,0,8,00,00,00,00,00,00,60,AE,
55216245,00000102,false,Rx,0,8,00,00,00,00,00,00,60,01,
55216531,00000105,false,Rx,0,8,00,00,00,00,00,00,70,EA,
55216736,00000203,false,Rx,0,8,34,34,40,41,37,00,00,00,
55218961,00000104,false,Rx,0,8,00,00,00,00,00,00,60,42,
55222691,00000103,false,Rx,0,8,00,00,00,00,00,00,60,64,
55252907,00000100,false,Rx,0,8,00,00,00,00,00,00,70,06,
55259516,00000084,false,Rx,0,8,68,10,00,50,00,00,60,2B,
55259977,00000114,false,Rx,0,8,00,00,33,00,00,00,00,00,
55260430,00000205,false,Rx,0,8,34,34,40,43,39,00,00,00,
55265370,00000101,false,Rx,0,8,00,00,00,00,00,00,70,63,
55266247,00000102,false,Rx,0,8,00,00,00,00,00,00,70,CC,
55266533,00000105,false,Rx,0,8,00,00,00,00,00,00,80,95,
55269939,00000104,false,Rx,0,8,00,00,00,00,00,00,70,8F,
55272488,00000103,false,Rx,0,8,00,00,00,00,00,00,70,A9,
55296784,00000200,false,Rx,0,8,33,34,40,3A,39,00,00,00,
55302867,00000100,false,Rx,0,8,00,00,00,00,00,00,80,79,
55304243,000001D5,false,Rx,0,8,22,99,29,22,22,22,99,99,
55309231,00000201,false,Rx,0,8,34,34,40,3D,38,00,00,00,
55310195,00000202,false,Rx,0,8,34,34,40,3F,38,00,00,00,
55310567,00000085,false,Rx,0,8,68,10,00,50,00,00,70,83,
55311360,00000115,false,Rx,0,8,00,00,33,00,00,00,00,00,
55313869,00000204,false,Rx,0,8,34,34,40,36,38,00,00,00,
55315246,00000101,false,Rx,0,8,00,00,00,00,00,00,80,1C,
55316206,00000102,false,Rx,0,8,00,00,00,00,00,00,80,B3,
55316409,00000203,false,Rx,0,8,34,34,40,42,37,00,00,00,
55317287,00000105,false,Rx,0,8,00,00,00,00,00,00,90,58,
55319932,00000104,false,Rx,0,8,00,00,00,00,00,00,80,F0,
55322398,00000103,false,Rx,0,8,00,00,00,00,00,00,80,D6,
55337216,000001C5,false,Rx,0,8,22,22,92,22,22,22,42,22,
55340786,000001D0,false,Rx,0,8,22,99,29,22,22,22,99,99,
55352829,00000100,false,Rx,0,8,00,00,00,00,00,00,90,B4,
55353115,000001D1,false,Rx,0,8,22,99,29,22,22,22,99,99,
55354159,000001D2,false,Rx,0,8,22,99,29,22,22,22,99,99,
55357892,000001D4,false,Rx,0,8,22,99,29,22,22,22,99,99,
55360445,000001D3,false,Rx,0,8,22,99,29,22,22,22,99,99,
55361238,00000205,false,Rx,0,8,34,34,40,43,39,00,00,00,
55361609,00000086,false,Rx,0,8,68,10,00,50,00,00,80,53,
55365635,00000101,false,Rx,0,8,00,00,00,00,00,00,90,D1,
55366097,00000102,false,Rx,0,8,00,00,00,00,00,00,90,7E,
55367224,00000105,false,Rx,0,8,00,00,00,00,00,00,A0,12,
55370036,00000104,false,Rx,0,8,00,00,00,00,00,00,90,3D,
55372502,00000103,false,Rx,0,8,00,00,00,00,00,00,90,1B,
55372706,000001C0,false,Rx,0,8,22,22,92,22,22,22,42,22,
55385022,000001C1,false,Rx,0,8,22,22,92,22,22,22,42,22,
55386065,000001C2,false,Rx,0,8,22,22,92,22,22,22,42,22,
55390003,000001C4,false,Rx,0,8,22,22,92,22,22,22,42,22,
55392484,000001C3,false,Rx,0,8,22,22,92,22,22,22,42,22,
55396809,00000200,false,Rx,0,8,33,34,40,3A,39,00,00,00,
55402890,00000100,false,Rx,0,8,00,00,00,00,00,00,A0,FE,
55408973,00000201,false,Rx,0,8,34,34,40,3D,38,00,00,00,
55410184,00000202,false,Rx,0,8,34,34,40,3F,38,00,00,00,
55412569,00000087,false,Rx,0,8,68,10,00,50,00,00,90,FB,
55413952,00000204,false,Rx,0,8,34,34,40,35,39,00,00,00,
55414995,00000101,false,Rx,0,8,00,00,00,00,00,00,A0,9B,
55417798,00000102,false,Rx,0,8,00,00,00,00,00,00,A0,34,
55417887,00000203,false,Rx,0,8,34,34,40,42,37,00,00,00,
55417974,00000105,false,Rx,0,8,00,00,00,00,00,00,B0,DF,
55420029,00000104,false,Rx,0,8,00,00,00,00,00,00,A0,77,
55422580,00000103,false,Rx,0,8,00,00,00,00,00,00,A0,51,
55452799,00000100,false,Rx,0,8,00,00,00,00,00,00,B0,33,
55461312,00000205,false,Rx,0,8,34,34,40,43,39,00,00,00,
55463531,00000080,false,Rx,0,8,68,10,00,50,00,00,A0,97,
55464933,00000110,false,Rx,0,8,00,00,33,00,00,00,00,00,
55465219,00000101,false,Rx,0,8,00,00,00,00,00,00,B0,56,
55466265,00000102,false,Rx,0,8,00,00,00,00,00,00,B0,F9,
55467309,00000105,false,Rx,0,8,00,00,00,00,00,00,C0,86,
55469723,00000351,false,Rx,0,8,EB,01,2C,01,2C,01,80,01,
55470018,00000355,false,Rx,0,8,00,00,64,00,00,00,00,00,
55470221,00000104,false,Rx,0,8,00,00,00,00,00,00,B0,BA,
55470507,00000356,false,Rx,0,8,00,00,00,00,00,00,00,00,
55471977,0000035A,false,Rx,0,8,00,00,00,00,00,00,00,00,
55472180,0000035E,false,Rx,0,8,53,49,4D,50,20,42,4D,53,
55472550,00000103,false,Rx,0,8,00,00,00,00,00,00,B0,9C,
55473934,00000370,false,Rx,0,8,54,4F,4D,20,44,45,20,42,
55478333,00000373,false,Rx,0,8,88,13,00,00,11,01,11,01,
55497760,00000200,false,Rx,0,8,33,34,40,3A,39,00,00,00,
55503837,00000100,false,Rx,0,8,00,00,00,00,00,00,C0,6A,
55505212,000001D5,false,Rx,0,8,22,99,29,22,22,22,99,99,
55509369,00000201,false,Rx,0,8,34,34,40,3D,38,00,00,00,
55510080,00000202,false,Rx,0,8,34,34,40,3E,38,00,00,00,
55514063,00000204,false,Rx,0,8,34,34,40,36,39,00,00,00,
55514600,00000081,false,Rx,0,8,68,10,00,50,00,00,B0,3F,
55515475,00000111,false,Rx,0,8,00,00,33,00,00,00,00,00,
55516104,00000102,false,Rx,0,8,00,00,00,00,00,00,C0,A0,
55516389,00000101,false,Rx,0,8,00,00,00,00,00,00,C0,0F,
55516677,00000203,false,Rx,0,8,34,34,40,42,37,00,00,00,
55517302,00000105,false,Rx,0,8,00,00,00,00,00,00,D0,4B,
55521915,00000104,false,Rx,0,8,00,00,00,00,00,00,C0,E3,
55522794,00000103,false,Rx,0,8,00,00,00,00,00,00,C0,C5,
55537270,000001C5,false,Rx,0,8,22,22,92,22,22,22,42,22,
55541763,000001D0,false,Rx,0,8,22,99,29,22,22,22,99,99,
55553716,00000100,false,Rx,0,8,00,00,00,00,00,00,D0,A7,
55554177,000001D2,false,Rx,0,8,22,99,29,22,22,22,99,99,
55554380,000001D1,false,Rx,0,8,22,99,29,22,22,22,99,99,
55558033,000001D4,false,Rx,0,8,22,99,29,22,22,22,99,99,
55560590,000001D3,false,Rx,0,8,22,99,29,22,22,22,99,99,
55561301,00000205,false,Rx,0,8,34,34,40,43,39,00,00,00,
55565535,00000082,false,Rx,0,8,68,10,00,50,00,00,C0,C9,
55566246,00000112,false,Rx,0,8,00,00,33,00,00,00,00,00,
55566449,00000101,false,Rx,0,8,00,00,00,00,00,00,D0,C2,
55567078,00000102,false,Rx,0,8,00,00,00,00,00,00,D0,6D,
55567365,00000105,false,Rx,0,8,00,00,00,00,00,00,E0,01,
55570177,00000104,false,Rx,0,8,00,00,00,00,00,00,D0,2E,
55573870,00000103,false,Rx,0,8,00,00,00,00,00,00,D0,08,
55573958,000001C0,false,Rx,0,8,22,22,92,22,22,22,42,22,
55586179,000001C1,false,Rx,0,8,22,22,92,22,22,22,42,22,
55587057,000001C2,false,Rx,0,8,22,22,92,22,22,22,42,22,
55590135,000001C4,false,Rx,0,8,22,22,92,22,22,22,42,22,
55592608,000001C3,false,Rx,0,8,22,22,92,22,22,22,42,22,
55597642,00000200,false,Rx,0,8,33,34,40,3A,39,00,00,00,
55603641,00000100,false,Rx,0,8,00,00,00,00,00,00,E0,ED,
55610064,00000201,false,Rx,0,8,34,34,40,3D,38,00,00,00,
55611029,00000202,false,Rx,0,8,34,34,40,3F,38,00,00,00,
55614169,00000204,false,Rx,0,8,34,34,40,36,38,00,00,00,
55616137,00000101,false,Rx,0,8,00,00,00,00,00,00,E0,88,
55616590,00000083,false,Rx,0,8,68,10,00,50,00,00,D0,61,
55616801,00000203,false,Rx,0,8,34,34,40,42,37,00,00,00,
55617003,00000102,false,Rx,0,8,00,00,00,00,00,00,E0,27,
55617289,00000105,false,Rx,0,8,00,00,00,00,00,00,00,B3,
55617828,00000113,false,Rx,0,8,00,00,33,00,00,00,00,00,
55620295,00000104,false,Rx,0,8,00,00,00,00,00,00,E0,64,
55623611,00000103,false,Rx,0,8,00,00,00,00,00,00,E0,42,
55653471,00000100,false,Rx,0,8,00,00,00,00,00,00,00,5F,
55661237,00000205,false,Rx,0,8,34,34,40,43,39,00,00,00,
55666158,00000101,false,Rx,0,8,00,00,00,00,00,00,00,3A,
55666952,00000102,false,Rx,0,8,00,00,00,00,00,00,00,95,
55667238,00000105,false,Rx,0,8,00,00,00,00,00,00,10,7E,
55667610,00000084,false,Rx,0,8,68,10,00,50,00,00,E0,0D,
55668319,00000114,false,Rx,0,8,00,00,33,00,00,00,00,00,
55671135,00000104,false,Rx,0,8,00,00,00,00,00,00,00,D6,
55673688,00000103,false,Rx,0,8,00,00,00,00,00,00,00,F0,
55697340,00000200,false,Rx,0,8,33,34,40,3A,39,00,00,00,
55703349,00000100,false,Rx,0,8,00,00,00,00,00,00,10,92,
55705151,000001D5,false,Rx,0,8,22,99,29,22,22,22,99,99,
55710141,00000201,false,Rx,0,8,34,34,40,3D,38,00,00,00,
55710936,00000202,false,Rx,0,8,34,34,40,3E,38,00,00,00,
55715169,00000204,false,Rx,0,8,34,34,40,35,38,00,00,00,
55716129,00000101,false,Rx,0,8,00,00,00,00,00,00,10,F7,
55716843,00000102,false,Rx,0,8,00,00,00,00,00,00,10,58,
55717129,00000105,false,Rx,0,8,00,00,00,00,00,00,20,34,
55717584,00000203,false,Rx,0,8,34,34,40,42,37,00,00,00,
55718544,00000085,false,Rx,0,8,68,10,00,50,00,00,00,DA,
55719171,00000115,false,Rx,0,8,00,00,33,00,00,00,00,00,
55721223,00000104,false,Rx,0,8,00,00,00,00,00,00,10,1B,
55723611,00000103,false,Rx,0,8,00,00,00,00,00,00,10,3D,
55738117,000001C5,false,Rx,0,8,22,22,92,22,22,22,42,22,
55741342,000001D0,false,Rx,0,8,22,99,29,22,22,22,99,99,
55753388,00000100,false,Rx,0,8,00,00,00,00,00,00,20,D8,
55753933,000001D1,false,Rx,0,8,22,99,29,22,22,22,99,99,
55754637,000001D2,false,Rx,0,8,22,99,29,22,22,22,99,99,
55759215,000001D4,false,Rx,0,8,22,99,29,22,22,22,99,99,
55761602,000001D3,false,Rx,0,8,22,99,29,22,22,22,99,99,
55762062,00000205,false,Rx,0,8,34,34,40,43,39,00,00,00,
55765880,00000101,false,Rx,0,8,00,00,00,00,00,00,20,BD,
55766760,00000102,false,Rx,0,8,00,00,00,00,00,00,20,12,
55768136,00000105,false,Rx,0,8,00,00,00,00,00,00,30,F9,
55769598,00000086,false,Rx,0,8,68,10,00,50,00,00,10,B8,
55771231,00000104,false,Rx,0,8,00,00,00,00,00,00,20,51,
55773202,000001C0,false,Rx,0,8,22,22,92,22,22,22,42,22,
55773656,00000103,false,Rx,0,8,00,00,00,00,00,00,20,77,
55785843,000001C1,false,Rx,0,8,22,22,92,22,22,22,42,22,
55786804,000001C2,false,Rx,0,8,22,22,92,22,22,22,42,22,
55791133,000001C4,false,Rx,0,8,22,22,92,22,22,22,42,22,
55793605,000001C3,false,Rx,0,8,22,22,92,22,22,22,42,22,
55797168,00000200,false,Rx,0,8,33,34,40,39,39,00,00,00,
55803209,00000100,false,Rx,0,8,00,00,00,00,00,00,30,15,
55809798,00000201,false,Rx,0,8,34,34,40,3D,38,00,00,00,
55810669,00000202,false,Rx,0,8,34,34,40,3F,38,00,00,00,
55815158,00000204,false,Rx,0,8,34,34,40,35,39,00,00,00,
55815870,00000101,false,Rx,0,8,00,00,00,00,00,00,30,70,
55816656,00000102,false,Rx,0,8,00,00,00,00,00,00,30,DF,
55817789,00000203,false,Rx,0,8,34,34,40,42,37,00,00,00,
55818159,00000105,false,Rx,0,8,00,00,00,00,00,00,40,A0,
55820544,00000087,false,Rx,0,8,68,10,00,50,00,00,20,97,
55821172,00000104,false,Rx,0,8,00,00,00,00,00,00,30,9C,
55823724,00000103,false,Rx,0,8,00,00,00,00,00,00,30,BA,
55853147,00000100,false,Rx,0,8,00,00,00,00,00,00,40,4C,
55862085,00000205,false,Rx,0,8,34,34,40,43,39,00,00,00,
55865738,00000101,false,Rx,0,8,00,00,00,00,00,00,40,29,
55866697,00000102,false,Rx,0,8,00,00,00,00,00,00,40,86,
55868332,00000105,false,Rx,0,8,00,00,00,00,00,00,50,6D,
55871143,00000104,false,Rx,0,8,00,00,00,00,00,00,40,C5,
55871512,00000080,false,Rx,0,8,68,10,00,50,00,00,30,7C,
55872307,00000110,false,Rx,0,8,00,00,33,00,00,00,00,00,
55873687,00000103,false,Rx,0,8,00,00,00,00,00,00,40,E3,
55898212,00000200,false,Rx,0,8,33,34,40,3A,39,00,00,00,
55904175,00000100,false,Rx,0,8,00,00,00,00,00,00,50,81,
55906060,000001D5,false,Rx,0,8,22,99,29,22,22,22,99,99,
55909794,00000201,false,Rx,0,8,34,34,40,3D,38,00,00,00,
55910495,00000202,false,Rx,0,8,34,34,40,3F,38,00,00,00,
55914985,00000204,false,Rx,0,8,34,34,40,35,38,00,00,00,
55915862,00000101,false,Rx,0,8,00,00,00,00,00,00,50,E4,
55916480,00000102,false,Rx,0,8,00,00,00,00,00,00,50,4B,
55917786,00000203,false,Rx,0,8,34,34,40,42,37,00,00,00,
55918156,00000105,false,Rx,0,8,00,00,00,00,00,00,60,27,
55921131,00000104,false,Rx,0,8,00,00,00,00,00,00,50,08,
55922508,00000081,false,Rx,0,8,68,10,00,50,00,00,40,40,
55923811,00000103,false,Rx,0,8,00,00,00,00,00,00,50,2E,
55924014,00000111,false,Rx,0,8,00,00,33,00,00,00,00,00,
55938093,000001C5,false,Rx,0,8,22,22,92,22,22,22,42,22,
55942159,000001D0,false,Rx,0,8,22,99,29,22,22,22,99,99,
55954143,00000100,false,Rx,0,8,00,00,00,00,00,00,60,CB,
55954429,000001D2,false,Rx,0,8,22,99,29,22,22,22,99,99,
55954808,000001D1,false,Rx,0,8,22,99,29,22,22,22,99,99,
55959090,000001D4,false,Rx,0,8,22,99,29,22,22,22,99,99,
55961651,000001D3,false,Rx,0,8,22,99,29,22,22,22,99,99,
55962112,00000205,false,Rx,0,8,34,34,40,43,39,00,00,00,
55966426,00000102,false,Rx,0,8,00,00,00,00,00,00,60,01,
55966714,00000101,false,Rx,0,8,00,00,00,00,00,00,60,AE,
55968180,00000105,false,Rx,0,8,00,00,00,00,00,00,70,EA,
55970732,00000351,false,Rx,0,8,EB,01,2C,01,2C,01,80,01,
55970943,00000355,false,Rx,0,8,00,00,64,00,00,00,00,00,
55971229,00000104,false,Rx,0,8,00,00,00,00,00,00,60,42,
55971515,00000356,false,Rx,0,8,00,00,00,00,00,00,00,00,
55972984,0000035A,false,Rx,0,8,00,00,00,00,00,00,00,00,
55973187,0000035E,false,Rx,0,8,53,49,4D,50,20,42,4D,53,
55973724,00000103,false,Rx,0,8,00,00,00,00,00,00,60,64,
55974102,000001C0,false,Rx,0,8,22,22,92,22,22,22,42,22,
55974979,00000370,false,Rx,0,8,54,4F,4D,20,44,45,20,42,
55979379,00000373,false,Rx,0,8,88,13,00,00,11,01,11,01,
55987431,000001C2,false,Rx,0,8,22,22,92,22,22,22,42,22,
55987520,000001C1,false,Rx,0,8,22,22,92,22,22,22,42,22,
55991052,000001C4,false,Rx,0,8,22,22,92,22,22,22,42,22,
55993689,000001C3,false,Rx,0,8,22,22,92,22,22,22,42,22,
55997846,00000082,false,Rx,0,8,68,10,00,50,00,00,50,22,
55998049,00000200,false,Rx,0,8,33,34,40,39,39,00,00,00,
55998501,00000112,false,Rx,0,8,00,00,33,00,00,00,00,00,
56004029,00000100,false,Rx,0,8,00,00,00,00,00,00,70,06,
56010629,00000201,false,Rx,0,8,34,34,40,3D,38,00,00,00,
56011340,00000202,false,Rx,0,8,34,34,40,3F,38,00,00,00,
56015072,00000204,false,Rx,0,8,34,34,40,36,39,00,00,00,
56016617,00000101,false,Rx,0,8,00,00,00,00,00,00,70,63,
56017411,00000102,false,Rx,0,8,00,00,00,00,00,00,70,CC,
56017615,00000203,false,Rx,0,8,34,34,40,42,37,00,00,00,
56018076,00000105,false,Rx,0,8,00,00,00,00,00,00,80,95,
56021134,00000104,false,Rx,0,8,00,00,00,00,00,00,70,8F,
56023605,00000103,false,Rx,0,8,00,00,00,00,00,00,70,A9,
56048610,00000083,false,Rx,0,8,68,10,00,50,00,00,60,0D,
56049738,00000113,false,Rx,0,8,00,00,33,00,00,00,00,00,
56054060,00000100,false,Rx,0,8,00,00,00,00,00,00,80,79,
56062073,00000205,false,Rx,0,8,34,34,40,43,39,00,00,00,
56066569,00000101,false,Rx,0,8,00,00,00,00,00,00,80,1C,
56067360,00000102,false,Rx,0,8,00,00,00,00,00,00,80,B3,
56068155,00000105,false,Rx,0,8,00,00,00,00,00,00,90,58,
56070969,00000104,false,Rx,0,8,00,00,00,00,00,00,80,F0,
56074530,00000103,false,Rx,0,8,00,00,00,00,00,00,80,D6,
56098138,00000200,false,Rx,0,8,33,34,40,3A,39,00,00,00,
56099515,00000084,false,Rx,0,8,68,10,00,50,00,00,70,E6,
56100226,00000114,false,Rx,0,8,00,00,33,00,00,00,00,00,
56104126,00000100,false,Rx,0,8,00,00,00,00,00,00,90,B4,
56106204,000001D5,false,Rx,0,8,22,99,29,22,22,22,99,99,
56110531,00000201,false,Rx,0,8,34,34,40,3D,38,00,00,00,
56111243,00000202,false,Rx,0,8,34,34,40,3F,38,00,00,00,
56116067,00000204,false,Rx,0,8,34,34,40,35,39,00,00,00,
56116603,00000101,false,Rx,0,8,00,00,00,00,00,00,90,D1,
56117312,00000102,false,Rx,0,8,00,00,00,00,00,00,90,7E,
56118359,00000105,false,Rx,0,8,00,00,00,00,00,00,A0,12,
56118569,00000203,false,Rx,0,8,34,34,40,42,37,00,00,00,
56122052,00000104,false,Rx,0,8,00,00,00,00,00,00,90,3D,
56124522,00000103,false,Rx,0,8,00,00,00,00,00,00,90,1B,
56138253,000001C5,false,Rx,0,8,22,22,92,22,22,22,42,22,
56141943,000001D0,false,Rx,0,8,22,99,29,22,22,22,99,99,
56150542,00000085,false,Rx,0,8,68,10,00,50,00,00,80,FC,
56151336,00000115,false,Rx,0,8,00,00,33,00,00,00,00,00,
56154061,00000100,false,Rx,0,8,00,00,00,00,00,00,A0,FE,
56154512,000001D1,false,Rx,0,8,22,99,29,22,22,22,99,99,
56155224,000001D2,false,Rx,0,8,22,99,29,22,22,22,99,99,
56160051,000001D4,false,Rx,0,8,22,99,29,22,22,22,99,99,
56162520,000001D3,false,Rx,0,8,22,99,29,22,22,22,99,99,
56163315,00000205,false,Rx,0,8,34,34,40,43,39,00,00,00,
56166626,00000101,false,Rx,0,8,00,00,00,00,00,00,A0,9B,
56167170,00000102,false,Rx,0,8,00,00,00,00,00,00,A0,34,
56169304,00000105,false,Rx,0,8,00,00,00,00,00,00,B0,DF,
56172032,00000104,false,Rx,0,8,00,00,00,00,00,00,A0,77,
56173917,000001C0,false,Rx,0,8,22,22,92,22,22,22,42,22,
56174536,00000103,false,Rx,0,8,00,00,00,00,00,00,A0,51,
56186597,000001C1,false,Rx,0,8,22,22,92,22,22,22,42,22,
56187141,000001C2,false,Rx,0,8,22,22,92,22,22,22,42,22,
56194069,000001C4,false,Rx,0,8,22,22,92,22,22,22,42,22,
56194440,000001C3,false,Rx,0,8,22,22,92,22,22,22,42,22,
56198010,00000200,false,Rx,0,8,33,34,40,3A,39,00,00,00,
56201483,00000086,false,Rx,0,8,68,10,00,50,00,00,90,9E,
56203960,00000100,false,Rx,0,8,00,00,00,00,00,00,B0,33,
56210601,00000201,false,Rx,0,8,34,34,40,3D,38,00,00,00,
56211062,00000202,false,Rx,0,8,34,34,40,3F,38,00,00,00,
56216053,00000204,false,Rx,0,8,34,34,40,35,39,00,00,00,
56216675,00000101,false,Rx,0,8,00,00,00,00,00,00,B0,56,
56217052,00000102,false,Rx,0,8,00,00,00,00,00,00,B0,F9,
56218431,00000203,false,Rx,0,8,34,34,40,42,37,00,00,00,
56219391,00000105,false,Rx,0,8,00,00,00,00,00,00,C0,86,
56222036,00000104,false,Rx,0,8,00,00,00,00,00,00,B0,BA,
56224418,00000103,false,Rx,0,8,00,00,00,00,00,00,B0,9C,
56252525,00000087,false,Rx,0,8,68,10,00,50,00,00,A0,B1,
56253822,00000100,false,Rx,0,8,00,00,00,00,00,00,C0,6A,
56263511,00000205,false,Rx,0,8,34,34,40,43,39,00,00,00,
56266583,00000101,false,Rx,0,8,00,00,00,00,00,00,C0,0F,
56267043,00000102,false,Rx,0,8,00,00,00,00,00,00,C0,A0,
56269511,00000105,false,Rx,0,8,00,00,00,00,00,00,D0,4B,
56272071,00000104,false,Rx,0,8,00,00,00,00,00,00,C0,E3,
56274626,00000103,false,Rx,0,8,00,00,00,00,00,00,C0,C5,
56297689,00000200,false,Rx,0,8,33,34,40,3A,39,00,00,00,
56303607,00000080,false,Rx,0,8,68,10,00,50,00,00,B0,5A,
56303818,00000100,false,Rx,0,8,00,00,00,00,00,00,D0,A7,
56304780,00000110,false,Rx,0,8,00,00,33,00,00,00,00,00,
56307412,000001D5,false,Rx,0,8,22,99,29,22,22,22,99,99,
56310412,00000201,false,Rx,0,8,34,34,40,3D,38,00,00,00,
56310956,00000202,false,Rx,0,8,34,34,40,3F,38,00,00,00,
56316041,00000204,false,Rx,0,8,34,34,40,35,39,00,00,00,
56316493,00000101,false,Rx,0,8,00,00,00,00,00,00,D0,C2,
56316956,00000102,false,Rx,0,8,00,00,00,00,00,00,D0,6D,
56318760,00000203,false,Rx,0,8,34,34,40,42,37,00,00,00,
56319545,00000105,false,Rx,0,8,00,00,00,00,00,00,E0,01,
56322106,00000104,false,Rx,0,8,00,00,00,00,00,00,D0,2E,
56324748,00000103,false,Rx,0,8,00,00,00,00,00,00,D0,08,
56339557,000001C5,false,Rx,0,8,22,22,92,22,22,22,42,22,
56342700,000001D0,false,Rx,0,8,22,99,29,22,22,22,99,99,
56354403,000001D1,false,Rx,0,8,22,99,29,22,22,22,99,99,
56354692,00000081,false,Rx,0,8,68,10,00,50,00,00,C0,66,
56354903,00000100,false,Rx,0,8,00,00,00,00,00,00,E0,ED,
56355106,000001D2,false,Rx,0,8,22,99,29,22,22,22,99,99,
