Time Stamp,ID,Extended,Dir,Bus,LEN,D1,D2,D3,D4,D5,D6,D7,D8
18446744073450076985,00000080,false,Rx,0,8,C7,10,00,00,20,00,10,E8,
18446744073450077294,00000081,false,Rx,0,8,C7,10,00,00,20,00,10,8D,
18446744073450077580,00000082,false,Rx,0,8,C7,10,00,00,20,00,10,22,
18446744073450077787,00000083,false,Rx,0,8,C7,10,00,00,20,00,10,47,
18446744073450078083,00000084,false,Rx,0,8,C7,10,00,00,20,00,10,61,
18446744073450078287,00000085,false,Rx,0,8,C7,10,00,00,20,00,10,04,
18446744073450148329,00000105,false,Rx,0,8,00,00,00,10,00,00,00,96,
18446744073450176876,00000080,false,Rx,0,8,C7,10,00,00,60,00,20,C2,
18446744073450177268,00000081,false,Rx,0,8,C7,10,00,00,60,00,20,A7,
18446744073450177557,00000082,false,Rx,0,8,C7,10,00,00,60,00,20,08,
18446744073450177762,00000083,false,Rx,0,8,C7,10,00,00,60,00,20,6D,
18446744073450178057,00000084,false,Rx,0,8,C7,10,00,00,60,00,20,4B,
18446744073450178260,00000085,false,Rx,0,8,C7,10,00,00,60,00,20,2E,
18446744073450178464,00000110,false,Rx,0,8,10,00,33,00,00,00,00,00,
18446744073450178754,00000111,false,Rx,0,8,10,00,33,00,00,00,00,00,
18446744073450178959,00000112,false,Rx,0,8,10,00,33,00,00,00,00,00,
18446744073450179247,00000113,false,Rx,0,8,10,00,33,00,00,00,00,00,
18446744073450179450,00000114,false,Rx,0,8,10,00,33,00,00,00,00,00,
18446744073450179741,00000115,false,Rx,0,8,10,00,33,00,00,00,00,00,
18446744073450192595,00000104,false,Rx,0,8,00,00,00,10,00,00,00,F3,
18446744073450193392,00000205,false,Rx,0,8,34,34,40,42,38,00,00,00,
18446744073450195369,00000125,false,Rx,0,8,1B,0E,1B,0E,1A,0E,00,AA,
18446744073450196417,00000135,false,Rx,0,8,1A,0E,19,0E,1A,0E,00,3D,
18446744073450196620,00000101,false,Rx,0,8,00,00,00,10,00,00,00,1F,
18446744073450197167,00000103,false,Rx,0,8,00,00,00,10,00,00,00,D5,
18446744073450197370,00000102,false,Rx,0,8,00,00,00,10,00,00,00,B0,
18446744073450197657,00000145,false,Rx,0,8,19,0E,1A,0E,1A,0E,00,3E,
18446744073450198371,00000155,false,Rx,0,8,1B,0E,1A,0E,19,0E,00,16,
18446744073450199086,00000100,false,Rx,0,8,00,00,00,10,00,00,00,7A,
18446744073450199373,00000165,false,Rx,0,8,1A,0E,1A,0E,1A,0E,00,E5,
18446744073450200422,00000175,false,Rx,0,8,1A,0E,00,00,00,00,00,BB,
18446744073450201418,000001E5,false,Rx,0,8,D7,70,00,00,00,00,00,23,
18446744073450206426,00000105,false,Rx,0,8,00,00,00,10,00,00,10,5B,
18446744073450211605,00000124,false,Rx,0,8,19,0E,19,0E,18,0E,00,A2,
18446744073450212403,00000121,false,Rx,0,8,19,0E,17,0E,18,0E,00,58,
18446744073450212690,00000134,false,Rx,0,8,18,0E,18,0E,18,0E,00,8B,
18446744073450213488,00000131,false,Rx,0,8,18,0E,18,0E,17,0E,00,E1,
18446744073450213692,00000144,false,Rx,0,8,18,0E,19,0E,18,0E,00,BB,
18446744073450214072,00000120,false,Rx,0,8,19,0E,1A,0E,1A,0E,00,96,
18446744073450214359,00000141,false,Rx,0,8,17,0E,17,0E,17,0E,00,9B,
18446744073450214645,00000122,false,Rx,0,8,1B,0E,1B,0E,1B,0E,00,03,
18446744073450214853,00000154,false,Rx,0,8,18,0E,19,0E,19,0E,00,2A,
18446744073450215064,00000123,false,Rx,0,8,18,0E,19,0E,18,0E,00,D9,
18446744073450215351,00000130,false,Rx,0,8,1A,0E,19,0E,19,0E,00,5D,
18446744073450215554,00000132,false,Rx,0,8,1B,0E,1B,0E,1A,0E,00,92,
18446744073450215763,00000151,false,Rx,0,8,18,0E,18,0E,17,0E,00,A5,
18446744073450216058,00000140,false,Rx,0,8,19,0E,18,0E,19,0E,00,8A,
18446744073450216261,00000133,false,Rx,0,8,19,0E,19,0E,19,0E,00,15,
18446744073450216464,00000142,false,Rx,0,8,1A,0E,1B,0E,1B,0E,00,1A,
18446744073450216667,00000161,false,Rx,0,8,17,0E,17,0E,18,0E,00,21,
18446744073450216965,00000164,false,Rx,0,8,18,0E,18,0E,18,0E,00,ED,
18446744073450217169,00000143,false,Rx,0,8,19,0E,18,0E,18,0E,00,AA,
18446744073450217371,00000150,false,Rx,0,8,18,0E,19,0E,18,0E,00,2C,
18446744073450217659,00000152,false,Rx,0,8,1C,0E,1B,0E,1A,0E,00,58,
18446744073450217865,00000171,false,Rx,0,8,18,0E,00,00,00,00,00,88,
18446744073450218160,00000153,false,Rx,0,8,19,0E,18,0E,19,0E,00,3B,
18446744073450218364,00000160,false,Rx,0,8,19,0E,19,0E,1A,0E,00,50,
18446744073450218568,00000162,false,Rx,0,8,1A,0E,1B,0E,1B,0E,00,26,
18446744073450218857,00000174,false,Rx,0,8,18,0E,00,00,00,00,00,64,
18446744073450219068,00000170,false,Rx,0,8,19,0E,00,00,00,00,00,B0,
18446744073450219272,00000163,false,Rx,0,8,19,0E,19,0E,1A,0E,00,FF,
18446744073450219581,00000172,false,Rx,0,8,1C,0E,00,00,00,00,00,4E,
18446744073450219786,000001E1,false,Rx,0,8,C0,70,00,00,00,00,00,9D,
18446744073450219997,000001E4,false,Rx,0,8,D0,70,00,00,00,00,00,C8,
18446744073450220284,00000173,false,Rx,0,8,19,0E,00,00,00,00,00,1F,
18446744073450220487,000001E0,false,Rx,0,8,C9,70,00,00,00,00,00,77,
18446744073450220775,000001E2,false,Rx,0,8,DD,70,00,00,00,00,00,6D,
18446744073450221071,000001E3,false,Rx,0,8,DE,70,00,00,00,00,00,EF,
18446744073450243615,00000204,false,Rx,0,8,35,35,40,35,38,00,00,00,
18446744073450244411,000001D5,false,Rx,0,8,22,99,29,22,22,22,99,99,
18446744073450247481,00000201,false,Rx,0,8,36,35,40,3D,39,00,00,00,
18446744073450248112,00000203,false,Rx,0,8,35,35,40,41,36,00,00,00,
18446744073450248315,00000202,false,Rx,0,8,35,36,40,3F,39,00,00,00,
18446744073450249613,00000104,false,Rx,0,8,00,00,00,10,00,00,10,3E,
18446744073450250076,00000200,false,Rx,0,8,34,35,40,39,38,00,00,00,
18446744073450253441,00000101,false,Rx,0,8,00,00,00,10,00,00,10,D2,
18446744073450254071,00000103,false,Rx,0,8,00,00,00,10,00,00,10,18,
18446744073450254442,00000102,false,Rx,0,8,00,00,00,10,00,00,10,7D,
18446744073450255999,00000100,false,Rx,0,8,00,00,00,10,00,00,10,B7,
18446744073450256370,00000105,false,Rx,0,8,00,00,00,10,00,00,20,11,
18446744073450276393,000001C5,false,Rx,0,8,22,11,92,22,22,22,42,22,
18446744073450278622,00000080,false,Rx,0,8,C7,10,00,00,60,01,30,43,
18446744073450278828,00000081,false,Rx,0,8,C7,10,00,00,60,01,30,26,
18446744073450279123,00000082,false,Rx,0,8,C7,10,00,00,60,01,30,89,
18446744073450279327,00000083,false,Rx,0,8,C7,10,00,00,60,01,30,EC,
18446744073450279531,00000084,false,Rx,0,8,C7,10,00,00,60,01,30,CA,
18446744073450279819,00000085,false,Rx,0,8,C7,10,00,00,60,01,30,AF,
18446744073450280031,00000110,false,Rx,0,8,11,00,33,00,00,00,00,00,
18446744073450280319,00000111,false,Rx,0,8,11,00,33,00,00,00,00,00,
18446744073450280522,00000112,false,Rx,0,8,11,00,33,00,00,00,00,00,
18446744073450280816,00000113,false,Rx,0,8,11,00,33,00,00,00,00,00,
18446744073450281028,00000114,false,Rx,0,8,11,00,33,00,00,00,00,00,
18446744073450281315,00000115,false,Rx,0,8,11,00,33,00,00,00,00,00,
18446744073450281518,00000125,false,Rx,0,8,1B,0E,1B,0E,1A,0E,10,67,
18446744073450282399,00000135,false,Rx,0,8,1A,0E,19,0E,1A,0E,10,F0,
18446744073450283450,00000145,false,Rx,0,8,19,0E,19,0E,1A,0E,10,4D,
18446744073450284415,00000155,false,Rx,0,8,1B,0E,1A,0E,19,0E,10,DB,
18446744073450285382,00000165,false,Rx,0,8,1A,0E,1A,0E,1A,0E,10,28,
18446744073450286430,00000175,false,Rx,0,8,1A,0E,00,00,00,00,10,76,
18446744073450287398,000001E5,false,Rx,0,8,D7,70,00,00,00,00,10,EE,
18446744073450293204,000001D4,false,Rx,0,8,22,99,29,22,22,22,99,99,
18446744073450293325,00000184,false,Rx,0,8,35,35,35,5F,00,55,00,AD,
18446744073450293413,00000181,false,Rx,0,8,36,35,35,5F,00,55,00,A6,
18446744073450293533,00000124,false,Rx,0,8,19,0E,19,0E,18,0E,10,6F,
18446744073450293621,00000121,false,Rx,0,8,19,0E,17,0E,18,0E,10,95,
18446744073450293742,00000134,false,Rx,0,8,18,0E,18,0E,18,0E,10,46,
18446744073450293830,00000180,false,Rx,0,8,34,35,34,5F,00,55,00,13,
18446744073450293918,00000182,false,Rx,0,8,35,36,35,5F,00,55,00,24,
18446744073450294045,00000131,false,Rx,0,8,18,0E,18,0E,17,0E,10,2C,
18446744073450294132,00000144,false,Rx,0,8,18,0E,19,0E,18,0E,10,76,
18446744073450294253,00000120,false,Rx,0,8,19,0E,1A,0E,1A,0E,10,5B,
18446744073450294340,00000183,false,Rx,0,8,35,35,35,5F,00,55,00,8B,
18446744073450294461,00000122,false,Rx,0,8,1B,0E,1A,0E,1B,0E,10,A4,
18446744073450294548,00000141,false,Rx,0,8,17,0E,17,0E,17,0E,10,56,
18446744073450294669,00000154,false,Rx,0,8,18,0E,19,0E,19,0E,10,E7,
18446744073450294761,00000123,false,Rx,0,8,18,0E,19,0E,18,0E,10,14,
18446744073450294880,00000130,false,Rx,0,8,1A,0E,19,0E,19,0E,10,90,
18446744073450294975,00000132,false,Rx,0,8,1B,0E,1B,0E,1B,0E,10,D0,
18446744073450295063,00000151,false,Rx,0,8,18,0E,18,0E,17,0E,10,68,
18446744073450295183,00000133,false,Rx,0,8,19,0E,19,0E,18,0E,10,57,
18446744073450295387,00000140,false,Rx,0,8,19,0E,19,0E,19,0E,10,2D,
18446744073450295591,00000142,false,Rx,0,8,1A,0E,1B,0E,1B,0E,10,D7,
18446744073450295879,00000161,false,Rx,0,8,17,0E,18,0E,18,0E,10,90,
18446744073450296091,00000143,false,Rx,0,8,19,0E,18,0E,18,0E,10,67,
18446744073450296295,00000150,false,Rx,0,8,18,0E,19,0E,18,0E,10,E1,
18446744073450296498,00000152,false,Rx,0,8,1C,0E,1B,0E,1A,0E,10,95,
18446744073450296788,00000164,false,Rx,0,8,18,0E,18,0E,18,0E,10,20,
18446744073450297000,00000171,false,Rx,0,8,18,0E,00,00,00,00,10,45,
18446744073450297202,00000153,false,Rx,0,8,19,0E,18,0E,18,0E,10,79,
18446744073450297489,00000160,false,Rx,0,8,19,0E,19,0E,1A,0E,10,9D,
18446744073450297692,00000162,false,Rx,0,8,1B,0E,1B,0E,1A,0E,10,39,
18446744073450297987,00000174,false,Rx,0,8,19,0E,00,00,00,00,10,F4,
18446744073450298191,00000163,false,Rx,0,8,19,0E,19,0E,1A,0E,10,32,
18446744073450298394,00000170,false,Rx,0,8,19,0E,00,00,00,00,10,7D,
18446744073450298684,00000172,false,Rx,0,8,1B,0E,00,00,00,00,10,0D,
18446744073450298890,000001E1,false,Rx,0,8,CC,70,00,00,00,00,10,EB,
18446744073450299102,00000173,false,Rx,0,8,1A,0E,00,00,00,00,10,35,
18446744073450299389,000001E0,false,Rx,0,8,D5,70,00,00,00,00,10,B8,
18446744073450299592,00000185,false,Rx,0,8,34,34,34,5F,00,40,00,6C,
18446744073450299881,000001E2,false,Rx,0,8,DD,70,00,00,00,00,10,A0,
18446744073450300093,000001E3,false,Rx,0,8,DE,70,00,00,00,00,10,22,
18446744073450300297,000001E4,false,Rx,0,8,C4,70,00,00,00,00,10,D5,
18446744073450300584,000001D1,false,Rx,0,8,22,99,29,22,22,22,99,99,
18446744073450301047,000001D3,false,Rx,0,8,22,99,29,22,22,22,99,99,
18446744073450301501,000001D2,false,Rx,0,8,22,99,29,22,22,22,99,99,
18446744073450303058,000001D0,false,Rx,0,8,22,99,29,22,22,22,99,99,
18446744073450308752,00000104,false,Rx,0,8,00,00,00,10,00,00,20,74,
18446744073450309464,00000205,false,Rx,0,8,34,34,40,42,38,00,00,00,
18446744073450312454,00000101,false,Rx,0,8,00,00,00,10,00,00,20,98,
18446744073450313085,00000103,false,Rx,0,8,00,00,00,10,00,00,20,52,
18446744073450313455,00000102,false,Rx,0,8,00,00,00,10,00,00,20,37,
18446744073450315182,00000100,false,Rx,0,8,00,00,00,10,00,00,20,FD,
18446744073450315386,00000105,false,Rx,0,8,00,00,00,10,00,00,30,DC,
18446744073450328587,000001C4,false,Rx,0,8,22,11,92,22,22,22,42,22,
18446744073450332516,000001C1,false,Rx,0,8,22,11,92,22,22,22,42,22,
18446744073450333146,000001C3,false,Rx,0,8,22,11,92,22,22,22,42,22,
18446744073450333433,000001C2,false,Rx,0,8,22,11,92,22,22,22,42,22,
18446744073450335075,000001C0,false,Rx,0,8,22,11,92,22,22,22,42,22,
18446744073450353582,00000204,false,Rx,0,8,35,35,40,35,38,00,00,00,
18446744073450356581,00000201,false,Rx,0,8,35,35,40,3D,39,00,00,00,
18446744073450357047,00000203,false,Rx,0,8,35,35,40,41,37,00,00,00,
18446744073450357334,00000202,false,Rx,0,8,35,36,40,3F,39,00,00,00,
18446744073450358549,00000104,false,Rx,0,8,00,00,00,10,00,00,30,B9,
18446744073450359179,00000200,false,Rx,0,8,34,35,40,39,38,00,00,00,
18446744073450362584,00000101,false,Rx,0,8,00,00,00,10,00,00,30,55,
18446744073450363047,00000103,false,Rx,0,8,00,00,00,10,00,00,30,9F,
18446744073450363418,00000102,false,Rx,0,8,00,00,00,10,00,00,30,FA,
18446744073450365225,00000100,false,Rx,0,8,00,00,00,10,00,00,30,30,
18446744073450365429,00000105,false,Rx,0,8,00,00,00,10,00,00,40,85,
18446744073450378789,00000080,false,Rx,0,8,C7,10,00,00,60,01,44,6E,
18446744073450379000,00000081,false,Rx,0,8,C7,10,00,00,60,01,44,0B,
18446744073450379288,00000082,false,Rx,0,8,C7,10,00,00,60,01,44,A4,
18446744073450379491,00000083,false,Rx,0,8,C7,10,00,00,60,01,44,C1,
18446744073450379780,00000084,false,Rx,0,8,C7,10,00,00,60,01,44,E7,
18446744073450379991,00000085,false,Rx,0,8,C7,10,00,00,60,01,44,82,
18446744073450380194,00000111,false,Rx,0,8,11,10,33,00,00,00,00,00,
18446744073450380481,00000110,false,Rx,0,8,11,10,33,00,00,00,00,00,
18446744073450380685,00000112,false,Rx,0,8,11,10,33,00,00,00,00,00,
18446744073450380981,00000113,false,Rx,0,8,11,10,33,00,00,00,00,00,
18446744073450381185,00000114,false,Rx,0,8,11,10,33,00,00,00,00,00,
18446744073450381472,00000115,false,Rx,0,8,11,10,33,00,00,00,00,00,
18446744073450381676,00000123,false,Rx,0,8,18,0E,19,0E,18,0E,20,5E,
18446744073450381972,00000133,false,Rx,0,8,19,0E,19,0E,19,0E,20,92,
18446744073450382259,00000125,false,Rx,0,8,1B,0E,1B,0E,1A,0E,20,2D,
18446744073450383057,00000143,false,Rx,0,8,19,0E,18,0E,18,0E,20,2D,
18446744073450383261,00000135,false,Rx,0,8,1A,0E,19,0E,1A,0E,20,BA,
18446744073450383974,00000153,false,Rx,0,8,19,0E,18,0E,19,0E,20,BC,
18446744073450384261,00000145,false,Rx,0,8,19,0E,1A,0E,1A,0E,20,B9,
18446744073450385058,00000163,false,Rx,0,8,19,0E,19,0E,1A,0E,20,78,
18446744073450385262,00000155,false,Rx,0,8,1A,0E,1A,0E,19,0E,20,CC,
18446744073450385976,00000173,false,Rx,0,8,19,0E,00,00,00,00,20,98,
18446744073450386263,00000165,false,Rx,0,8,1A,0E,1A,0E,1A,0E,20,62,
18446744073450387061,000001E3,false,Rx,0,8,D2,70,00,00,00,00,20,D3,
18446744073450387265,00000175,false,Rx,0,8,1A,0E,00,00,00,00,20,3C,
18446744073450388146,000001E5,false,Rx,0,8,E3,70,00,00,00,00,20,1B,
18446744073450393494,00000184,false,Rx,0,8,35,35,35,5F,00,40,10,B5,
18446744073450394544,00000124,false,Rx,0,8,19,0E,19,0E,18,0E,20,25,
18446744073450394750,00000181,false,Rx,0,8,36,35,35,5F,00,40,10,BE,
18446744073450395546,00000134,false,Rx,0,8,18,0E,18,0E,18,0E,20,0C,
18446744073450395752,00000121,false,Rx,0,8,19,0E,17,0E,18,0E,20,DF,
18446744073450396130,00000180,false,Rx,0,8,34,35,34,5F,00,40,10,0B,
18446744073450396416,00000182,false,Rx,0,8,35,36,35,5F,00,40,10,3C,
18446744073450396620,00000144,false,Rx,0,8,18,0E,19,0E,19,0E,20,B3,
18446744073450396825,00000131,false,Rx,0,8,18,0E,17,0E,17,0E,20,1A,
18446744073450397037,00000183,false,Rx,0,8,35,35,35,5F,00,40,10,93,
18446744073450397324,00000120,false,Rx,0,8,19,0E,1A,0E,1A,0E,20,11,
18446744073450397528,00000122,false,Rx,0,8,1B,0E,1B,0E,1B,0E,20,84,
18446744073450397732,00000141,false,Rx,0,8,17,0E,17,0E,17,0E,20,1C,
18446744073450398027,00000154,false,Rx,0,8,18,0E,18,0E,19,0E,20,C7,
18446744073450398231,00000130,false,Rx,0,8,1A,0E,19,0E,19,0E,20,DA,
18446744073450398434,00000132,false,Rx,0,8,1B,0E,1B,0E,1B,0E,20,9A,
18446744073450398722,00000164,false,Rx,0,8,18,0E,18,0E,18,0E,20,6A,
18446744073450398934,00000151,false,Rx,0,8,18,0E,18,0E,17,0E,20,22,
18446744073450399138,00000140,false,Rx,0,8,19,0E,19,0E,19,0E,20,67,
18446744073450399424,00000142,false,Rx,0,8,1A,0E,1B,0E,1B,0E,20,9D,
18446744073450399711,00000174,false,Rx,0,8,18,0E,00,00,00,00,20,E3,
18446744073450399917,00000161,false,Rx,0,8,17,0E,18,0E,18,0E,20,DA,
18446744073450400128,00000150,false,Rx,0,8,18,0E,19,0E,18,0E,20,AB,
18446744073450400416,00000152,false,Rx,0,8,1C,0E,1B,0E,1A,0E,20,DF,
18446744073450400619,000001E4,false,Rx,0,8,C4,70,00,00,00,00,20,9F,
18446744073450400908,00000171,false,Rx,0,8,18,0E,00,00,00,00,20,0F,
18446744073450401121,00000160,false,Rx,0,8,19,0E,19,0E,1A,0E,20,D7,
18446744073450401408,00000162,false,Rx,0,8,1A,0E,1B,0E,1B,0E,20,A1,
18446744073450401695,000001E1,false,Rx,0,8,C0,70,00,00,00,00,20,1A,
18446744073450402160,00000170,false,Rx,0,8,1A,0E,00,00,00,00,20,D0,
18446744073450402446,00000172,false,Rx,0,8,1B,0E,00,00,00,00,20,47,
18446744073450403159,000001E0,false,Rx,0,8,D5,70,00,00,00,00,20,F2,
18446744073450403362,00000185,false,Rx,0,8,34,34,34,5F,00,40,10,A1,
18446744073450416340,000001E2,false,Rx,0,8,DD,70,00,00,00,00,20,EA,
18446744073450417557,00000104,false,Rx,0,8,00,00,00,10,00,00,40,E0,
18446744073450418186,00000205,false,Rx,0,8,34,34,40,42,38,00,00,00,
18446744073450421761,00000101,false,Rx,0,8,00,00,00,10,00,00,40,0C,
18446744073450422056,00000103,false,Rx,0,8,00,00,00,10,00,00,40,C6,
18446744073450422427,00000102,false,Rx,0,8,00,00,00,10,00,00,40,A3,
18446744073450424153,00000100,false,Rx,0,8,00,00,00,10,00,00,40,69,
18446744073450424439,00000105,false,Rx,0,8,00,00,00,10,00,00,50,48,
18446744073450461601,00000204,false,Rx,0,8,35,35,40,36,38,00,00,00,
18446744073450462231,000001D5,false,Rx,0,8,22,99,29,22,22,22,99,99,
18446744073450465804,00000201,false,Rx,0,8,35,35,40,3D,39,00,00,00,
18446744073450466100,00000203,false,Rx,0,8,35,35,40,41,37,00,00,00,
18446744073450467518,00000202,false,Rx,0,8,35,36,40,3F,39,00,00,00,
18446744073450467724,00000104,false,Rx,0,8,00,00,00,00,00,00,50,08,
18446744073450468270,00000200,false,Rx,0,8,34,35,40,39,38,00,00,00,
18446744073450471934,00000101,false,Rx,0,8,00,00,00,00,00,00,50,E4,
18446744073450472221,00000103,false,Rx,0,8,00,00,00,00,00,00,50,2E,
18446744073450472592,00000102,false,Rx,0,8,00,00,00,00,00,00,50,4B,
18446744073450474318,00000105,false,Rx,0,8,00,00,00,00,00,00,60,27,
18446744073450474605,00000100,false,Rx,0,8,00,00,00,00,00,00,50,81,
18446744073450478876,00000080,false,Rx,0,8,C7,10,00,00,60,01,50,D7,
18446744073450479088,00000081,false,Rx,0,8,C7,10,00,00,60,01,50,B2,
18446744073450479292,00000082,false,Rx,0,8,C7,10,00,00,60,01,50,1D,
18446744073450479579,00000083,false,Rx,0,8,C7,10,00,00,60,01,50,78,
18446744073450479787,00000084,false,Rx,0,8,C7,10,00,00,60,01,50,5E,
18446744073450479997,00000085,false,Rx,0,8,C7,10,00,00,60,01,50,3B,
18446744073450480285,00000110,false,Rx,0,8,11,00,33,00,00,00,00,00,
18446744073450480571,00000111,false,Rx,0,8,11,00,33,00,00,00,00,00,
18446744073450480776,00000112,false,Rx,0,8,11,00,33,00,00,00,00,00,
18446744073450480987,00000113,false,Rx,0,8,11,00,33,00,00,00,00,00,
18446744073450481274,00000114,false,Rx,0,8,11,00,33,00,00,00,00,00,
18446744073450481478,00000115,false,Rx,0,8,11,00,33,00,00,00,00,00,
18446744073450482363,00000125,false,Rx,0,8,1B,0E,1B,0E,1A,0E,30,E0,
18446744073450483327,00000135,false,Rx,0,8,1A,0E,19,0E,1A,0E,30,77,
18446744073450484293,00000145,false,Rx,0,8,19,0E,1A,0E,19,0E,30,F8,
18446744073450485342,00000155,false,Rx,0,8,1A,0E,1A,0E,19,0E,30,01,
18446744073450486307,00000165,false,Rx,0,8,1A,0E,1A,0E,1A,0E,30,AF,
18446744073450487274,00000175,false,Rx,0,8,1A,0E,00,00,00,00,30,F1,
18446744073450488238,000001E5,false,Rx,0,8,E3,70,00,00,00,00,30,D6,
18446744073450492741,00000184,false,Rx,0,8,35,35,35,5F,00,40,20,FF,
18446744073450493790,00000124,false,Rx,0,8,19,0E,19,0E,18,0E,30,E8,
18446744073450494086,00000181,false,Rx,0,8,35,35,35,5F,00,40,20,13,
18446744073450494792,00000134,false,Rx,0,8,18,0E,18,0E,18,0E,30,C1,
18446744073450495003,00000121,false,Rx,0,8,18,0E,17,0E,18,0E,30,4F,
18446744073450495373,00000180,false,Rx,0,8,34,35,34,5F,00,40,20,41,
18446744073450495576,00000182,false,Rx,0,8,35,36,35,5F,00,40,20,76,
18446744073450495865,00000144,false,Rx,0,8,18,0E,19,0E,18,0E,30,F1,
18446744073450496076,00000131,false,Rx,0,8,18,0E,18,0E,17,0E,30,AB,
18446744073450496280,00000183,false,Rx,0,8,35,35,35,5F,00,40,20,D9,
18446744073450496568,00000120,false,Rx,0,8,19,0E,1A,0E,1A,0E,30,DC,
18446744073450496773,00000122,false,Rx,0,8,1B,0E,1B,0E,1B,0E,30,49,
18446744073450496983,00000141,false,Rx,0,8,17,0E,17,0E,17,0E,30,D1,
18446744073450497186,00000154,false,Rx,0,8,18,0E,18,0E,19,0E,30,0A,
18446744073450497473,00000123,false,Rx,0,8,18,0E,19,0E,18,0E,30,93,
18446744073450497677,00000130,false,Rx,0,8,1A,0E,19,0E,19,0E,30,17,
18446744073450497883,00000132,false,Rx,0,8,1B,0E,1B,0E,1B,0E,30,57,
18446744073450498178,00000151,false,Rx,0,8,18,0E,18,0E,17,0E,30,EF,
18446744073450498382,00000133,false,Rx,0,8,19,0E,19,0E,19,0E,30,5F,
18446744073450498586,00000140,false,Rx,0,8,19,0E,19,0E,19,0E,30,AA,
18446744073450498793,00000142,false,Rx,0,8,1A,0E,1B,0E,1B,0E,30,50,
18446744073450499089,00000161,false,Rx,0,8,17,0E,18,0E,18,0E,30,17,
18446744073450499293,00000143,false,Rx,0,8,19,0E,18,0E,18,0E,30,E0,
18446744073450499496,00000150,false,Rx,0,8,18,0E,19,0E,18,0E,30,66,
18446744073450499785,00000152,false,Rx,0,8,1C,0E,1B,0E,1A,0E,30,12,
18446744073450499991,00000164,false,Rx,0,8,18,0E,18,0E,18,0E,30,A7,
18446744073450500193,00000153,false,Rx,0,8,19,0E,18,0E,19,0E,30,71,
18446744073450500480,00000160,false,Rx,0,8,19,0E,19,0E,1A,0E,30,1A,
18446744073450500683,00000162,false,Rx,0,8,19,0E,1B,0E,1B,0E,30,8B,
18446744073450500888,00000171,false,Rx,0,8,18,0E,00,00,00,00,30,C2,
18446744073450501184,00000174,false,Rx,0,8,18,0E,00,00,00,00,30,2E,
18446744073450501388,00000163,false,Rx,0,8,19,0E,19,0E,1A,0E,30,B5,
18446744073450501674,00000170,false,Rx,0,8,19,0E,00,00,00,00,30,FA,
18446744073450501880,00000172,false,Rx,0,8,1B,0E,00,00,00,00,30,8A,
18446744073450502092,000001E1,false,Rx,0,8,CC,70,00,00,00,00,30,6C,
18446744073450502379,00000173,false,Rx,0,8,19,0E,00,00,00,00,30,55,
18446744073450502583,00000185,false,Rx,0,8,34,34,34,5F,00,40,20,EB,
18446744073450502789,000001E0,false,Rx,0,8,E1,70,00,00,00,00,30,80,
18446744073450503083,000001E2,false,Rx,0,8,D1,70,00,00,00,00,30,9C,
18446744073450503286,000001E3,false,Rx,0,8,DE,70,00,00,00,00,30,A5,
18446744073450503490,000001C5,false,Rx,0,8,22,11,92,22,22,22,42,22,
18446744073450503778,000001E4,false,Rx,0,8,D0,70,00,00,00,00,30,82,
18446744073450514793,000001D4,false,Rx,0,8,22,99,29,22,22,22,99,99,
18446744073450530305,000001D1,false,Rx,0,8,22,99,29,22,22,22,99,99,
18446744073450530394,000001D3,false,Rx,0,8,22,99,29,22,22,22,99,99,
18446744073450530481,000001D2,false,Rx,0,8,22,99,29,22,22,22,99,99,
18446744073450530569,000001D0,false,Rx,0,8,22,99,29,22,22,22,99,99,
18446744073450530657,00000104,false,Rx,0,8,00,00,00,00,00,00,60,42,
18446744073450530746,00000205,false,Rx,0,8,34,34,40,42,38,00,00,00,
18446744073450530948,00000101,false,Rx,0,8,00,00,00,00,00,00,60,AE,
18446744073450531327,00000103,false,Rx,0,8,00,00,00,00,00,00,60,64,
18446744073450531613,00000102,false,Rx,0,8,00,00,00,00,00,00,60,01,
18446744073450533350,00000100,false,Rx,0,8,00,00,00,00,00,00,60,CB,
18446744073450533638,00000105,false,Rx,0,8,00,00,00,00,00,00,70,EA,
18446744073450546746,000001C4,false,Rx,0,8,22,11,92,22,22,22,42,22,
18446744073450550914,000001C1,false,Rx,0,8,22,11,92,22,22,22,42,22,
18446744073450551377,000001C3,false,Rx,0,8,22,11,92,22,22,22,42,22,
18446744073450551580,000001C2,false,Rx,0,8,22,11,92,22,22,22,42,22,
18446744073450553391,000001C0,false,Rx,0,8,22,11,92,22,22,22,42,22,
18446744073450570854,00000204,false,Rx,0,8,35,35,40,35,38,00,00,00,
18446744073450574945,00000201,false,Rx,0,8,35,35,40,3D,39,00,00,00,
18446744073450575316,00000203,false,Rx,0,8,35,35,40,41,37,00,00,00,
18446744073450575603,00000202,false,Rx,0,8,35,36,40,3F,39,00,00,00,
18446744073450576903,00000104,false,Rx,0,8,00,00,00,00,00,00,70,8F,
18446744073450577365,00000200,false,Rx,0,8,34,35,40,39,38,00,00,00,
18446744073450578832,00000080,false,Rx,0,8,C7,10,00,00,60,01,60,9D,
18446744073450579044,00000081,false,Rx,0,8,C7,10,00,00,60,01,60,F8,
18446744073450579331,00000082,false,Rx,0,8,C7,10,00,00,60,01,60,57,
18446744073450579534,00000083,false,Rx,0,8,C7,10,00,00,60,01,60,32,
18446744073450579821,00000084,false,Rx,0,8,C7,10,00,00,60,01,60,14,
18446744073450580033,00000085,false,Rx,0,8,C7,10,00,00,60,01,60,71,
18446744073450580321,00000110,false,Rx,0,8,11,00,33,00,00,00,00,00,
18446744073450584972,00000111,false,Rx,0,8,11,00,33,00,00,00,00,00,
18446744073450585061,00000112,false,Rx,0,8,11,00,33,00,00,00,00,00,
18446744073450585181,00000113,false,Rx,0,8,11,00,33,00,00,00,00,00,
18446744073450585269,00000114,false,Rx,0,8,11,00,33,00,00,00,00,00,
18446744073450585356,00000115,false,Rx,0,8,11,00,33,00,00,00,00,00,
18446744073450585477,00000120,false,Rx,0,8,1A,0E,1A,0E,1A,0E,40,62,
18446744073450585564,00000121,false,Rx,0,8,19,0E,17,0E,18,0E,40,4B,
18446744073450585685,00000122,false,Rx,0,8,1B,0E,1B,0E,1B,0E,40,10,
18446744073450585774,00000123,false,Rx,0,8,18,0E,19,0E,18,0E,40,CA,
18446744073450585894,00000125,false,Rx,0,8,1B,0E,1B,0E,1A,0E,40,B9,
18446744073450585990,00000130,false,Rx,0,8,1A,0E,19,0E,19,0E,40,4E,
18446744073450586110,00000131,false,Rx,0,8,18,0E,18,0E,17,0E,40,F2,
18446744073450586198,00000132,false,Rx,0,8,1B,0E,1B,0E,1B,0E,40,0E,
18446744073450586285,00000133,false,Rx,0,8,19,0E,19,0E,18,0E,40,89,
18446744073450586406,00000135,false,Rx,0,8,1A,0E,19,0E,1A,0E,40,2E,
18446744073450586493,00000140,false,Rx,0,8,19,0E,18,0E,19,0E,40,99,
18446744073450586614,00000141,false,Rx,0,8,17,0E,17,0E,17,0E,40,88,
18446744073450586701,00000142,false,Rx,0,8,1A,0E,1B,0E,1B,0E,40,09,
18446744073450586823,00000143,false,Rx,0,8,19,0E,18,0E,18,0E,40,B9,
18446744073450586911,00000145,false,Rx,0,8,19,0E,1A,0E,1A,0E,40,2D,
18446744073450587039,00000150,false,Rx,0,8,18,0E,19,0E,18,0E,40,3F,
18446744073450587127,00000151,false,Rx,0,8,18,0E,18,0E,17,0E,40,B6,
18446744073450587215,00000152,false,Rx,0,8,1C,0E,1B,0E,1A,0E,40,4B,
18446744073450587335,00000153,false,Rx,0,8,19,0E,18,0E,19,0E,40,28,
18446744073450587423,00000155,false,Rx,0,8,1A,0E,1A,0E,19,0E,40,58,
18446744073450587543,00000160,false,Rx,0,8,19,0E,19,0E,1A,0E,40,43,
18446744073450587631,00000161,false,Rx,0,8,17,0E,17,0E,18,0E,40,32,
18446744073450587756,00000162,false,Rx,0,8,1A,0E,1B,0E,1B,0E,40,35,
18446744073450587843,00000163,false,Rx,0,8,19,0E,19,0E,1A,0E,40,EC,
18446744073450587939,00000165,false,Rx,0,8,19,0E,1A,0E,1A,0E,40,11,
18446744073450588059,00000170,false,Rx,0,8,19,0E,00,00,00,00,40,A3,
18446744073450588147,00000171,false,Rx,0,8,18,0E,00,00,00,00,40,9B,
18446744073450588268,00000172,false,Rx,0,8,1B,0E,00,00,00,00,40,D3,
18446744073450588355,00000173,false,Rx,0,8,19,0E,00,00,00,00,40,0C,
18446744073450588475,00000175,false,Rx,0,8,1A,0E,00,00,00,00,40,A8,
18446744073450588764,000001E0,false,Rx,0,8,D5,70,00,00,00,00,40,66,
18446744073450588975,000001E1,false,Rx,0,8,C0,70,00,00,00,00,40,8E,
18446744073450589262,00000101,false,Rx,0,8,00,00,00,00,00,00,70,63,
18446744073450589465,000001E2,false,Rx,0,8,D1,70,00,00,00,00,40,C5,
18446744073450589757,00000102,false,Rx,0,8,00,00,00,00,00,00,70,CC,
18446744073450589968,00000103,false,Rx,0,8,00,00,00,00,00,00,70,A9,
18446744073450590171,000001E3,false,Rx,0,8,D2,70,00,00,00,00,40,47,
18446744073450590459,000001E5,false,Rx,0,8,D7,70,00,00,00,00,40,30,
18446744073450591340,00000105,false,Rx,0,8,00,00,00,00,00,00,80,95,
18446744073450591543,00000100,false,Rx,0,8,00,00,00,00,00,00,70,06,
18446744073450596809,00000184,false,Rx,0,8,35,35,35,5F,00,40,30,32,
18446744073450597857,00000124,false,Rx,0,8,19,0E,19,0E,18,0E,40,B1,
18446744073450598153,00000181,false,Rx,0,8,36,35,35,5F,00,40,30,39,
18446744073450598859,00000134,false,Rx,0,8,18,0E,18,0E,18,0E,40,98,
18446744073450599489,00000180,false,Rx,0,8,34,35,34,5F,00,40,30,8C,
18446744073450599693,00000182,false,Rx,0,8,35,36,35,5F,00,40,30,BB,
18446744073450599898,00000144,false,Rx,0,8,18,0E,19,0E,19,0E,40,27,
18446744073450600444,00000183,false,Rx,0,8,35,35,35,5F,00,40,30,14,
18446744073450600816,00000154,false,Rx,0,8,18,0E,19,0E,19,0E,40,39,
18446744073450601782,00000164,false,Rx,0,8,18,0E,18,0E,19,0E,40,71,
18446744073450602829,00000174,false,Rx,0,8,19,0E,00,00,00,00,40,2A,
18446744073450603880,000001E4,false,Rx,0,8,D0,70,00,00,00,00,40,DB,
18446744073450606367,00000185,false,Rx,0,8,34,34,34,5F,00,40,30,26,
18446744073450610367,000000A0,false,Rx,0,8,37,00,00,00,00,00,FF,FF,
18446744073450611331,00000190,false,Rx,0,8,38,34,38,32,39,34,30,30,
18446744073450611618,000001A0,false,Rx,0,8,32,00,01,09,75,00,00,32,
18446744073450645947,00000104,false,Rx,0,8,00,00,00,00,00,00,80,F0,
18446744073450646035,00000205,false,Rx,0,8,34,34,40,42,38,00,00,00,
18446744073450646123,00000101,false,Rx,0,8,00,00,00,00,00,00,80,1C,
18446744073450646211,00000103,false,Rx,0,8,00,00,00,00,00,00,80,D6,
18446744073450646298,00000102,false,Rx,0,8,00,00,00,00,00,00,80,B3,
18446744073450646386,00000100,false,Rx,0,8,00,00,00,00,00,00,80,79,
18446744073450646474,00000105,false,Rx,0,8,00,00,00,00,00,00,90,58,
18446744073450678770,00000080,false,Rx,0,8,C7,10,00,00,60,01,70,50,
18446744073450679065,00000081,false,Rx,0,8,C7,10,00,00,60,01,70,35,
18446744073450679268,00000082,false,Rx,0,8,C7,10,00,00,60,01,70,9A,
18446744073450679556,00000083,false,Rx,0,8,C7,10,00,00,60,01,70,FF,
18446744073450679763,00000084,false,Rx,0,8,C7,10,00,00,60,01,70,D9,
18446744073450679968,00000085,false,Rx,0,8,C7,10,00,00,60,01,70,BC,
18446744073450680255,00000110,false,Rx,0,8,11,00,33,00,00,00,00,00,
18446744073450680459,00000111,false,Rx,0,8,11,00,33,00,00,00,00,00,
18446744073450680749,00000112,false,Rx,0,8,11,00,33,00,00,00,00,00,
18446744073450680951,00000113,false,Rx,0,8,11,00,33,00,00,00,00,00,
18446744073450681247,00000114,false,Rx,0,8,11,00,33,00,00,00,00,00,
18446744073450681451,00000115,false,Rx,0,8,11,00,33,00,00,00,00,00,
18446744073450681741,00000120,false,Rx,0,8,19,0E,1A,0E,1A,0E,50,48,
18446744073450681953,00000121,false,Rx,0,8,19,0E,17,0E,18,0E,50,86,
18446744073450682157,00000122,false,Rx,0,8,1B,0E,1B,0E,1B,0E,50,DD,
18446744073450682361,00000123,false,Rx,0,8,18,0E,19,0E,18,0E,50,07,
18446744073450682648,00000124,false,Rx,0,8,19,0E,19,0E,18,0E,50,7C,
18446744073450682854,00000130,false,Rx,0,8,1A,0E,19,0E,19,0E,50,83,
18446744073450683064,00000131,false,Rx,0,8,18,0E,18,0E,17,0E,50,3F,
18446744073450683352,00000132,false,Rx,0,8,1B,0E,1B,0E,1B,0E,50,C3,
18446744073450683555,00000133,false,Rx,0,8,19,0E,19,0E,18,0E,50,44,
18446744073450683763,00000134,false,Rx,0,8,18,0E,18,0E,18,0E,50,55,
18446744073450684058,00000140,false,Rx,0,8,19,0E,18,0E,19,0E,50,54,
18446744073450684262,00000141,false,Rx,0,8,17,0E,17,0E,17,0E,50,45,
18446744073450684465,00000142,false,Rx,0,8,1A,0E,1B,0E,1B,0E,50,C4,
18446744073450684669,00000143,false,Rx,0,8,19,0E,18,0E,18,0E,50,74,
18446744073450684967,00000144,false,Rx,0,8,18,0E,19,0E,19,0E,50,EA,
18446744073450685171,00000150,false,Rx,0,8,18,0E,19,0E,18,0E,50,F2,
18446744073450685375,00000151,false,Rx,0,8,18,0E,18,0E,17,0E,50,7B,
18446744073450685662,00000125,false,Rx,0,8,1B,0E,1B,0E,1A,0E,50,74,
18446744073450685868,00000152,false,Rx,0,8,1C,0E,1B,0E,1A,0E,50,86,
18446744073450686080,00000153,false,Rx,0,8,19,0E,18,0E,18,0E,50,6A,
18446744073450686283,00000154,false,Rx,0,8,18,0E,18,0E,19,0E,50,9E,
18446744073450686571,00000160,false,Rx,0,8,19,0E,19,0E,1A,0E,50,8E,
18446744073450686776,00000135,false,Rx,0,8,1A,0E,19,0E,1A,0E,50,E3,
18446744073450686981,00000161,false,Rx,0,8,17,0E,17,0E,18,0E,50,FF,
18446744073450687267,00000162,false,Rx,0,8,1A,0E,1A,0E,1B,0E,50,92,
18446744073450687471,00000163,false,Rx,0,8,19,0E,19,0E,1A,0E,50,21,
18446744073450687675,00000145,false,Rx,0,8,19,0E,1A,0E,1A,0E,50,E0,
18446744073450687971,00000164,false,Rx,0,8,18,0E,18,0E,18,0E,50,33,
18446744073450688175,00000170,false,Rx,0,8,19,0E,00,00,00,00,50,6E,
18446744073450688378,00000171,false,Rx,0,8,18,0E,00,00,00,00,50,56,
18446744073450688665,00000172,false,Rx,0,8,1B,0E,00,00,00,00,50,1E,
18446744073450688873,00000155,false,Rx,0,8,1B,0E,1A,0E,19,0E,50,C8,
18446744073450689086,00000173,false,Rx,0,8,19,0E,00,00,00,00,50,C1,
18446744073450689373,00000174,false,Rx,0,8,19,0E,00,00,00,00,50,E7,
18446744073450689577,00000185,false,Rx,0,8,34,34,34,5F,00,40,40,7F,
18446744073450689782,00000165,false,Rx,0,8,19,0E,1A,0E,1A,0E,50,DC,
18446744073450690077,000001D5,false,Rx,0,8,22,99,29,22,22,22,99,99,
18446744073450690281,000001E0,false,Rx,0,8,D5,70,00,00,00,00,50,AB,
18446744073450690485,00000175,false,Rx,0,8,1A,0E,00,00,00,00,50,65,
18446744073450690774,000001E1,false,Rx,0,8,CC,70,00,00,00,00,50,F8,
18446744073450690979,000001E2,false,Rx,0,8,D1,70,00,00,00,00,50,08,
18446744073450691266,000001E3,false,Rx,0,8,DE,70,00,00,00,00,50,31,
18446744073450691470,000001E4,false,Rx,0,8,C4,70,00,00,00,00,50,C6,
18446744073450691760,000001E5,false,Rx,0,8,D7,70,00,00,00,00,50,FD,
18446744073450691972,00000204,false,Rx,0,8,35,35,40,35,38,00,00,00,
18446744073450692176,00000201,false,Rx,0,8,35,35,40,3D,39,00,00,00,
18446744073450692463,00000203,false,Rx,0,8,35,35,40,41,37,00,00,00,
18446744073450692667,00000202,false,Rx,0,8,35,36,40,3F,39,00,00,00,
18446744073450693885,00000104,false,Rx,0,8,00,00,00,00,00,00,90,3D,
18446744073450694513,00000200,false,Rx,0,8,34,35,40,3A,38,00,00,00,
18446744073450708484,00000101,false,Rx,0,8,00,00,00,00,00,00,90,D1,
18446744073450708573,00000103,false,Rx,0,8,00,00,00,00,00,00,90,1B,
18446744073450708661,00000102,false,Rx,0,8,00,00,00,00,00,00,90,7E,
18446744073450708752,00000100,false,Rx,0,8,00,00,00,00,00,00,90,B4,
18446744073450708839,00000184,false,Rx,0,8,35,35,35,5F,00,40,40,6B,
18446744073450708936,00000105,false,Rx,0,8,00,00,00,00,00,00,A0,12,
18446744073450709023,00000181,false,Rx,0,8,35,35,35,5F,00,40,40,87,
18446744073450709111,00000180,false,Rx,0,8,34,35,34,5F,00,40,40,D5,
18446744073450709199,00000182,false,Rx,0,8,35,36,35,5F,00,40,40,E2,
18446744073450709286,00000183,false,Rx,0,8,35,35,35,5F,00,40,40,4D,
18446744073450721469,000001C5,false,Rx,0,8,22,11,92,22,22,22,42,22,
18446744073450732945,000001D4,false,Rx,0,8,22,99,29,22,22,22,99,99,
18446744073450737280,000001D1,false,Rx,0,8,22,99,29,22,22,22,99,99,
18446744073450737484,000001D3,false,Rx,0,8,22,99,29,22,22,22,99,99,
18446744073450737686,000001D2,false,Rx,0,8,22,99,29,22,22,22,99,99,
18446744073450739494,000001D0,false,Rx,0,8,22,99,29,22,22,22,99,99,
18446744073450744924,00000104,false,Rx,0,8,00,00,00,00,00,00,A0,77,
18446744073450745552,00000205,false,Rx,0,8,34,34,40,42,38,00,00,00,
18446744073450749134,00000101,false,Rx,0,8,00,00,00,00,00,00,A0,9B,
18446744073450749505,00000103,false,Rx,0,8,00,00,00,00,00,00,A0,51,
18446744073450749708,00000102,false,Rx,0,8,00,00,00,00,00,00,A0,34,
18446744073450751600,00000105,false,Rx,0,8,00,00,00,00,00,00,B0,DF,
18446744073450751806,00000100,false,Rx,0,8,00,00,00,00,00,00,A0,FE,
18446744073450764870,000001C4,false,Rx,0,8,22,11,92,22,22,22,42,22,
18446744073450769045,000001C1,false,Rx,0,8,22,11,92,22,22,22,42,22,
18446744073450769415,000001C3,false,Rx,0,8,22,11,92,22,22,22,42,22,
18446744073450769618,000001C2,false,Rx,0,8,22,11,92,22,22,22,42,22,
18446744073450770333,000000A0,false,Rx,0,8,37,01,00,00,00,00,FF,FF,
18446744073450771049,00000191,false,Rx,0,8,38,34,38,32,39,34,30,30,
18446744073450771252,000001A1,false,Rx,0,8,32,00,01,09,75,00,13,98,
18446744073450771539,000001C0,false,Rx,0,8,22,11,92,22,22,22,42,22,
18446744073450778827,00000080,false,Rx,0,8,C7,10,00,00,60,01,80,2F,
18446744073450779039,00000081,false,Rx,0,8,C7,10,00,00,60,01,80,4A,
18446744073450779325,00000082,false,Rx,0,8,C7,10,00,00,60,01,80,E5,
18446744073450779529,00000083,false,Rx,0,8,C7,10,00,00,60,01,80,80,
18446744073450779738,00000084,false,Rx,0,8,C7,10,00,00,60,01,80,A6,
18446744073450780027,00000085,false,Rx,0,8,C7,10,00,00,60,01,80,C3,
18446744073450780230,00000110,false,Rx,0,8,11,00,33,00,00,00,00,00,
18446744073450780518,00000111,false,Rx,0,8,11,00,33,00,00,00,00,00,
18446744073450780722,00000112,false,Rx,0,8,11,00,33,00,00,00,00,00,
18446744073450781016,00000113,false,Rx,0,8,11,00,33,00,00,00,00,00,
18446744073450781220,00000114,false,Rx,0,8,11,00,33,00,00,00,00,00,
18446744073450781507,00000115,false,Rx,0,8,11,00,33,00,00,00,00,00,
18446744073450781711,00000121,false,Rx,0,8,19,0E,17,0E,18,0E,60,CC,
18446744073450781917,00000120,false,Rx,0,8,1A,0E,1A,0E,1A,0E,60,E5,
18446744073450782211,00000122,false,Rx,0,8,1B,0E,1B,0E,1B,0E,60,97,
18446744073450782415,00000124,false,Rx,0,8,19,0E,19,0E,18,0E,60,36,
18446744073450782618,00000131,false,Rx,0,8,18,0E,18,0E,17,0E,60,75,
18446744073450782822,00000123,false,Rx,0,8,18,0E,19,0E,18,0E,60,4D,
18446744073450783117,00000130,false,Rx,0,8,1A,0E,19,0E,19,0E,60,C9,
18446744073450783321,00000132,false,Rx,0,8,1B,0E,1B,0E,1B,0E,60,89,
18446744073450783524,00000134,false,Rx,0,8,18,0E,18,0E,18,0E,60,1F,
18446744073450783813,00000133,false,Rx,0,8,19,0E,19,0E,19,0E,60,81,
18446744073450784025,00000140,false,Rx,0,8,19,0E,18,0E,19,0E,60,1E,
18446744073450784229,00000141,false,Rx,0,8,17,0E,17,0E,17,0E,60,0F,
18446744073450784515,00000142,false,Rx,0,8,1A,0E,1B,0E,1B,0E,60,8E,
18446744073450784719,00000144,false,Rx,0,8,18,0E,19,0E,19,0E,60,A0,
18446744073450784923,00000143,false,Rx,0,8,19,0E,18,0E,18,0E,60,3E,
18446744073450785217,00000150,false,Rx,0,8,18,0E,19,0E,18,0E,60,B8,
18446744073450785421,00000151,false,Rx,0,8,18,0E,18,0E,17,0E,60,31,
18446744073450785624,00000152,false,Rx,0,8,1C,0E,1B,0E,1A,0E,60,CC,
18446744073450785829,00000153,false,Rx,0,8,19,0E,18,0E,19,0E,60,AF,
18446744073450786125,00000154,false,Rx,0,8,18,0E,18,0E,19,0E,60,D4,
18446744073450786329,00000160,false,Rx,0,8,19,0E,19,0E,1A,0E,60,C4,
18446744073450786532,00000161,false,Rx,0,8,17,0E,17,0E,18,0E,60,B5,
18446744073450786826,00000162,false,Rx,0,8,1B,0E,1A,0E,1A,0E,60,0A,
18446744073450787037,00000163,false,Rx,0,8,19,0E,19,0E,1A,0E,60,6B,
18446744073450787240,00000164,false,Rx,0,8,18,0E,18,0E,18,0E,60,79,
18446744073450787528,00000170,false,Rx,0,8,19,0E,00,00,00,00,60,24,
18446744073450787735,00000171,false,Rx,0,8,18,0E,00,00,00,00,60,1C,
18446744073450787945,00000172,false,Rx,0,8,1B,0E,00,00,00,00,60,54,
18446744073450788232,00000173,false,Rx,0,8,19,0E,00,00,00,00,60,8B,
18446744073450788436,00000174,false,Rx,0,8,19,0E,00,00,00,00,60,AD,
18446744073450788723,00000180,false,Rx,0,8,34,35,34,5F,00,40,50,18,
18446744073450788935,00000182,false,Rx,0,8,35,36,35,5F,00,40,50,2F,
18446744073450789138,00000183,false,Rx,0,8,35,35,35,5F,00,40,50,80,
18446744073450789425,00000185,false,Rx,0,8,34,34,34,5F,00,40,50,B2,
18446744073450789629,00000125,false,Rx,0,8,1B,0E,1B,0E,1A,0E,60,3E,
18446744073450789833,000001E0,false,Rx,0,8,D5,70,00,00,00,00,60,E1,
18446744073450790128,000001E1,false,Rx,0,8,CC,70,00,00,00,00,60,B2,
18446744073450790332,000001E2,false,Rx,0,8,D1,70,00,00,00,00,60,42,
18446744073450790619,00000135,false,Rx,0,8,1A,0E,19,0E,1A,0E,60,A9,
18446744073450790825,000001E3,false,Rx,0,8,D2,70,00,00,00,00,60,C0,
18446744073450791037,000001E4,false,Rx,0,8,D0,70,00,00,00,00,60,5C,
18446744073450791574,00000145,false,Rx,0,8,19,0E,19,0E,1A,0E,60,14,
18446744073450792539,00000155,false,Rx,0,8,1B,0E,1A,0E,19,0E,60,82,
18446744073450793586,00000165,false,Rx,0,8,1A,0E,1A,0E,1A,0E,60,71,
18446744073450794551,00000175,false,Rx,0,8,1A,0E,00,00,00,00,60,2F,
18446744073450795515,000001E5,false,Rx,0,8,D7,70,00,00,00,00,60,B7,
18446744073450796899,00000204,false,Rx,0,8,35,35,40,35,38,00,00,00,
18446744073450801161,00000201,false,Rx,0,8,35,35,40,3D,39,00,00,00,
18446744073450802544,00000203,false,Rx,0,8,35,35,40,41,37,00,00,00,
18446744073450802833,00000104,false,Rx,0,8,00,00,00,00,00,00,B0,BA,
18446744073450803044,00000202,false,Rx,0,8,35,36,40,3F,39,00,00,00,
18446744073450804593,00000200,false,Rx,0,8,34,35,40,39,39,00,00,00,
18446744073450804882,00000184,false,Rx,0,8,35,35,35,5F,00,40,50,A6,
18446744073450806107,00000181,false,Rx,0,8,35,35,35,5F,00,40,50,4A,
18446744073450808167,00000101,false,Rx,0,8,00,00,00,00,00,00,B0,56,
18446744073450808621,00000103,false,Rx,0,8,00,00,00,00,00,00,B0,9C,
18446744073450808910,00000102,false,Rx,0,8,00,00,00,00,00,00,B0,F9,
18446744073450810468,00000105,false,Rx,0,8,00,00,00,00,00,00,C0,86,
18446744073450810671,00000100,false,Rx,0,8,00,00,00,00,00,00,B0,33,
18446744073450853918,00000104,false,Rx,0,8,00,00,00,00,00,00,C0,E3,
18446744073450854381,00000205,false,Rx,0,8,34,34,40,42,38,00,00,00,
18446744073450857964,00000101,false,Rx,0,8,00,00,00,00,00,00,C0,0F,
18446744073450858334,00000103,false,Rx,0,8,00,00,00,00,00,00,C0,C5,
18446744073450858621,00000102,false,Rx,0,8,00,00,00,00,00,00,C0,A0,
18446744073450860431,00000105,false,Rx,0,8,00,00,00,00,00,00,D0,4B,
18446744073450860718,00000100,false,Rx,0,8,00,00,00,00,00,00,C0,6A,
18446744073450878812,00000080,false,Rx,0,8,C7,10,00,00,60,01,90,E2,
18446744073450879023,00000081,false,Rx,0,8,C7,10,00,00,60,01,90,87,
18446744073450879310,00000082,false,Rx,0,8,C7,10,00,00,60,01,90,28,
18446744073450879514,00000083,false,Rx,0,8,C7,10,00,00,60,01,90,4D,
18446744073450879717,00000084,false,Rx,0,8,C7,10,00,00,60,01,90,6B,
18446744073450880014,00000085,false,Rx,0,8,C7,10,00,00,60,01,90,0E,
18446744073450880218,00000110,false,Rx,0,8,11,00,33,00,00,00,00,00,
18446744073450880505,00000111,false,Rx,0,8,11,00,33,00,00,00,00,00,
18446744073450880709,00000112,false,Rx,0,8,11,00,33,00,00,00,00,00,
18446744073450881004,00000113,false,Rx,0,8,11,00,33,00,00,00,00,00,
18446744073450881208,00000114,false,Rx,0,8,11,00,33,00,00,00,00,00,
18446744073450881494,00000115,false,Rx,0,8,11,00,33,00,00,00,00,00,
18446744073450882801,00000184,false,Rx,0,8,35,35,35,5F,00,40,60,EC,
18446744073450883851,00000124,false,Rx,0,8,19,0E,19,0E,18,0E,70,FB,
18446744073450884063,00000181,false,Rx,0,8,35,35,35,5F,00,40,60,00,
18446744073450884601,00000180,false,Rx,0,8,34,35,34,5F,00,40,60,52,
18446744073450884806,00000134,false,Rx,0,8,18,0E,18,0E,18,0E,70,D2,
18446744073450885019,00000121,false,Rx,0,8,18,0E,17,0E,18,0E,70,5C,
18446744073450885305,00000182,false,Rx,0,8,35,36,35,5F,00,40,60,65,
18446744073450885508,00000183,false,Rx,0,8,35,35,35,5F,00,40,60,CA,
18446744073450885712,00000120,false,Rx,0,8,19,0E,1A,0E,19,0E,70,43,
18446744073450886007,00000122,false,Rx,0,8,1B,0E,1B,0E,1B,0E,70,5A,
18446744073450886211,00000131,false,Rx,0,8,18,0E,17,0E,17,0E,70,C4,
18446744073450886415,00000123,false,Rx,0,8,18,0E,19,0E,18,0E,70,80,
18446744073450886701,00000130,false,Rx,0,8,1A,0E,19,0E,19,0E,70,04,
18446744073450886907,00000132,false,Rx,0,8,1B,0E,1B,0E,1B,0E,70,44,
18446744073450887119,00000141,false,Rx,0,8,17,0E,17,0E,18,0E,70,44,
18446744073450887322,00000144,false,Rx,0,8,18,0E,19,0E,19,0E,70,6D,
18446744073450887609,00000133,false,Rx,0,8,19,0E,19,0E,19,0E,70,4C,
18446744073450887815,00000140,false,Rx,0,8,19,0E,18,0E,19,0E,70,D3,
18446744073450888026,00000142,false,Rx,0,8,1A,0E,1B,0E,1B,0E,70,43,
18446744073450888229,00000151,false,Rx,0,8,18,0E,18,0E,17,0E,70,FC,
18446744073450888516,00000143,false,Rx,0,8,19,0E,18,0E,18,0E,70,F3,
18446744073450888720,00000150,false,Rx,0,8,18,0E,19,0E,18,0E,70,75,
18446744073450888932,00000152,false,Rx,0,8,1C,0E,1B,0E,1A,0E,70,01,
18446744073450889219,00000154,false,Rx,0,8,18,0E,19,0E,19,0E,70,73,
18446744073450889422,00000153,false,Rx,0,8,19,0E,18,0E,19,0E,70,62,
18446744073450889626,00000160,false,Rx,0,8,19,0E,19,0E,1A,0E,70,09,
18446744073450889915,00000161,false,Rx,0,8,17,0E,17,0E,18,0E,70,78,
18446744073450890127,00000162,false,Rx,0,8,1A,0E,1B,0E,1B,0E,70,7F,
18446744073450890330,00000164,false,Rx,0,8,18,0E,18,0E,18,0E,70,B4,
18446744073450890616,00000163,false,Rx,0,8,19,0E,19,0E,1A,0E,70,A6,
18446744073450890822,00000170,false,Rx,0,8,19,0E,00,00,00,00,70,E9,
18446744073450891033,00000171,false,Rx,0,8,18,0E,00,00,00,00,70,D1,
18446744073450891320,00000172,false,Rx,0,8,1C,0E,00,00,00,00,70,17,
18446744073450891524,00000173,false,Rx,0,8,19,0E,00,00,00,00,70,46,
18446744073450891813,00000174,false,Rx,0,8,19,0E,00,00,00,00,70,60,
18446744073450892024,000001E0,false,Rx,0,8,E1,70,00,00,00,00,70,93,
18446744073450892227,000001E1,false,Rx,0,8,CC,70,00,00,00,00,70,7F,
18446744073450892514,00000185,false,Rx,0,8,34,34,34,5F,00,40,60,F8,
18446744073450892718,000001E2,false,Rx,0,8,D1,70,00,00,00,00,70,8F,
18446744073450893013,000001E3,false,Rx,0,8,DE,70,00,00,00,00,70,B6,
18446744073450893217,000001E4,false,Rx,0,8,C4,70,00,00,00,00,70,41,
18446744073450893587,00000125,false,Rx,0,8,1B,0E,1B,0E,1A,0E,70,F3,
18446744073450894550,00000135,false,Rx,0,8,1A,0E,19,0E,1A,0E,70,64,
18446744073450895516,00000145,false,Rx,0,8,19,0E,1A,0E,19,0E,70,EB,
18446744073450896481,00000155,false,Rx,0,8,1A,0E,1A,0E,19,0E,70,12,
18446744073450897530,00000165,false,Rx,0,8,1A,0E,1A,0E,1A,0E,70,BC,
18446744073450898495,00000175,false,Rx,0,8,1A,0E,00,00,00,00,70,E2,
18446744073450899460,000001E5,false,Rx,0,8,E3,70,00,00,00,00,70,C5,
18446744073450906762,00000204,false,Rx,0,8,35,35,40,35,38,00,00,00,
18446744073450907558,000001D5,false,Rx,0,8,22,99,29,22,22,22,99,99,
18446744073450910804,00000201,false,Rx,0,8,35,35,40,3D,39,00,00,00,
18446744073450911517,00000203,false,Rx,0,8,35,35,40,41,37,00,00,00,
18446744073450911720,00000202,false,Rx,0,8,35,36,40,3F,39,00,00,00,
18446744073450912770,00000104,false,Rx,0,8,00,00,00,00,00,00,D0,2E,
18446744073450913649,00000200,false,Rx,0,8,34,35,40,3A,39,00,00,00,
18446744073450916979,00000101,false,Rx,0,8,00,00,00,00,00,00,D0,C2,
18446744073450917517,00000103,false,Rx,0,8,00,00,00,00,00,00,D0,08,
18446744073450917721,00000102,false,Rx,0,8,00,00,00,00,00,00,D0,6D,
18446744073450919612,00000105,false,Rx,0,8,00,00,00,00,00,00,E0,01,
18446744073450919901,00000100,false,Rx,0,8,00,00,00,00,00,00,D0,A7,
18446744073450939871,000000A0,false,Rx,0,8,37,02,00,00,00,00,FF,FF,
18446744073450939967,00000192,false,Rx,0,8,38,34,38,32,39,34,30,30,
18446744073450940055,000001A2,false,Rx,0,8,32,00,01,09,75,00,00,96,
18446744073450940143,000001C5,false,Rx,0,8,22,11,92,22,22,22,42,22,
18446744073450950807,000001D4,false,Rx,0,8,22,99,29,22,22,22,99,99,
18446744073450954919,000001D1,false,Rx,0,8,22,99,29,22,22,22,99,99,
18446744073450955548,000001D3,false,Rx,0,8,22,99,29,22,22,22,99,99,
18446744073450955837,000001D2,false,Rx,0,8,22,99,29,22,22,22,99,99,
18446744073450957561,000001D0,false,Rx,0,8,22,99,29,22,22,22,99,99,
18446744073450962906,00000104,false,Rx,0,8,00,00,00,00,00,00,E0,64,
18446744073450963453,00000205,false,Rx,0,8,34,34,40,42,38,00,00,00,
18446744073450966950,00000101,false,Rx,0,8,00,00,00,00,00,00,E0,88,
18446744073450967654,00000103,false,Rx,0,8,00,00,00,00,00,00,E0,42,
18446744073450967870,00000102,false,Rx,0,8,00,00,00,00,00,00,E0,27,
18446744073450969446,00000105,false,Rx,0,8,00,00,00,00,00,00,00,B3,
18446744073450969738,00000100,false,Rx,0,8,00,00,00,00,00,00,E0,ED,
18446744073450978807,00000080,false,Rx,0,8,C7,10,00,00,60,01,A0,A8,
18446744073450979019,00000081,false,Rx,0,8,C7,10,00,00,60,01,A0,CD,
18446744073450979305,00000082,false,Rx,0,8,C7,10,00,00,60,01,A0,62,
18446744073450979509,00000083,false,Rx,0,8,C7,10,00,00,60,01,A0,07,
18446744073450979713,00000084,false,Rx,0,8,C7,10,00,00,60,01,A0,21,
18446744073450980009,00000085,false,Rx,0,8,C7,10,00,00,60,01,A0,44,
18446744073450980213,00000110,false,Rx,0,8,11,00,33,00,00,00,00,00,
18446744073450980500,00000111,false,Rx,0,8,11,00,33,00,00,00,00,00,
18446744073450980704,00000112,false,Rx,0,8,11,00,33,00,00,00,00,00,
18446744073450981000,00000113,false,Rx,0,8,11,00,33,00,00,00,00,00,
18446744073450981204,00000114,false,Rx,0,8,11,00,33,00,00,00,00,00,
18446744073450981491,00000115,false,Rx,0,8,11,00,33,00,00,00,00,00,
18446744073450983982,000001C4,false,Rx,0,8,22,11,92,22,22,22,42,22,
18446744073450986880,00000184,false,Rx,0,8,35,35,35,5F,00,40,70,21,
18446744073450987962,00000181,false,Rx,0,8,35,35,35,5F,00,40,70,CD,
18446744073450988166,00000124,false,Rx,0,8,19,0E,19,0E,18,0E,80,84,
18446744073450988619,000001C3,false,Rx,0,8,22,11,92,22,22,22,42,22,
18446744073450988825,00000180,false,Rx,0,8,34,35,34,5F,00,40,70,9F,
18446744073450989036,00000121,false,Rx,0,8,19,0E,17,0E,18,0E,80,7E,
18446744073450989322,00000134,false,Rx,0,8,18,0E,18,0E,18,0E,80,AD,
18446744073450989526,00000182,false,Rx,0,8,35,36,35,5F,00,40,70,A8,
18446744073450989731,00000120,false,Rx,0,8,1A,0E,1A,0E,1A,0E,80,57,
18446744073450996299,00000122,false,Rx,0,8,1B,0E,1B,0E,1B,0E,80,25,
18446744073450996388,00000131,false,Rx,0,8,18,0E,18,0E,17,0E,80,C7,
18446744073450996509,00000144,false,Rx,0,8,18,0E,19,0E,18,0E,80,9D,
18446744073450996596,00000130,false,Rx,0,8,1A,0E,19,0E,19,0E,80,7B,
18446744073450996715,00000123,false,Rx,0,8,18,0E,19,0E,18,0E,80,FF,
18446744073450996804,00000132,false,Rx,0,8,1B,0E,1B,0E,1A,0E,80,B4,
18446744073450996892,00000141,false,Rx,0,8,17,0E,17,0E,17,0E,80,BD,
18446744073450997011,00000154,false,Rx,0,8,18,0E,18,0E,19,0E,80,66,
18446744073450997099,00000133,false,Rx,0,8,19,0E,19,0E,19,0E,80,33,
18446744073450997228,00000140,false,Rx,0,8,19,0E,18,0E,19,0E,80,AC,
18446744073450997315,00000142,false,Rx,0,8,1A,0E,1B,0E,1B,0E,80,3C,
18446744073450997435,00000151,false,Rx,0,8,18,0E,18,0E,17,0E,80,83,
18446744073450997523,00000150,false,Rx,0,8,18,0E,19,0E,18,0E,80,0A,
18446744073450997610,00000143,false,Rx,0,8,19,0E,18,0E,18,0E,80,8C,
18446744073450997731,00000152,false,Rx,0,8,1C,0E,1B,0E,1A,0E,80,7E,
18446744073450997819,00000161,false,Rx,0,8,17,0E,18,0E,18,0E,80,7B,
18446744073450997948,00000160,false,Rx,0,8,19,0E,19,0E,1A,0E,80,76,
18446744073450998035,00000153,false,Rx,0,8,19,0E,18,0E,18,0E,80,92,
18446744073450998155,00000162,false,Rx,0,8,1A,0E,1B,0E,1B,0E,80,00,
18446744073450998243,00000164,false,Rx,0,8,18,0E,18,0E,18,0E,80,CB,
18446744073450998331,00000171,false,Rx,0,8,18,0E,00,00,00,00,80,AE,
18446744073450998418,00000163,false,Rx,0,8,19,0E,19,0E,1A,0E,80,D9,
18446744073450998538,00000170,false,Rx,0,8,19,0E,00,00,00,00,80,96,
18446744073450998626,00000172,false,Rx,0,8,1B,0E,00,00,00,00,80,E6,
18446744073450998749,00000174,false,Rx,0,8,18,0E,00,00,00,00,80,42,
18446744073450998837,00000173,false,Rx,0,8,19,0E,00,00,00,00,80,39,
18446744073450998932,00000183,false,Rx,0,8,35,35,35,5F,00,40,70,07,
18446744073450999019,000001C1,false,Rx,0,8,22,11,92,22,22,22,42,22,
18446744073450999107,00000185,false,Rx,0,8,34,34,34,5F,00,40,70,35,
18446744073450999195,000001E0,false,Rx,0,8,D5,70,00,00,00,00,80,53,
18446744073450999282,000001C2,false,Rx,0,8,22,11,92,22,22,22,42,22,
18446744073450999403,000001E1,false,Rx,0,8,CC,70,00,00,00,00,80,00,
18446744073450999491,00000125,false,Rx,0,8,1B,0E,1B,0E,1A,0E,80,8C,
18446744073450999578,000001E2,false,Rx,0,8,D1,70,00,00,00,00,80,F0,
18446744073450999666,000001E3,false,Rx,0,8,D2,70,00,00,00,00,80,72,
18446744073450999757,000001E4,false,Rx,0,8,C4,70,00,00,00,00,80,3E,
18446744073450999845,00000135,false,Rx,0,8,1A,0E,1A,0E,1A,0E,80,A5,
18446744073450999941,000001C0,false,Rx,0,8,22,11,92,22,22,22,42,22,
18446744073451000028,00000145,false,Rx,0,8,19,0E,1A,0E,19,0E,80,94,
18446744073451000398,00000155,false,Rx,0,8,1A,0E,1A,0E,19,0E,80,6D,
18446744073451001446,00000165,false,Rx,0,8,19,0E,1A,0E,1A,0E,80,24,
18446744073451002410,00000175,false,Rx,0,8,1A,0E,00,00,00,00,80,9D,
18446744073451003459,000001E5,false,Rx,0,8,E3,70,00,00,00,00,80,BA,
18446744073451015982,00000204,false,Rx,0,8,35,35,40,35,38,00,00,00,
18446744073451019808,00000201,false,Rx,0,8,35,35,40,3D,39,00,00,00,
18446744073451020437,00000203,false,Rx,0,8,35,35,40,41,37,00,00,00,
18446744073451020641,00000202,false,Rx,0,8,35,36,40,3F,39,00,00,00,
18446744073451021860,00000104,false,Rx,0,8,00,00,00,00,00,00,00,D6,
18446744073451022489,00000200,false,Rx,0,8,34,35,40,3A,39,00,00,00,
18446744073451025895,00000101,false,Rx,0,8,00,00,00,00,00,00,00,3A,
18446744073451026452,00000103,false,Rx,0,8,00,00,00,00,00,00,00,F0,
18446744073451026655,00000102,false,Rx,0,8,00,00,00,00,00,00,00,95,
18446744073451028382,00000105,false,Rx,0,8,00,00,00,00,00,00,10,7E,
18446744073451028669,00000100,false,Rx,0,8,00,00,00,00,00,00,00,5F,
18446744073451071952,00000104,false,Rx,0,8,00,00,00,00,00,00,10,1B,
18446744073451072240,00000205,false,Rx,0,8,34,34,40,42,38,00,00,00,
18446744073451075812,00000101,false,Rx,0,8,00,00,00,00,00,00,10,F7,
18446744073451076525,00000103,false,Rx,0,8,00,00,00,00,00,00,10,3D,
18446744073451076729,00000102,false,Rx,0,8,00,00,00,00,00,00,10,58,
18446744073451078286,00000105,false,Rx,0,8,00,00,00,00,00,00,20,34,
18446744073451078489,00000100,false,Rx,0,8,00,00,00,00,00,00,10,92,
18446744073451079204,00000080,false,Rx,0,8,C7,10,00,00,60,01,B0,65,
18446744073451079406,00000081,false,Rx,0,8,C7,10,00,00,60,01,B0,00,
18446744073451079694,00000082,false,Rx,0,8,C7,10,00,00,60,01,B0,AF,
18446744073451079898,00000083,false,Rx,0,8,C7,10,00,00,60,01,B0,CA,
18446744073451080109,00000084,false,Rx,0,8,C7,10,00,00,60,01,B0,EC,
18446744073451080396,00000085,false,Rx,0,8,C7,10,00,00,60,01,B0,89,
18446744073451080598,00000110,false,Rx,0,8,11,00,33,00,00,00,00,00,
18446744073451080888,00000111,false,Rx,0,8,11,00,33,00,00,00,00,00,
18446744073451081100,00000112,false,Rx,0,8,11,00,33,00,00,00,00,00,
18446744073451081387,00000113,false,Rx,0,8,11,00,33,00,00,00,00,00,
18446744073451081590,00000114,false,Rx,0,8,11,00,33,00,00,00,00,00,
18446744073451081879,00000115,false,Rx,0,8,11,00,33,00,00,00,00,00,
18446744073451082259,00000125,false,Rx,0,8,1B,0E,1B,0E,1A,0E,90,41,
18446744073451083139,00000135,false,Rx,0,8,1A,0E,19,0E,1A,0E,90,D6,
18446744073451084271,00000145,false,Rx,0,8,19,0E,1A,0E,19,0E,90,59,
18446744073451085236,00000155,false,Rx,0,8,1B,0E,1A,0E,19,0E,90,FD,
18446744073451086202,00000165,false,Rx,0,8,1A,0E,1A,0E,1A,0E,90,0E,
18446744073451087166,00000175,false,Rx,0,8,1A,0E,00,00,00,00,90,50,
18446744073451088215,000001E5,false,Rx,0,8,D7,70,00,00,00,00,90,C8,
18446744073451090277,000000A0,false,Rx,0,8,37,03,00,00,00,00,FF,FF,
18446744073451090983,00000184,false,Rx,0,8,35,35,35,5F,00,40,80,5E,
18446744073451091437,00000193,false,Rx,0,8,38,34,38,32,39,34,30,30,
18446744073451091725,000001A3,false,Rx,0,8,32,00,01,09,75,00,01,10,
18446744073451091936,00000181,false,Rx,0,8,35,35,35,5F,00,40,80,B2,
18446744073451092139,00000124,false,Rx,0,8,19,0E,19,0E,18,0E,90,49,
18446744073451092593,00000180,false,Rx,0,8,34,35,34,5F,00,40,80,E0,
18446744073451092801,00000182,false,Rx,0,8,35,36,35,5F,00,40,80,D7,
18446744073451093013,00000121,false,Rx,0,8,19,0E,17,0E,18,0E,90,B3,
18446744073451093299,00000134,false,Rx,0,8,18,0E,18,0E,18,0E,90,60,
18446744073451093503,00000183,false,Rx,0,8,35,35,35,5F,00,40,80,78,
18446744073451093707,00000120,false,Rx,0,8,19,0E,1A,0E,19,0E,90,F1,
18446744073451093912,00000122,false,Rx,0,8,1B,0E,1B,0E,1B,0E,90,E8,
18446744073451094207,00000131,false,Rx,0,8,18,0E,18,0E,17,0E,90,0A,
18446744073451094411,00000144,false,Rx,0,8,18,0E,19,0E,19,0E,90,DF,
18446744073451094614,00000123,false,Rx,0,8,18,0E,19,0E,18,0E,90,32,
18446744073451094903,00000130,false,Rx,0,8,1A,0E,19,0E,19,0E,90,B6,
18446744073451095115,00000132,false,Rx,0,8,1B,0E,1B,0E,1B,0E,90,F6,
18446744073451095319,00000141,false,Rx,0,8,17,0E,17,0E,17,0E,90,70,
18446744073451095523,00000133,false,Rx,0,8,19,0E,19,0E,19,0E,90,FE,
18446744073451095816,00000140,false,Rx,0,8,19,0E,19,0E,19,0E,90,0B,
18446744073451096028,00000142,false,Rx,0,8,1A,0E,1B,0E,1B,0E,90,F1,
18446744073451096231,00000151,false,Rx,0,8,18,0E,18,0E,17,0E,90,4E,
18446744073451096435,00000154,false,Rx,0,8,18,0E,18,0E,19,0E,90,AB,
18446744073451096722,00000143,false,Rx,0,8,19,0E,18,0E,18,0E,90,41,
18446744073451096933,00000150,false,Rx,0,8,18,0E,19,0E,18,0E,90,C7,
18446744073451097137,00000152,false,Rx,0,8,1C,0E,1B,0E,1A,0E,90,B3,
18446744073451097424,00000161,false,Rx,0,8,17,0E,17,0E,18,0E,90,CA,
18446744073451097628,00000153,false,Rx,0,8,19,0E,18,0E,19,0E,90,D0,
18446744073451097832,00000160,false,Rx,0,8,19,0E,19,0E,1A,0E,90,BB,
18446744073451098043,00000162,false,Rx,0,8,1B,0E,1B,0E,1A,0E,90,1F,
18446744073451098331,00000164,false,Rx,0,8,18,0E,18,0E,18,0E,90,06,
18446744073451098534,00000163,false,Rx,0,8,19,0E,19,0E,1A,0E,90,14,
18446744073451098824,00000170,false,Rx,0,8,19,0E,00,00,00,00,90,5B,
18446744073451099035,00000171,false,Rx,0,8,17,0E,00,00,00,00,90,3F,
18446744073451099239,00000172,false,Rx,0,8,1B,0E,00,00,00,00,90,2B,
18446744073451099525,00000173,false,Rx,0,8,19,0E,00,00,00,00,90,F4,
18446744073451099731,00000174,false,Rx,0,8,18,0E,00,00,00,00,90,8F,
18446744073451100026,000001E0,false,Rx,0,8,E1,70,00,00,00,00,90,21,
18446744073451100230,00000185,false,Rx,0,8,34,34,34,5F,00,40,80,4A,
18446744073451100432,000001E1,false,Rx,0,8,CC,70,00,00,00,00,90,CD,
18446744073451100719,000001E2,false,Rx,0,8,C5,70,00,00,00,00,90,ED,
18446744073451100924,000001E3,false,Rx,0,8,DE,70,00,00,00,00,90,04,
18446744073451101218,000001E4,false,Rx,0,8,C4,70,00,00,00,00,90,F3,
18446744073451124956,00000204,false,Rx,0,8,35,35,40,35,38,00,00,00,
18446744073451125160,000001D5,false,Rx,0,8,22,99,29,22,22,22,99,99,
18446744073451128658,00000201,false,Rx,0,8,35,35,40,3D,39,00,00,00,
18446744073451129375,00000203,false,Rx,0,8,35,35,40,41,37,00,00,00,
18446744073451129579,00000202,false,Rx,0,8,35,36,40,3F,39,00,00,00,
18446744073451130879,00000104,false,Rx,0,8,00,00,00,00,00,00,20,51,
18446744073451131425,00000200,false,Rx,0,8,34,35,40,39,39,00,00,00,
18446744073451134761,00000101,false,Rx,0,8,00,00,00,00,00,00,20,BD,
18446744073451135473,00000103,false,Rx,0,8,00,00,00,00,00,00,20,77,
18446744073451135677,00000102,false,Rx,0,8,00,00,00,00,00,00,20,12,
18446744073451137070,00000105,false,Rx,0,8,00,00,00,00,00,00,30,F9,
18446744073451137440,00000100,false,Rx,0,8,00,00,00,00,00,00,20,D8,
18446744073451157131,000001C5,false,Rx,0,8,22,11,92,22,22,22,42,22,
18446744073451169924,000001D4,false,Rx,0,8,22,99,29,22,22,22,99,99,
18446744073451172777,000001D1,false,Rx,0,8,22,99,29,22,22,22,99,99,
18446744073451173406,000001D3,false,Rx,0,8,22,99,29,22,22,22,99,99,
18446744073451173610,000001D2,false,Rx,0,8,22,99,29,22,22,22,99,99,
18446744073451175344,000001D0,false,Rx,0,8,22,99,29,22,22,22,99,99,
18446744073451178747,00000080,false,Rx,0,8,C7,10,00,00,60,01,C0,3C,
18446744073451179041,00000081,false,Rx,0,8,C7,10,00,00,60,01,C0,59,
18446744073451179245,00000082,false,Rx,0,8,C7,10,00,00,60,01,C0,F6,
18446744073451179532,00000083,false,Rx,0,8,C7,10,00,00,60,01,C0,93,
18446744073451179738,00000084,false,Rx,0,8,C7,10,00,00,60,01,C0,B5,
18446744073451179943,00000085,false,Rx,0,8,C7,10,00,00,60,01,C0,D0,
18446744073451180230,00000110,false,Rx,0,8,11,00,33,00,00,00,00,00,
18446744073451180433,00000111,false,Rx,0,8,11,00,33,00,00,00,00,00,
18446744073451180721,00000112,false,Rx,0,8,11,00,33,00,00,00,00,00,
18446744073451180933,00000113,false,Rx,0,8,11,00,33,00,00,00,00,00,
18446744073451181220,00000114,false,Rx,0,8,11,00,33,00,00,00,00,00,
18446744073451181423,00000115,false,Rx,0,8,11,00,33,00,00,00,00,00,
18446744073451181711,00000120,false,Rx,0,8,19,0E,1A,0E,1A,0E,A0,37,
18446744073451181917,00000123,false,Rx,0,8,18,0E,19,0E,18,0E,A0,78,
18446744073451182128,00000104,false,Rx,0,8,00,00,00,00,00,00,30,9C,
18446744073451182416,00000125,false,Rx,0,8,1B,0E,1B,0E,1A,0E,A0,0B,
18446744073451182620,00000130,false,Rx,0,8,1A,0E,19,0E,19,0E,A0,FC,
18446744073451182825,00000133,false,Rx,0,8,19,0E,19,0E,19,0E,A0,B4,
18446744073451183120,00000140,false,Rx,0,8,19,0E,18,0E,19,0E,A0,2B,
18446744073451183324,00000135,false,Rx,0,8,1A,0E,19,0E,1A,0E,A0,9C,
18446744073451183528,00000143,false,Rx,0,8,19,0E,18,0E,19,0E,A0,84,
18446744073451183822,00000150,false,Rx,0,8,18,0E,19,0E,18,0E,A0,8D,
18446744073451184118,00000145,false,Rx,0,8,19,0E,19,0E,1A,0E,A0,21,
18446744073451184321,00000153,false,Rx,0,8,19,0E,18,0E,18,0E,A0,15,
18446744073451184609,00000160,false,Rx,0,8,19,0E,19,0E,1A,0E,A0,F1,
18446744073451185155,00000155,false,Rx,0,8,1B,0E,1A,0E,19,0E,A0,B7,
18446744073451185359,00000170,false,Rx,0,8,19,0E,00,00,00,00,A0,11,
18446744073451185562,00000163,false,Rx,0,8,19,0E,19,0E,1A,0E,A0,5E,
18446744073451185853,00000101,false,Rx,0,8,00,00,00,00,00,00,30,70,
18446744073451186148,00000165,false,Rx,0,8,1A,0E,1A,0E,1B,0E,A0,CB,
18446744073451186351,00000173,false,Rx,0,8,19,0E,00,00,00,00,A0,BE,
18446744073451186639,000001E0,false,Rx,0,8,D5,70,00,00,00,00,A0,D4,
18446744073451186846,00000102,false,Rx,0,8,00,00,00,00,00,00,30,DF,
18446744073451187224,00000175,false,Rx,0,8,1A,0E,00,00,00,00,A0,1A,
18446744073451187427,000001E3,false,Rx,0,8,DE,70,00,00,00,00,A0,4E,
18446744073451188141,000001E5,false,Rx,0,8,E3,70,00,00,00,00,A0,3D,
18446744073451189105,00000205,false,Rx,0,8,34,34,40,42,38,00,00,00,
18446744073451193355,00000103,false,Rx,0,8,00,00,00,00,00,00,30,BA,
18446744073451194997,00000184,false,Rx,0,8,35,35,35,5F,00,40,90,93,
18446744073451195284,00000105,false,Rx,0,8,00,00,00,00,00,00,40,A0,
18446744073451195487,00000100,false,Rx,0,8,00,00,00,00,00,00,30,15,
18446744073451195777,00000181,false,Rx,0,8,35,35,35,5F,00,40,90,7F,
18446744073451196072,00000124,false,Rx,0,8,19,0E,19,0E,18,0E,A0,03,
18446744073451196276,00000180,false,Rx,0,8,34,35,34,5F,00,40,90,2D,
18446744073451196647,00000182,false,Rx,0,8,35,36,35,5F,00,40,90,1A,
18446744073451196854,00000121,false,Rx,0,8,19,0E,17,0E,18,0E,A0,F9,
18446744073451197063,00000134,false,Rx,0,8,18,0E,18,0E,18,0E,A0,2A,
18446744073451197351,00000183,false,Rx,0,8,35,35,35,5F,00,40,90,B5,
18446744073451197554,00000122,false,Rx,0,8,1B,0E,1B,0E,1B,0E,A0,A2,
18446744073451197843,00000131,false,Rx,0,8,18,0E,18,0E,17,0E,A0,40,
18446744073451198055,00000144,false,Rx,0,8,18,0E,19,0E,18,0E,A0,1A,
18446744073451198676,00000132,false,Rx,0,8,1B,0E,1B,0E,1B,0E,A0,BC,
18446744073451198882,00000141,false,Rx,0,8,17,0E,17,0E,17,0E,A0,3A,
18446744073451199093,00000154,false,Rx,0,8,18,0E,19,0E,19,0E,A0,8B,
18446744073451199631,00000142,false,Rx,0,8,1A,0E,1B,0E,1B,0E,A0,BB,
18446744073451199836,00000151,false,Rx,0,8,18,0E,18,0E,17,0E,A0,04,
18446744073451200048,00000164,false,Rx,0,8,18,0E,18,0E,18,0E,A0,4C,
18446744073451200668,00000152,false,Rx,0,8,1C,0E,1B,0E,1A,0E,A0,F9,
18446744073451200873,00000161,false,Rx,0,8,17,0E,17,0E,18,0E,A0,80,
18446744073451201085,00000174,false,Rx,0,8,19,0E,00,00,00,00,A0,98,
18446744073451201568,00000162,false,Rx,0,8,1A,0E,1A,0E,1A,0E,A0,62,
18446744073451201773,00000171,false,Rx,0,8,18,0E,00,00,00,00,A0,29,
18446744073451202069,000001E4,false,Rx,0,8,D0,70,00,00,00,00,A0,69,
18446744073451202606,00000172,false,Rx,0,8,1B,0E,00,00,00,00,A0,61,
18446744073451202895,000001E1,false,Rx,0,8,CC,70,00,00,00,00,A0,87,
18446744073451203608,000001E2,false,Rx,0,8,D1,70,00,00,00,00,A0,77,
18446744073451204155,00000185,false,Rx,0,8,34,34,34,5F,00,40,90,87,
18446744073451209919,000001C4,false,Rx,0,8,22,11,92,22,22,22,42,22,
18446744073451213665,000001C1,false,Rx,0,8,22,11,92,22,22,22,42,22,
18446744073451214299,000001C3,false,Rx,0,8,22,11,92,22,22,22,42,22,
18446744073451214586,000001C2,false,Rx,0,8,22,11,92,22,22,22,42,22,
18446744073451216229,000001C0,false,Rx,0,8,22,11,92,22,22,22,42,22,
18446744073451234106,00000204,false,Rx,0,8,35,35,40,35,38,00,00,00,
18446744073451237678,00000201,false,Rx,0,8,35,35,40,3D,39,00,00,00,
18446744073451238549,00000203,false,Rx,0,8,35,35,40,41,37,00,00,00,
18446744073451238637,00000202,false,Rx,0,8,35,36,40,3F,39,00,00,00,
18446744073451239873,00000104,false,Rx,0,8,00,00,00,00,00,00,40,C5,
18446744073451240251,00000200,false,Rx,0,8,34,35,40,39,39,00,00,00,
18446744073451243655,00000101,false,Rx,0,8,00,00,00,00,00,00,40,29,
18446744073451244314,00000103,false,Rx,0,8,00,00,00,00,00,00,40,E3,
18446744073451244600,00000102,false,Rx,0,8,00,00,00,00,00,00,40,86,
18446744073451246159,00000105,false,Rx,0,8,00,00,00,00,00,00,50,6D,
18446744073451246446,00000100,false,Rx,0,8,00,00,00,00,00,00,40,4C,
18446744073451250279,000000A0,false,Rx,0,8,37,04,00,00,00,00,FF,FF,
18446744073451250821,00000194,false,Rx,0,8,38,34,38,32,39,34,30,30,
18446744073451251033,000001A4,false,Rx,0,8,32,00,01,09,75,00,14,02,
18446744073451278768,00000080,false,Rx,0,8,C7,10,00,00,60,01,D0,F1,
18446744073451278970,00000081,false,Rx,0,8,C7,10,00,00,60,01,D0,94,
18446744073451279266,00000082,false,Rx,0,8,C7,10,00,00,60,01,D0,3B,
18446744073451279469,00000083,false,Rx,0,8,C7,10,00,00,60,01,D0,5E,
18446744073451279672,00000084,false,Rx,0,8,C7,10,00,00,60,01,D0,78,
18446744073451279970,00000085,false,Rx,0,8,C7,10,00,00,60,01,D0,1D,
18446744073451280173,00000110,false,Rx,0,8,11,00,33,00,00,00,00,00,
18446744073451280460,00000111,false,Rx,0,8,11,00,33,00,00,00,00,00,
18446744073451280664,00000112,false,Rx,0,8,11,00,33,00,00,00,00,00,
18446744073451280962,00000113,false,Rx,0,8,11,00,33,00,00,00,00,00,
18446744073451281166,00000114,false,Rx,0,8,11,00,33,00,00,00,00,00,
18446744073451281453,00000115,false,Rx,0,8,11,00,33,00,00,00,00,00,
18446744073451281657,00000120,false,Rx,0,8,19,0E,1A,0E,19,0E,B0,76,
18446744073451281862,00000121,false,Rx,0,8,18,0E,17,0E,18,0E,B0,69,
18446744073451282073,00000122,false,Rx,0,8,1B,0E,1B,0E,1B,0E,B0,6F,
18446744073451282361,00000123,false,Rx,0,8,18,0E,19,0E,18,0E,B0,B5,
18446744073451282564,00000124,false,Rx,0,8,19,0E,19,0E,18,0E,B0,CE,
18446744073451282770,00000130,false,Rx,0,8,1A,0E,19,0E,19,0E,B0,31,
18446744073451283064,00000131,false,Rx,0,8,18,0E,18,0E,17,0E,B0,8D,
18446744073451283268,00000132,false,Rx,0,8,1B,0E,1B,0E,1B,0E,B0,71,
18446744073451283472,00000125,false,Rx,0,8,1B,0E,1B,0E,1A,0E,B0,C6,
18446744073451283675,00000133,false,Rx,0,8,19,0E,19,0E,19,0E,B0,79,
18446744073451283972,00000134,false,Rx,0,8,18,0E,18,0E,18,0E,B0,E7,
18446744073451290277,00000140,false,Rx,0,8,19,0E,18,0E,19,0E,B0,E6,
18446744073451290366,00000135,false,Rx,0,8,1A,0E,19,0E,1A,0E,B0,51,
18446744073451290486,00000141,false,Rx,0,8,17,0E,17,0E,17,0E,B0,F7,
18446744073451290574,00000142,false,Rx,0,8,1A,0E,1B,0E,1B,0E,B0,76,
18446744073451290694,00000143,false,Rx,0,8,19,0E,18,0E,18,0E,B0,C6,
18446744073451290783,00000144,false,Rx,0,8,18,0E,19,0E,19,0E,B0,58,
18446744073451290871,00000145,false,Rx,0,8,19,0E,19,0E,1A,0E,B0,EC,
18446744073451290999,00000150,false,Rx,0,8,18,0E,19,0E,18,0E,B0,40,
18446744073451291086,00000151,false,Rx,0,8,18,0E,18,0E,17,0E,B0,C9,
18446744073451291207,00000152,false,Rx,0,8,1C,0E,1B,0E,1A,0E,B0,34,
18446744073451291294,00000153,false,Rx,0,8,19,0E,18,0E,19,0E,B0,57,
18446744073451291414,00000154,false,Rx,0,8,18,0E,19,0E,19,0E,B0,46,
18446744073451291502,00000155,false,Rx,0,8,1A,0E,1A,0E,19,0E,B0,27,
18446744073451291590,00000160,false,Rx,0,8,19,0E,19,0E,1A,0E,B0,3C,
18446744073451291677,00000161,false,Rx,0,8,17,0E,17,0E,18,0E,B0,4D,
18446744073451291767,00000162,false,Rx,0,8,1B,0E,1A,0E,1B,0E,B0,7D,
18446744073451291855,00000163,false,Rx,0,8,19,0E,19,0E,1A,0E,B0,93,
18446744073451291949,00000164,false,Rx,0,8,18,0E,18,0E,18,0E,B0,81,
18446744073451292037,00000165,false,Rx,0,8,19,0E,1A,0E,1A,0E,B0,6E,
18446744073451292125,00000170,false,Rx,0,8,19,0E,00,00,00,00,B0,DC,
18446744073451292212,00000171,false,Rx,0,8,18,0E,00,00,00,00,B0,E4,
18446744073451292300,00000172,false,Rx,0,8,1B,0E,00,00,00,00,B0,AC,
18446744073451292388,00000173,false,Rx,0,8,19,0E,00,00,00,00,B0,73,
18446744073451292475,00000174,false,Rx,0,8,18,0E,00,00,00,00,B0,08,
18446744073451292563,00000175,false,Rx,0,8,1A,0E,00,00,00,00,B0,D7,
18446744073451292651,00000185,false,Rx,0,8,34,34,34,5F,00,40,A0,CD,
18446744073451292741,000001E0,false,Rx,0,8,D5,70,00,00,00,00,B0,19,
18446744073451292828,000001E1,false,Rx,0,8,CC,70,00,00,00,00,B0,4A,
18446744073451292916,000001E2,false,Rx,0,8,D1,70,00,00,00,00,B0,BA,
18446744073451293012,000001E3,false,Rx,0,8,D2,70,00,00,00,00,B0,38,
18446744073451293100,000001E4,false,Rx,0,8,C4,70,00,00,00,00,B0,74,
18446744073451293187,000001E5,false,Rx,0,8,D7,70,00,00,00,00,B0,4F,
18446744073451297775,00000104,false,Rx,0,8,00,00,00,00,00,00,50,08,
18446744073451298741,00000184,false,Rx,0,8,35,35,35,5F,00,40,A0,D9,
18446744073451299286,00000205,false,Rx,0,8,34,34,40,42,38,00,00,00,
18446744073451299572,00000181,false,Rx,0,8,35,35,35,5F,00,40,A0,35,
18446744073451300202,00000180,false,Rx,0,8,34,35,34,5F,00,40,A0,67,
18446744073451300744,00000182,false,Rx,0,8,35,36,35,5F,00,40,A0,50,
18446744073451301373,00000183,false,Rx,0,8,35,35,35,5F,00,40,A0,FF,
18446744073451302588,00000101,false,Rx,0,8,00,00,00,00,00,00,50,E4,
18446744073451303388,00000103,false,Rx,0,8,00,00,00,00,00,00,50,2E,
18446744073451303674,00000102,false,Rx,0,8,00,00,00,00,00,00,50,4B,
18446744073451305161,00000100,false,Rx,0,8,00,00,00,00,00,00,50,81,
18446744073451305448,00000105,false,Rx,0,8,00,00,00,00,00,00,60,27,
18446744073451347839,00000204,false,Rx,0,8,35,35,40,35,38,00,00,00,
18446744073451347936,000001D5,false,Rx,0,8,22,99,29,22,22,22,99,99,
18446744073451348024,00000201,false,Rx,0,8,35,35,40,3D,39,00,00,00,
18446744073451348111,00000203,false,Rx,0,8,35,35,40,42,37,00,00,00,
18446744073451348199,00000202,false,Rx,0,8,35,36,40,3F,39,00,00,00,
18446744073451348739,00000104,false,Rx,0,8,00,00,00,00,00,00,60,42,
18446744073451349285,00000200,false,Rx,0,8,34,35,40,3A,39,00,00,00,
18446744073451352606,00000101,false,Rx,0,8,00,00,00,00,00,00,60,AE,
18446744073451353405,00000103,false,Rx,0,8,00,00,00,00,00,00,60,64,
18446744073451353692,00000102,false,Rx,0,8,00,00,00,00,00,00,60,01,
18446744073451355251,00000100,false,Rx,0,8,00,00,00,00,00,00,60,CB,
18446744073451355454,00000105,false,Rx,0,8,00,00,00,00,00,00,70,EA,
18446744073451375312,000001C5,false,Rx,0,8,22,11,92,22,22,22,42,22,
18446744073451378760,00000080,false,Rx,0,8,C7,10,00,00,60,01,E0,BB,
18446744073451378974,00000081,false,Rx,0,8,C7,10,00,00,60,01,E0,DE,
18446744073451379261,00000082,false,Rx,0,8,C7,10,00,00,60,01,E0,71,
18446744073451379464,00000083,false,Rx,0,8,C7,10,00,00,60,01,E0,14,
18446744073451379754,00000084,false,Rx,0,8,C7,10,00,00,60,01,E0,32,
18446744073451379966,00000085,false,Rx,0,8,C7,10,00,00,60,01,E0,57,
18446744073451380170,00000110,false,Rx,0,8,11,00,33,00,00,00,00,00,
18446744073451380457,00000111,false,Rx,0,8,11,00,33,00,00,00,00,00,
18446744073451380661,00000112,false,Rx,0,8,11,00,33,00,00,00,00,00,
18446744073451380959,00000113,false,Rx,0,8,11,00,33,00,00,00,00,00,
18446744073451381163,00000114,false,Rx,0,8,11,00,33,00,00,00,00,00,
18446744073451381450,00000120,false,Rx,0,8,1A,0E,1A,0E,19,0E,C0,C8,
18446744073451381653,00000115,false,Rx,0,8,11,00,33,00,00,00,00,00,
18446744073451381859,00000121,false,Rx,0,8,19,0E,17,0E,18,0E,C0,6D,
18446744073451382155,00000122,false,Rx,0,8,1B,0E,1B,0E,1B,0E,C0,36,
18446744073451382358,00000123,false,Rx,0,8,18,0E,19,0E,18,0E,C0,EC,
18446744073451382562,00000124,false,Rx,0,8,19,0E,19,0E,18,0E,C0,97,
18446744073451382854,00000130,false,Rx,0,8,1A,0E,19,0E,19,0E,C0,68,
18446744073451383064,00000131,false,Rx,0,8,18,0E,18,0E,17,0E,C0,D4,
18446744073451383267,00000132,false,Rx,0,8,1B,0E,1B,0E,1B,0E,C0,28,
18446744073451383470,00000133,false,Rx,0,8,19,0E,19,0E,19,0E,C0,20,
18446744073451383761,00000134,false,Rx,0,8,18,0E,18,0E,18,0E,C0,BE,
18446744073451383972,00000140,false,Rx,0,8,19,0E,19,0E,19,0E,C0,D5,
18446744073451384174,00000141,false,Rx,0,8,17,0E,17,0E,17,0E,C0,AE,
18446744073451384462,00000142,false,Rx,0,8,1A,0E,1B,0E,1B,0E,C0,2F,
18446744073451384666,00000143,false,Rx,0,8,19,0E,18,0E,18,0E,C0,9F,
18446744073451384873,00000144,false,Rx,0,8,18,0E,19,0E,18,0E,C0,8E,
18446744073451385169,00000150,false,Rx,0,8,18,0E,19,0E,18,0E,C0,19,
18446744073451385373,00000151,false,Rx,0,8,18,0E,18,0E,17,0E,C0,90,
18446744073451385575,00000152,false,Rx,0,8,1C,0E,1B,0E,1A,0E,C0,6D,
18446744073451385781,00000153,false,Rx,0,8,19,0E,18,0E,19,0E,C0,0E,
18446744073451386077,00000154,false,Rx,0,8,18,0E,19,0E,19,0E,C0,1F,
18446744073451386280,00000160,false,Rx,0,8,19,0E,19,0E,1A,0E,C0,65,
18446744073451386484,00000161,false,Rx,0,8,17,0E,18,0E,18,0E,C0,68,
18446744073451386773,00000162,false,Rx,0,8,1A,0E,1B,0E,1B,0E,C0,13,
18446744073451386978,00000163,false,Rx,0,8,19,0E,19,0E,1A,0E,C0,CA,
18446744073451387182,00000164,false,Rx,0,8,18,0E,18,0E,18,0E,C0,D8,
18446744073451387469,00000170,false,Rx,0,8,19,0E,00,00,00,00,C0,85,
18446744073451387672,00000125,false,Rx,0,8,1B,0E,1B,0E,1A,0E,C0,9F,
18446744073451387971,00000171,false,Rx,0,8,18,0E,00,00,00,00,C0,BD,
18446744073451388175,00000172,false,Rx,0,8,1B,0E,00,00,00,00,C0,F5,
18446744073451388378,00000173,false,Rx,0,8,1A,0E,00,00,00,00,C0,CD,
18446744073451388665,00000135,false,Rx,0,8,1A,0E,19,0E,1A,0E,C0,08,
18446744073451388873,00000174,false,Rx,0,8,19,0E,00,00,00,00,C0,0C,
18446744073451389085,00000185,false,Rx,0,8,34,34,34,5F,00,40,B0,00,
18446744073451389373,000001E0,false,Rx,0,8,D5,70,00,00,00,00,C0,40,
18446744073451389576,00000145,false,Rx,0,8,19,0E,1A,0E,1A,0E,C0,0B,
18446744073451389865,000001E1,false,Rx,0,8,CC,70,00,00,00,00,C0,13,
18446744073451390077,000001E2,false,Rx,0,8,D1,70,00,00,00,00,C0,E3,
18446744073451390281,00000155,false,Rx,0,8,1A,0E,1A,0E,19,0E,C0,7E,
18446744073451390569,000001E3,false,Rx,0,8,DE,70,00,00,00,00,C0,DA,
18446744073451390774,000001E4,false,Rx,0,8,D0,70,00,00,00,00,C0,FD,
18446744073451391320,00000165,false,Rx,0,8,1A,0E,1A,0E,1A,0E,C0,D0,
18446744073451392285,00000175,false,Rx,0,8,1A,0E,00,00,00,00,C0,8E,
18446744073451393333,000001E5,false,Rx,0,8,E3,70,00,00,00,00,C0,A9,
18446744073451394632,000001D4,false,Rx,0,8,22,99,29,22,22,22,99,99,
18446744073451410368,000001D1,false,Rx,0,8,22,99,29,22,22,22,99,99,
18446744073451410457,000001D3,false,Rx,0,8,22,99,29,22,22,22,99,99,
18446744073451410545,000001D2,false,Rx,0,8,22,99,29,22,22,22,99,99,
18446744073451410632,000001D0,false,Rx,0,8,22,99,29,22,22,22,99,99,
18446744073451410720,00000184,false,Rx,0,8,35,35,35,5F,00,40,B0,14,
18446744073451410809,00000181,false,Rx,0,8,35,35,35,5F,00,40,B0,F8,
18446744073451410897,00000180,false,Rx,0,8,34,35,34,5F,00,40,B0,AA,
18446744073451410993,00000182,false,Rx,0,8,35,36,35,5F,00,40,B0,9D,
18446744073451411081,00000183,false,Rx,0,8,35,35,35,5F,00,40,B0,32,
18446744073451411168,00000104,false,Rx,0,8,00,00,00,00,00,00,70,8F,
18446744073451411289,00000205,false,Rx,0,8,34,34,40,42,38,00,00,00,
18446744073451411376,000000A0,false,Rx,0,8,37,05,00,00,00,00,FF,FF,
18446744073451411496,00000195,false,Rx,0,8,38,34,38,32,39,34,30,30,
18446744073451411584,000001A5,false,Rx,0,8,32,00,1F,08,75,00,14,82,
18446744073451411788,00000101,false,Rx,0,8,00,00,00,00,00,00,70,63,
18446744073451412333,00000103,false,Rx,0,8,00,00,00,00,00,00,70,A9,
18446744073451412704,00000102,false,Rx,0,8,00,00,00,00,00,00,70,CC,
18446744073451414262,00000100,false,Rx,0,8,00,00,00,00,00,00,70,06,
18446744073451414466,00000105,false,Rx,0,8,00,00,00,00,00,00,80,95,
18446744073451427675,000001C4,false,Rx,0,8,22,11,92,22,22,22,42,22,
18446744073451431589,000001C1,false,Rx,0,8,22,11,92,22,22,22,42,22,
18446744073451432315,000001C3,false,Rx,0,8,22,11,92,22,22,22,42,22,
18446744073451432602,000001C2,false,Rx,0,8,22,11,92,22,22,22,42,22,
18446744073451434159,000001C0,false,Rx,0,8,22,11,92,22,22,22,42,22,
18446744073451451592,00000204,false,Rx,0,8,35,35,40,36,38,00,00,00,
18446744073451455507,00000201,false,Rx,0,8,35,35,40,3E,39,00,00,00,
18446744073451456221,00000203,false,Rx,0,8,35,35,40,42,37,00,00,00,
18446744073451456760,00000202,false,Rx,0,8,35,36,40,40,39,00,00,00,
18446744073451457638,00000104,false,Rx,0,8,00,00,00,00,00,00,80,F0,
18446744073451458269,00000200,false,Rx,0,8,34,35,40,3A,39,00,00,00,
18446744073451465142,00000101,false,Rx,0,8,00,00,00,00,00,00,80,1C,
18446744073451465231,00000103,false,Rx,0,8,00,00,00,00,00,00,80,D6,
18446744073451465318,00000102,false,Rx,0,8,00,00,00,00,00,00,80,B3,
18446744073451465406,00000100,false,Rx,0,8,00,00,00,00,00,00,80,79,
18446744073451465494,00000105,false,Rx,0,8,00,00,00,00,00,00,90,58,
18446744073451478767,00000080,false,Rx,0,8,C7,10,00,00,60,01,00,09,
18446744073451478970,00000081,false,Rx,0,8,C7,10,00,00,60,01,00,6C,
18446744073451479265,00000082,false,Rx,0,8,C7,10,00,00,60,01,00,C3,
18446744073451479468,00000083,false,Rx,0,8,C7,10,00,00,60,01,00,A6,
18446744073451479671,00000084,false,Rx,0,8,C7,10,00,00,60,01,00,80,
18446744073451480000,00000085,false,Rx,0,8,C7,10,00,00,60,01,00,E5,
18446744073451480206,00000110,false,Rx,0,8,11,00,33,00,00,00,00,00,
18446744073451480409,00000111,false,Rx,0,8,11,00,33,00,00,00,00,00,
18446744073451480697,00000113,false,Rx,0,8,11,00,33,00,00,00,00,00,
18446744073451480902,00000112,false,Rx,0,8,11,00,33,00,00,00,00,00,
18446744073451481198,00000114,false,Rx,0,8,11,00,33,00,00,00,00,00,
18446744073451481401,00000115,false,Rx,0,8,11,00,33,00,00,00,00,00,
18446744073451481688,00000124,false,Rx,0,8,19,0E,19,0E,18,0E,D0,5A,
18446744073451481902,00000181,false,Rx,0,8,35,35,35,5F,00,40,C0,A1,
18446744073451482113,00000180,false,Rx,0,8,34,35,34,5F,00,40,C0,F3,
18446744073451482484,00000121,false,Rx,0,8,19,0E,17,0E,18,0E,D0,A0,
18446744073451482688,00000134,false,Rx,0,8,18,0E,18,0E,18,0E,D0,73,
18446744073451482984,00000182,false,Rx,0,8,35,36,35,5F,00,40,C0,C4,
18446744073451483188,00000183,false,Rx,0,8,35,35,35,5F,00,40,C0,6B,
18446744073451483392,00000120,false,Rx,0,8,19,0E,1A,0E,1A,0E,D0,6E,
18446744073451483678,00000131,false,Rx,0,8,18,0E,18,0E,17,0E,D0,19,
18446744073451483883,00000122,false,Rx,0,8,1B,0E,1B,0E,1B,0E,D0,FB,
18446744073451484095,00000130,false,Rx,0,8,1A,0E,19,0E,19,0E,D0,A5,
18446744073451484298,00000123,false,Rx,0,8,18,0E,19,0E,18,0E,D0,21,
18446744073451484586,00000141,false,Rx,0,8,17,0E,17,0E,17,0E,D0,63,
18446744073451484796,00000132,false,Rx,0,8,1B,0E,1B,0E,1B,0E,D0,E5,
18446744073451485007,00000144,false,Rx,0,8,18,0E,19,0E,18,0E,D0,43,
18446744073451485294,00000133,false,Rx,0,8,19,0E,19,0E,18,0E,D0,62,
18446744073451485497,00000140,false,Rx,0,8,19,0E,18,0E,19,0E,D0,72,
18446744073451485701,00000142,false,Rx,0,8,1A,0E,1B,0E,1B,0E,D0,E2,
18446744073451485906,00000151,false,Rx,0,8,18,0E,18,0E,17,0E,D0,5D,
18446744073451486201,00000143,false,Rx,0,8,19,0E,18,0E,18,0E,D0,52,
18446744073451486405,00000150,false,Rx,0,8,18,0E,19,0E,18,0E,D0,D4,
18446744073451486609,00000152,false,Rx,0,8,1C,0E,1B,0E,1A,0E,D0,A0,
18446744073451486898,00000154,false,Rx,0,8,18,0E,19,0E,19,0E,D0,D2,
18446744073451487110,00000161,false,Rx,0,8,17,0E,17,0E,18,0E,D0,D9,
18446744073451487313,00000153,false,Rx,0,8,19,0E,18,0E,19,0E,D0,C3,
18446744073451487517,00000160,false,Rx,0,8,19,0E,19,0E,1A,0E,D0,A8,
18446744073451487803,00000162,false,Rx,0,8,1A,0E,1B,0E,1B,0E,D0,DE,
18446744073451488015,00000164,false,Rx,0,8,18,0E,18,0E,19,0E,D0,9A,
18446744073451488219,00000163,false,Rx,0,8,19,0E,19,0E,1A,0E,D0,07,
18446744073451488505,00000170,false,Rx,0,8,19,0E,00,00,00,00,D0,48,
18446744073451488708,00000171,false,Rx,0,8,18,0E,00,00,00,00,D0,70,
18446744073451489005,00000172,false,Rx,0,8,1B,0E,00,00,00,00,D0,38,
18446744073451489209,00000173,false,Rx,0,8,19,0E,00,00,00,00,D0,E7,
18446744073451489412,00000174,false,Rx,0,8,19,0E,00,00,00,00,D0,C1,
18446744073451489699,000001E0,false,Rx,0,8,E1,70,00,00,00,00,D0,32,
18446744073451489904,000001E1,false,Rx,0,8,CC,70,00,00,00,00,D0,DE,
18446744073451490199,000001E2,false,Rx,0,8,D1,70,00,00,00,00,D0,2E,
18446744073451490403,00000185,false,Rx,0,8,34,34,34,5F,00,40,C0,59,
18446744073451490606,000001E3,false,Rx,0,8,D2,70,00,00,00,00,D0,AC,
18446744073451490895,000001E4,false,Rx,0,8,D0,70,00,00,00,00,D0,30,
18446744073451491357,00000125,false,Rx,0,8,1B,0E,1B,0E,1A,0E,D0,52,
18446744073451492322,00000135,false,Rx,0,8,1A,0E,19,0E,1A,0E,D0,C5,
18446744073451493370,00000145,false,Rx,0,8,19,0E,1A,0E,1A,0E,D0,C6,
18446744073451494334,00000155,false,Rx,0,8,1A,0E,1A,0E,19,0E,D0,B3,
18446744073451495299,00000165,false,Rx,0,8,19,0E,1A,0E,1A,0E,D0,FA,
18446744073451496346,00000175,false,Rx,0,8,1A,0E,00,00,00,00,D0,43,
18446744073451497394,000001E5,false,Rx,0,8,D7,70,00,00,00,00,D0,DB,
18446744073451506571,00000184,false,Rx,0,8,35,35,35,5F,00,40,C0,4D,
18446744073451526906,00000104,false,Rx,0,8,00,00,00,00,00,00,90,3D,
18446744073451527003,00000205,false,Rx,0,8,34,34,40,42,39,00,00,00,
18446744073451527091,00000101,false,Rx,0,8,00,00,00,00,00,00,90,D1,
18446744073451527179,00000103,false,Rx,0,8,00,00,00,00,00,00,90,1B,
18446744073451527266,00000102,false,Rx,0,8,00,00,00,00,00,00,90,7E,
18446744073451527354,00000100,false,Rx,0,8,00,00,00,00,00,00,90,B4,
18446744073451527442,00000105,false,Rx,0,8,00,00,00,00,00,00,A0,12,
18446744073451560633,00000204,false,Rx,0,8,35,35,40,35,39,00,00,00,
18446744073451561347,000001D5,false,Rx,0,8,22,99,29,22,22,22,99,99,
18446744073451564417,00000201,false,Rx,0,8,35,35,40,3E,39,00,00,00,
18446744073451565131,00000203,false,Rx,0,8,35,35,40,42,37,00,00,00,
18446744073451565585,00000202,false,Rx,0,8,35,36,40,3F,39,00,00,00,
18446744073451566632,00000104,false,Rx,0,8,00,00,00,00,00,00,A0,77,
18446744073451567180,00000200,false,Rx,0,8,34,35,40,3A,39,00,00,00,
18446744073451570416,00000101,false,Rx,0,8,00,00,00,00,00,00,A0,9B,
18446744073451571298,00000103,false,Rx,0,8,00,00,00,00,00,00,A0,51,
18446744073451571586,00000102,false,Rx,0,8,00,00,00,00,00,00,A0,34,
18446744073451573146,00000100,false,Rx,0,8,00,00,00,00,00,00,A0,FE,
18446744073451573433,00000105,false,Rx,0,8,00,00,00,00,00,00,B0,DF,
18446744073451579498,00000080,false,Rx,0,8,C7,10,00,00,60,01,10,C4,
18446744073451579587,00000081,false,Rx,0,8,C7,10,00,00,60,01,10,A1,
18446744073451579707,00000082,false,Rx,0,8,C7,10,00,00,60,01,10,0E,
18446744073451579796,00000083,false,Rx,0,8,C7,10,00,00,60,01,10,6B,
18446744073451579917,00000084,false,Rx,0,8,C7,10,00,00,60,01,10,4D,
18446744073451580012,00000085,false,Rx,0,8,C7,10,00,00,60,01,10,28,
18446744073451580132,00000110,false,Rx,0,8,11,00,33,00,00,00,00,00,
18446744073451580420,00000111,false,Rx,0,8,11,00,33,00,00,00,00,00,
18446744073451580623,00000113,false,Rx,0,8,11,00,33,00,00,00,00,00,
18446744073451580912,00000112,false,Rx,0,8,11,00,33,00,00,00,00,00,
18446744073451581123,00000114,false,Rx,0,8,11,00,33,00,00,00,00,00,
18446744073451581411,00000115,false,Rx,0,8,11,00,33,00,00,00,00,00,
18446744073451584610,00000184,false,Rx,0,8,35,35,35,5F,00,40,D0,80,
18446744073451585408,00000181,false,Rx,0,8,35,35,35,5F,00,40,D0,6C,
18446744073451585612,00000124,false,Rx,0,8,19,0E,19,0E,18,0E,E0,10,
18446744073451586158,00000180,false,Rx,0,8,34,35,34,5F,00,40,D0,3E,
18446744073451586444,00000121,false,Rx,0,8,19,0E,18,0E,18,0E,E0,96,
18446744073451586648,00000134,false,Rx,0,8,18,0E,18,0E,18,0E,E0,39,
18446744073451586945,00000182,false,Rx,0,8,35,36,35,5F,00,40,D0,09,
18446744073451587149,00000120,false,Rx,0,8,19,0E,1A,0E,1A,0E,E0,24,
18446744073451587353,00000183,false,Rx,0,8,35,35,35,5F,00,40,D0,A6,
18446744073451587639,00000122,false,Rx,0,8,1B,0E,1A,0E,1B,0E,E0,DB,
18446744073451587845,00000131,false,Rx,0,8,18,0E,18,0E,17,0E,E0,53,
18446744073451588057,00000144,false,Rx,0,8,18,0E,19,0E,18,0E,E0,09,
18446744073451588260,00000123,false,Rx,0,8,18,0E,19,0E,18,0E,E0,6B,
18446744073451588547,00000130,false,Rx,0,8,1A,0E,19,0E,19,0E,E0,EF,
18446744073451588755,00000132,false,Rx,0,8,1B,0E,1B,0E,1B,0E,E0,AF,
18446744073451588966,00000141,false,Rx,0,8,17,0E,17,0E,17,0E,E0,29,
18446744073451589252,00000140,false,Rx,0,8,19,0E,18,0E,19,0E,E0,38,
18446744073451589456,00000133,false,Rx,0,8,19,0E,18,0E,19,0E,E0,CD,
18446744073451589659,00000142,false,Rx,0,8,1A,0E,1B,0E,1B,0E,E0,A8,
18446744073451589956,00000151,false,Rx,0,8,18,0E,18,0E,18,0E,E0,91,
18446744073451590160,00000150,false,Rx,0,8,18,0E,19,0E,18,0E,E0,9E,
18446744073451590364,00000143,false,Rx,0,8,19,0E,18,0E,18,0E,E0,18,
18446744073451590567,00000152,false,Rx,0,8,1C,0E,1B,0E,1A,0E,E0,EA,
18446744073451590857,00000154,false,Rx,0,8,18,0E,19,0E,19,0E,E0,98,
18446744073451591069,00000161,false,Rx,0,8,17,0E,18,0E,18,0E,E0,EF,
18446744073451591273,00000153,false,Rx,0,8,19,0E,18,0E,19,0E,E0,89,
18446744073451591561,00000160,false,Rx,0,8,19,0E,19,0E,1A,0E,E0,E2,
18446744073451591767,00000162,false,Rx,0,8,1B,0E,1B,0E,1A,0E,E0,46,
18446744073451591977,00000164,false,Rx,0,8,18,0E,18,0E,18,0E,E0,5F,
18446744073451592265,00000170,false,Rx,0,8,1A,0E,00,00,00,00,E0,E5,
18446744073451592468,00000163,false,Rx,0,8,19,0E,19,0E,1A,0E,E0,4D,
18446744073451592672,00000171,false,Rx,0,8,18,0E,00,00,00,00,E0,3A,
18446744073451592971,00000172,false,Rx,0,8,1B,0E,00,00,00,00,E0,72,
18446744073451593174,00000174,false,Rx,0,8,18,0E,00,00,00,00,E0,D6,
18446744073451593460,00000173,false,Rx,0,8,19,0E,00,00,00,00,E0,AD,
18446744073451593664,000001E0,false,Rx,0,8,D5,70,00,00,00,00,E0,C7,
18446744073451593873,000001E1,false,Rx,0,8,CC,70,00,00,00,00,E0,94,
18446744073451594168,000001E2,false,Rx,0,8,DD,70,00,00,00,00,E0,DF,
18446744073451594371,000001E3,false,Rx,0,8,DE,70,00,00,00,00,E0,5D,
18446744073451594574,00000185,false,Rx,0,8,34,34,34,5F,00,40,D0,94,
18446744073451594863,000001E4,false,Rx,0,8,D0,70,00,00,00,00,E0,7A,
18446744073451595408,00000125,false,Rx,0,8,1B,0E,1B,0E,1A,0E,E0,18,
18446744073451596374,00000135,false,Rx,0,8,1A,0E,19,0E,1A,0E,E0,8F,
18446744073451597339,00000145,false,Rx,0,8,19,0E,1A,0E,19,0E,E0,00,
18446744073451598388,00000155,false,Rx,0,8,1B,0E,1A,0E,19,0E,E0,A4,
18446744073451599352,00000165,false,Rx,0,8,1A,0E,1A,0E,1A,0E,E0,57,
18446744073451600400,00000175,false,Rx,0,8,1A,0E,00,00,00,00,E0,09,
18446744073451601366,000001E5,false,Rx,0,8,D7,70,00,00,00,00,E0,91,
18446744073451602414,000001C5,false,Rx,0,8,22,11,92,22,22,22,42,22,
18446744073451613584,000001D4,false,Rx,0,8,22,99,29,22,22,22,99,99,
18446744073451617414,000001D1,false,Rx,0,8,22,99,29,22,22,22,99,99,
18446744073451618215,000001D3,false,Rx,0,8,22,99,29,22,22,22,99,99,
18446744073451618502,000001D2,false,Rx,0,8,22,99,29,22,22,22,99,99,
18446744073451620061,000001D0,false,Rx,0,8,22,99,29,22,22,22,99,99,
18446744073451620349,000000A0,false,Rx,0,8,83,00,00,00,00,00,FF,FF,
18446744073451621063,000000F4,false,Rx,0,8,00,83,05,05,03,00,00,00,
18446744073451625649,00000104,false,Rx,0,8,00,00,00,00,00,00,B0,BA,
18446744073451626378,00000205,false,Rx,0,8,34,34,40,42,39,00,00,00,
18446744073451642225,00000101,false,Rx,0,8,00,00,00,00,00,00,B0,56,
18446744073451642314,00000103,false,Rx,0,8,00,00,00,00,00,00,B0,9C,
18446744073451642401,00000102,false,Rx,0,8,00,00,00,00,00,00,B0,F9,
18446744073451642489,00000100,false,Rx,0,8,00,00,00,00,00,00,B0,33,
18446744073451642576,00000105,false,Rx,0,8,00,00,00,00,00,00,C0,86,
18446744073451645647,000001C4,false,Rx,0,8,22,11,92,22,22,22,42,22,
18446744073451649648,000001C1,false,Rx,0,8,22,11,92,22,22,22,42,22,
18446744073451650195,000001C3,false,Rx,0,8,22,11,92,22,22,22,42,22,
18446744073451650482,000001C2,false,Rx,0,8,22,11,92,22,22,22,42,22,
18446744073451652128,000001C0,false,Rx,0,8,22,11,92,22,22,22,42,22,
18446744073451660260,000000A0,false,Rx,0,8,76,00,00,00,00,00,FF,FF,
18446744073451661057,000000F4,false,Rx,0,8,00,76,20,20,20,4E,53,43,
18446744073451669776,00000204,false,Rx,0,8,35,35,40,35,39,00,00,00,
18446744073451673523,00000201,false,Rx,0,8,35,35,40,3D,39,00,00,00,
18446744073451674405,00000203,false,Rx,0,8,35,35,40,42,37,00,00,00,
18446744073451674609,00000202,false,Rx,0,8,35,36,40,3F,39,00,00,00,
18446744073451675830,00000104,false,Rx,0,8,00,00,00,00,00,00,C0,E3,
18446744073451676126,00000200,false,Rx,0,8,34,35,40,3A,39,00,00,00,
18446744073451678771,00000080,false,Rx,0,8,C7,10,00,00,60,01,20,8E,
18446744073451678981,00000081,false,Rx,0,8,C7,10,00,00,60,01,20,EB,
18446744073451679268,00000082,false,Rx,0,8,C7,10,00,00,60,01,20,44,
18446744073451679472,00000083,false,Rx,0,8,C7,10,00,00,60,01,20,21,
18446744073451679676,00000084,false,Rx,0,8,C7,10,00,00,60,01,20,07,
18446744073451679972,00000085,false,Rx,0,8,C7,10,00,00,60,01,20,62,
18446744073451680175,00000111,false,Rx,0,8,11,00,33,00,00,00,00,00,
18446744073451680463,00000110,false,Rx,0,8,11,00,33,00,00,00,00,00,
18446744073451680666,00000101,false,Rx,0,8,00,00,00,00,00,00,C0,0F,
18446744073451680965,00000112,false,Rx,0,8,11,00,33,00,00,00,00,00,
18446744073451681169,00000113,false,Rx,0,8,11,00,33,00,00,00,00,00,
18446744073451681456,00000102,false,Rx,0,8,00,00,00,00,00,00,C0,A0,
18446744073451681660,00000103,false,Rx,0,8,00,00,00,00,00,00,C0,C5,
18446744073451681956,00000114,false,Rx,0,8,11,00,33,00,00,00,00,00,
18446744073451682159,00000115,false,Rx,0,8,11,00,33,00,00,00,00,00,
18446744073451682363,00000125,false,Rx,0,8,1B,0E,1B,0E,1A,0E,00,AA,
18446744073451683243,00000135,false,Rx,0,8,1A,0E,19,0E,1A,0E,00,3D,
18446744073451683531,00000100,false,Rx,0,8,00,00,00,00,00,00,C0,6A,
18446744073451684276,00000145,false,Rx,0,8,19,0E,1A,0E,1A,0E,00,3E,
18446744073451685323,00000155,false,Rx,0,8,1B,0E,1A,0E,19,0E,00,16,
18446744073451686215,00000165,false,Rx,0,8,1A,0E,1A,0E,1A,0E,00,E5,
18446744073451687263,00000175,false,Rx,0,8,1A,0E,00,00,00,00,00,BB,
18446744073451688228,000001E5,false,Rx,0,8,D7,70,00,00,00,00,00,23,
18446744073451688767,00000184,false,Rx,0,8,35,35,35,5F,00,40,E0,CA,
18446744073451689228,00000180,false,Rx,0,8,34,35,34,5F,00,40,E0,74,
18446744073451689515,00000182,false,Rx,0,8,35,36,35,5F,00,40,E0,43,
18446744073451689719,00000181,false,Rx,0,8,35,35,35,5F,00,40,E0,26,
18446744073451689923,00000124,false,Rx,0,8,19,0E,19,0E,18,0E,00,A2,
18446744073451690218,00000105,false,Rx,0,8,00,00,00,00,00,00,D0,4B,
18446744073451690506,00000120,false,Rx,0,8,1A,0E,1A,0E,1A,0E,00,71,
18446744073451690710,00000121,false,Rx,0,8,19,0E,17,0E,18,0E,00,58,
18446744073451690915,00000122,false,Rx,0,8,1B,0E,1B,0E,1B,0E,00,03,
18446744073451691211,00000134,false,Rx,0,8,18,0E,18,0E,18,0E,00,8B,
18446744073451691415,00000130,false,Rx,0,8,1A,0E,19,0E,19,0E,00,5D,
18446744073451691618,00000131,false,Rx,0,8,18,0E,18,0E,17,0E,00,E1,
18446744073451691823,00000132,false,Rx,0,8,1B,0E,1B,0E,1B,0E,00,1D,
18446744073451692118,00000144,false,Rx,0,8,18,0E,19,0E,19,0E,00,34,
18446744073451702033,00000140,false,Rx,0,8,19,0E,19,0E,19,0E,00,E0,
18446744073451702122,00000123,false,Rx,0,8,18,0E,19,0E,18,0E,00,D9,
18446744073451702209,00000141,false,Rx,0,8,17,0E,17,0E,17,0E,00,9B,
18446744073451702297,00000142,false,Rx,0,8,1A,0E,1B,0E,1B,0E,00,1A,
18446744073451702385,00000150,false,Rx,0,8,18,0E,19,0E,18,0E,00,2C,
18446744073451702472,00000133,false,Rx,0,8,19,0E,18,0E,19,0E,00,7F,
18446744073451702560,00000151,false,Rx,0,8,18,0E,18,0E,17,0E,00,A5,
18446744073451702648,00000152,false,Rx,0,8,1C,0E,1B,0E,1A,0E,00,58,
18446744073451702738,00000154,false,Rx,0,8,18,0E,19,0E,19,0E,00,2A,
18446744073451702825,00000160,false,Rx,0,8,19,0E,19,0E,1A,0E,00,50,
18446744073451702913,00000143,false,Rx,0,8,19,0E,18,0E,19,0E,00,25,
18446744073451703010,00000161,false,Rx,0,8,17,0E,18,0E,18,0E,00,5D,
18446744073451703098,00000162,false,Rx,0,8,1B,0E,1A,0E,1B,0E,00,11,
18446744073451703186,00000164,false,Rx,0,8,18,0E,18,0E,18,0E,00,ED,
18446744073451703273,00000153,false,Rx,0,8,19,0E,19,0E,18,0E,00,DE,
18446744073451703361,00000170,false,Rx,0,8,19,0E,00,00,00,00,00,B0,
18446744073451703449,00000171,false,Rx,0,8,18,0E,00,00,00,00,00,88,
18446744073451703536,00000172,false,Rx,0,8,1B,0E,00,00,00,00,00,C0,
18446744073451703624,00000163,false,Rx,0,8,19,0E,19,0E,1A,0E,00,FF,
18446744073451703712,00000174,false,Rx,0,8,19,0E,00,00,00,00,00,39,
18446744073451703801,00000183,false,Rx,0,8,35,35,35,5F,00,40,E0,EC,
18446744073451703889,000001E0,false,Rx,0,8,D5,70,00,00,00,00,00,75,
18446744073451703985,00000173,false,Rx,0,8,19,0E,00,00,00,00,00,1F,
18446744073451704073,000001E1,false,Rx,0,8,CC,70,00,00,00,00,00,26,
18446744073451704160,000001E2,false,Rx,0,8,D1,70,00,00,00,00,00,D6,
18446744073451704248,000001E3,false,Rx,0,8,D2,70,00,00,00,00,00,54,
18446744073451704336,00000185,false,Rx,0,8,34,34,34,5F,00,40,E0,DE,
18446744073451704423,000001E4,false,Rx,0,8,C4,70,00,00,00,00,00,18,
18446744073451734788,00000104,false,Rx,0,8,00,00,00,00,00,00,D0,2E,
18446744073451735249,00000205,false,Rx,0,8,34,34,40,42,39,00,00,00,
18446744073451738488,00000101,false,Rx,0,8,00,00,00,00,00,00,D0,C2,
18446744073451739286,00000103,false,Rx,0,8,00,00,00,00,00,00,D0,08,
18446744073451739489,00000102,false,Rx,0,8,00,00,00,00,00,00,D0,6D,
18446744073451740287,000000A0,false,Rx,0,8,83,01,00,00,00,00,FF,FF,
18446744073451741334,00000100,false,Rx,0,8,00,00,00,00,00,00,D0,A7,
18446744073451741538,000000F4,false,Rx,0,8,01,83,05,05,03,00,00,00,
18446744073451741827,00000105,false,Rx,0,8,00,00,00,00,00,00,E0,01,
18446744073451778726,00000204,false,Rx,0,8,35,35,40,36,39,00,00,00,
18446744073451778936,00000080,false,Rx,0,8,C7,10,00,00,60,01,30,43,
18446744073451779140,00000081,false,Rx,0,8,C7,10,00,00,60,01,30,26,
18446744073451779426,00000082,false,Rx,0,8,C7,10,00,00,60,01,30,89,
18446744073451779630,00000083,false,Rx,0,8,C7,10,00,00,60,01,30,EC,
18446744073451779918,00000084,false,Rx,0,8,C7,10,00,00,60,01,30,CA,
18446744073451780129,00000085,false,Rx,0,8,C7,10,00,00,60,01,30,AF,
18446744073451780333,000000A0,false,Rx,0,8,76,01,00,00,00,00,FF,FF,
18446744073451780620,00000110,false,Rx,0,8,11,00,33,00,00,00,00,00,
18446744073451780825,00000111,false,Rx,0,8,11,00,33,00,00,00,00,00,
18446744073451781121,00000112,false,Rx,0,8,11,00,33,00,00,00,00,00,
18446744073451781325,00000113,false,Rx,0,8,11,00,33,00,00,00,00,00,
18446744073451781612,000000F4,false,Rx,0,8,01,76,20,20,20,4E,53,43,
18446744073451781817,00000114,false,Rx,0,8,11,00,33,00,00,00,00,00,
18446744073451782112,00000115,false,Rx,0,8,11,00,33,00,00,00,00,00,
18446744073451782315,000001D5,false,Rx,0,8,22,99,29,22,22,22,99,99,
18446744073451782519,00000125,false,Rx,0,8,1B,0E,1B,0E,1A,0E,10,67,
18446744073451783316,00000135,false,Rx,0,8,1A,0E,19,0E,1A,0E,10,F0,
18446744073451783519,00000201,false,Rx,0,8,35,35,40,3E,39,00,00,00,
18446744073451784316,00000203,false,Rx,0,8,35,35,40,41,37,00,00,00,
18446744073451784519,00000145,false,Rx,0,8,19,0E,1A,0E,1A,0E,10,F3,
18446744073451784806,00000202,false,Rx,0,8,35,36,40,3F,39,00,00,00,
18446744073451785352,00000155,false,Rx,0,8,1B,0E,1A,0E,19,0E,10,DB,
18446744073451785724,00000104,false,Rx,0,8,00,00,00,00,00,00,E0,64,
18446744073451786353,00000200,false,Rx,0,8,34,35,40,3A,39,00,00,00,
18446744073451786557,00000165,false,Rx,0,8,1A,0E,1A,0E,1A,0E,10,28,
18446744073451787302,00000175,false,Rx,0,8,1A,0E,00,00,00,00,10,76,
18446744073451788350,000001E5,false,Rx,0,8,D7,70,00,00,00,00,10,EE,
18446744073451789406,00000101,false,Rx,0,8,00,00,00,00,00,00,E0,88,
18446744073451790287,00000103,false,Rx,0,8,00,00,00,00,00,00,E0,42,
18446744073451790573,00000102,false,Rx,0,8,00,00,00,00,00,00,E0,27,
18446744073451792298,00000100,false,Rx,0,8,00,00,00,00,00,00,E0,ED,
18446744073451792755,00000184,false,Rx,0,8,35,35,35,5F,00,40,00,78,
18446744073451793300,00000180,false,Rx,0,8,34,35,34,5F,00,40,00,C6,
18446744073451793587,00000181,false,Rx,0,8,35,35,35,5F,00,40,00,94,
18446744073451793793,00000124,false,Rx,0,8,19,0E,19,0E,18,0E,10,6F,
18446744073451794005,00000182,false,Rx,0,8,35,36,35,5F,00,40,00,F1,
18446744073451794292,00000120,false,Rx,0,8,1A,0E,1A,0E,1A,0E,10,BC,
18446744073451794579,00000121,false,Rx,0,8,19,0E,17,0E,18,0E,10,95,
18446744073451794784,00000122,false,Rx,0,8,1B,0E,1B,0E,1B,0E,10,CE,
18446744073451794989,00000134,false,Rx,0,8,18,0E,18,0E,18,0E,10,46,
18446744073451795360,00000130,false,Rx,0,8,1A,0E,19,0E,19,0E,10,90,
18446744073451795563,00000131,false,Rx,0,8,18,0E,18,0E,17,0E,10,2C,
18446744073451795771,00000132,false,Rx,0,8,1B,0E,1B,0E,1B,0E,10,D0,
18446744073451796065,00000144,false,Rx,0,8,18,0E,19,0E,18,0E,10,76,
18446744073451796269,00000140,false,Rx,0,8,19,0E,18,0E,19,0E,10,47,
18446744073451796472,00000141,false,Rx,0,8,17,0E,17,0E,18,0E,10,D0,
18446744073451796764,00000123,false,Rx,0,8,18,0E,19,0E,18,0E,10,14,
18446744073451796975,00000142,false,Rx,0,8,1A,0E,1B,0E,1B,0E,10,D7,
18446744073451797178,00000154,false,Rx,0,8,18,0E,18,0E,19,0E,10,8D,
18446744073451797381,00000150,false,Rx,0,8,18,0E,19,0E,18,0E,10,E1,
18446744073451797668,00000133,false,Rx,0,8,19,0E,19,0E,19,0E,10,D8,
18446744073451797873,00000151,false,Rx,0,8,18,0E,18,0E,17,0E,10,68,
18446744073451798085,00000152,false,Rx,0,8,1C,0E,1B,0E,1A,0E,10,95,
18446744073451798372,00000160,false,Rx,0,8,19,0E,19,0E,1B,0E,10,12,
18446744073451798576,00000143,false,Rx,0,8,19,0E,18,0E,18,0E,10,67,
18446744073451798782,00000161,false,Rx,0,8,17,0E,18,0E,18,0E,10,90,
18446744073451798993,00000162,false,Rx,0,8,1B,0E,1B,0E,1B,0E,10,B6,
18446744073451799280,00000164,false,Rx,0,8,18,0E,18,0E,18,0E,10,20,
18446744073451799484,00000105,false,Rx,0,8,00,00,00,00,00,00,00,B3,
18446744073451799772,00000153,false,Rx,0,8,19,0E,18,0E,18,0E,10,79,
18446744073451799977,00000170,false,Rx,0,8,1A,0E,00,00,00,00,10,9A,
18446744073451800181,00000171,false,Rx,0,8,18,0E,00,00,00,00,10,45,
18446744073451800467,00000172,false,Rx,0,8,1B,0E,00,00,00,00,10,0D,
18446744073451800670,00000163,false,Rx,0,8,19,0E,19,0E,1A,0E,10,32,
18446744073451800967,00000174,false,Rx,0,8,19,0E,00,00,00,00,10,F4,
18446744073451801171,00000183,false,Rx,0,8,35,35,35,5F,00,40,00,5E,
18446744073451801375,00000173,false,Rx,0,8,19,0E,00,00,00,00,10,D2,
18446744073451801662,000001E0,false,Rx,0,8,D5,70,00,00,00,00,10,B8,
18446744073451801867,000001E1,false,Rx,0,8,CC,70,00,00,00,00,10,EB,
18446744073451802078,000001E2,false,Rx,0,8,D1,70,00,00,00,00,10,1B,
18446744073451802365,00000185,false,Rx,0,8,34,34,34,5F,00,40,00,6C,
18446744073451802569,000001E3,false,Rx,0,8,DE,70,00,00,00,00,10,22,
18446744073451802860,000001E4,false,Rx,0,8,C4,70,00,00,00,00,10,D5,
18446744073451821793,000001C5,false,Rx,0,8,22,11,92,22,22,22,42,22,
18446744073451831708,000001D4,false,Rx,0,8,22,99,29,22,22,22,99,99,
18446744073451835301,000001D1,false,Rx,0,8,22,99,29,22,22,22,99,99,
18446744073451836348,000001D3,false,Rx,0,8,22,99,29,22,22,22,99,99,
18446744073451836552,000001D2,false,Rx,0,8,22,99,29,22,22,22,99,99,
18446744073451838446,000001D0,false,Rx,0,8,22,99,29,22,22,22,99,99,
18446744073451843624,00000104,false,Rx,0,8,00,00,00,00,00,00,00,D6,
18446744073451844338,00000205,false,Rx,0,8,34,34,40,43,39,00,00,00,
18446744073451847409,00000101,false,Rx,0,8,00,00,00,00,00,00,00,3A,
18446744073451848291,00000103,false,Rx,0,8,00,00,00,00,00,00,00,F0,
18446744073451848578,00000102,false,Rx,0,8,00,00,00,00,00,00,00,95,
18446744073451850388,00000105,false,Rx,0,8,00,00,00,00,00,00,10,7E,
18446744073451850675,00000100,false,Rx,0,8,00,00,00,00,00,00,00,5F,
18446744073451860241,000000A0,false,Rx,0,8,83,02,00,00,00,00,FF,FF,
18446744073451861457,000000F4,false,Rx,0,8,02,83,05,05,03,00,00,00,
18446744073451863600,000001C4,false,Rx,0,8,22,11,92,22,22,22,42,22,
18446744073451867349,000001C1,false,Rx,0,8,22,11,92,22,22,22,42,22,
18446744073451868228,000001C3,false,Rx,0,8,22,11,92,22,22,22,42,22,
18446744073451868515,000001C2,false,Rx,0,8,22,11,92,22,22,22,42,22,
18446744073451870324,000001C0,false,Rx,0,8,22,11,92,22,22,22,42,22,
18446744073451878731,00000080,false,Rx,0,8,C7,10,00,00,60,01,40,1A,
18446744073451878943,00000081,false,Rx,0,8,C7,10,00,00,60,01,40,7F,
18446744073451879146,00000082,false,Rx,0,8,C7,10,00,00,60,01,40,D0,
18446744073451879433,00000083,false,Rx,0,8,C7,10,00,00,60,01,40,B5,
18446744073451879637,00000084,false,Rx,0,8,C7,10,00,00,60,01,40,93,
18446744073451879933,00000085,false,Rx,0,8,C7,10,00,00,60,01,40,F6,
18446744073451880137,00000110,false,Rx,0,8,11,00,33,00,00,00,00,00,
18446744073451880424,00000111,false,Rx,0,8,11,00,33,00,00,00,00,00,
18446744073451880628,00000113,false,Rx,0,8,11,00,33,00,00,00,00,00,
18446744073451880917,00000112,false,Rx,0,8,11,00,33,00,00,00,00,00,
18446744073451881129,00000114,false,Rx,0,8,11,00,33,00,00,00,00,00,
18446744073451881415,00000115,false,Rx,0,8,11,00,33,00,00,00,00,00,
18446744073451881619,00000120,false,Rx,0,8,1A,0E,1A,0E,1A,0E,20,F6,
18446744073451881823,00000121,false,Rx,0,8,19,0E,17,0E,18,0E,20,DF,
18446744073451882035,00000122,false,Rx,0,8,1B,0E,1A,0E,1B,0E,20,EE,
18446744073451882322,00000123,false,Rx,0,8,18,0E,19,0E,18,0E,20,5E,
18446744073451882525,00000125,false,Rx,0,8,1B,0E,1B,0E,1A,0E,20,2D,
18446744073451882730,00000130,false,Rx,0,8,1A,0E,19,0E,19,0E,20,DA,
18446744073451883018,00000131,false,Rx,0,8,18,0E,18,0E,17,0E,20,66,
18446744073451883222,00000132,false,Rx,0,8,1B,0E,1B,0E,1B,0E,20,9A,
18446744073451883426,00000133,false,Rx,0,8,19,0E,19,0E,18,0E,20,1D,
18446744073451883713,00000135,false,Rx,0,8,1A,0E,19,0E,1A,0E,20,BA,
18446744073451883919,00000140,false,Rx,0,8,19,0E,18,0E,19,0E,20,0D,
18446744073451884130,00000141,false,Rx,0,8,17,0E,17,0E,18,0E,20,9A,
18446744073451884417,00000142,false,Rx,0,8,1A,0E,1B,0E,1B,0E,20,9D,
18446744073451884621,00000143,false,Rx,0,8,19,0E,18,0E,18,0E,20,2D,
18446744073451884826,00000145,false,Rx,0,8,19,0E,19,0E,1A,0E,20,07,
18446744073451885037,00000150,false,Rx,0,8,18,0E,19,0E,18,0E,20,AB,
18446744073451885325,00000151,false,Rx,0,8,18,0E,18,0E,17,0E,20,22,
18446744073451885528,00000152,false,Rx,0,8,1C,0E,1B,0E,1A,0E,20,DF,
18446744073451885733,00000153,false,Rx,0,8,19,0E,18,0E,18,0E,20,33,
18446744073451886022,00000155,false,Rx,0,8,1A,0E,1A,0E,19,0E,20,CC,
18446744073451886225,00000160,false,Rx,0,8,19,0E,19,0E,1A,0E,20,D7,
18446744073451886429,00000161,false,Rx,0,8,17,0E,17,0E,18,0E,20,A6,
18446744073451886716,00000162,false,Rx,0,8,1A,0E,1B,0E,1B,0E,20,A1,
18446744073451886921,00000163,false,Rx,0,8,19,0E,19,0E,1A,0E,20,78,
18446744073451887133,00000165,false,Rx,0,8,1A,0E,1A,0E,1A,0E,20,62,
18446744073451887420,00000170,false,Rx,0,8,19,0E,00,00,00,00,20,37,
18446744073451887623,00000171,false,Rx,0,8,18,0E,00,00,00,00,20,0F,
18446744073451887912,00000172,false,Rx,0,8,1B,0E,00,00,00,00,20,47,
18446744073451888124,00000173,false,Rx,0,8,19,0E,00,00,00,00,20,98,
18446744073451888327,00000175,false,Rx,0,8,1A,0E,00,00,00,00,20,3C,
18446744073451888615,000001E0,false,Rx,0,8,D5,70,00,00,00,00,20,F2,
18446744073451888829,000001E1,false,Rx,0,8,CC,70,00,00,00,00,20,A1,
18446744073451889059,000001E2,false,Rx,0,8,D1,70,00,00,00,00,20,51,
18446744073451889346,000001E3,false,Rx,0,8,D2,70,00,00,00,00,20,D3,
18446744073451889550,000001E5,false,Rx,0,8,D7,70,00,00,00,00,20,A4,
