Time Stamp,ID,Extended,Dir,Bus,LEN,D1,D2,D3,D4,D5,D6,D7,D8
4616670,00000101,false,Rx,0,8,00,00,00,10,00,00,A0,BE,
4617634,00000105,false,Rx,0,8,00,00,00,10,00,00,B0,FA,
4618510,00000100,false,Rx,0,8,00,00,00,10,00,00,A0,DB,
4619638,00000103,false,Rx,0,8,00,00,00,10,00,00,A0,74,
4629415,000001C4,false,Rx,0,8,22,22,92,22,22,22,42,22,
4630626,000001C2,false,Rx,0,8,22,22,92,22,22,22,42,22,
4636234,000001C1,false,Rx,0,8,22,22,92,22,22,22,42,22,
4638369,000001C0,false,Rx,0,8,22,22,92,22,22,22,42,22,
4639495,000001C3,false,Rx,0,8,22,22,92,22,22,22,42,22,
4653468,00000204,false,Rx,0,8,34,34,40,37,3A,00,00,00,
4654679,00000202,false,Rx,0,8,34,34,40,41,3A,00,00,00,
4659505,00000104,false,Rx,0,8,00,00,00,10,00,00,B0,9F,
4660215,00000201,false,Rx,0,8,34,34,40,3F,3A,00,00,00,
4660671,00000102,false,Rx,0,8,00,00,00,10,00,00,B0,DC,
4662387,00000200,false,Rx,0,8,33,34,40,3B,3A,00,00,00,
4663600,00000203,false,Rx,0,8,34,34,40,44,39,00,00,00,
4666324,00000101,false,Rx,0,8,00,00,00,10,00,00,B0,73,
63869,00000105,false,Rx,0,8,00,00,00,10,00,00,C0,A3,
63958,00000100,false,Rx,0,8,00,00,00,10,00,00,B0,16,
64579,00000103,false,Rx,0,8,00,00,00,10,00,00,B0,B9,
104448,00000104,false,Rx,0,8,00,00,00,10,00,00,C0,C6,
105780,00000102,false,Rx,0,8,00,00,00,10,00,00,C0,85,
106651,00000205,false,Rx,0,8,34,34,40,45,3B,00,00,00,
111319,00000101,false,Rx,0,8,00,00,00,10,00,00,C0,2A,
112697,00000105,false,Rx,0,8,00,00,00,10,00,00,D0,6E,
113323,00000100,false,Rx,0,8,00,00,00,10,00,00,C0,4F,
114685,00000103,false,Rx,0,8,00,00,00,10,00,00,C0,E0,
148530,00000204,false,Rx,0,8,34,34,40,37,3A,00,00,00,
149659,00000202,false,Rx,0,8,34,34,40,41,3A,00,00,00,
150785,000001D5,false,Rx,0,8,22,99,29,22,22,22,99,99,
154438,00000104,false,Rx,0,8,00,00,00,10,00,00,D0,0B,
155316,00000201,false,Rx,0,8,34,34,40,3F,3A,00,00,00,
155688,00000102,false,Rx,0,8,00,00,00,10,00,00,D0,48,
157156,00000200,false,Rx,0,8,33,34,40,3B,3A,00,00,00,
158792,00000203,false,Rx,0,8,34,34,40,44,39,00,00,00,
161427,00000101,false,Rx,0,8,00,00,00,10,00,00,D0,E7,
162811,00000105,false,Rx,0,8,00,00,00,10,00,00,E0,24,
163180,00000100,false,Rx,0,8,00,00,00,10,00,00,D0,82,
165648,00000103,false,Rx,0,8,00,00,00,10,00,00,D0,2D,
182819,000001C5,false,Rx,0,8,22,22,92,22,22,22,42,22,
192256,000001D4,false,Rx,0,8,22,99,29,22,22,22,99,99,
193716,000001D2,false,Rx,0,8,22,99,29,22,22,22,99,99,
199296,000001D1,false,Rx,0,8,22,99,29,22,22,22,99,99,
201267,000001D0,false,Rx,0,8,22,99,29,22,22,22,99,99,
202819,000001D3,false,Rx,0,8,22,99,29,22,22,22,99,99,
204281,00000104,false,Rx,0,8,00,00,00,10,00,00,E0,41,
205751,00000102,false,Rx,0,8,00,00,00,10,00,00,E0,02,
206805,00000205,false,Rx,0,8,34,34,40,45,3B,00,00,00,
211248,00000101,false,Rx,0,8,00,00,00,10,00,00,E0,AD,
212795,00000105,false,Rx,0,8,00,00,00,10,00,00,00,96,
213247,00000100,false,Rx,0,8,00,00,00,10,00,00,E0,C8,
214799,00000103,false,Rx,0,8,00,00,00,10,00,00,E0,67,
224249,000001C4,false,Rx,0,8,22,22,92,22,22,22,42,22,
225632,000001C2,false,Rx,0,8,22,22,92,22,22,22,42,22,
231153,000001C1,false,Rx,0,8,22,22,92,22,22,22,42,22,
233204,000001C0,false,Rx,0,8,22,22,92,22,22,22,42,22,
234665,000001C3,false,Rx,0,8,22,22,92,22,22,22,42,22,
248308,00000204,false,Rx,0,8,34,34,40,37,3A,00,00,00,
249605,00000202,false,Rx,0,8,34,34,40,41,3A,00,00,00,
254264,00000104,false,Rx,0,8,00,00,00,10,00,00,00,F3,
255225,00000201,false,Rx,0,8,34,34,40,3F,3A,00,00,00,
255679,00000102,false,Rx,0,8,00,00,00,10,00,00,00,B0,
257229,00000200,false,Rx,0,8,33,34,40,3C,3B,00,00,00,
258692,00000203,false,Rx,0,8,34,34,40,43,39,00,00,00,
261249,00000101,false,Rx,0,8,00,00,00,10,00,00,00,1F,
262801,00000105,false,Rx,0,8,00,00,00,10,00,00,10,5B,
263253,00000100,false,Rx,0,8,00,00,00,10,00,00,00,7A,
264715,00000103,false,Rx,0,8,00,00,00,10,00,00,00,D5,
304211,00000104,false,Rx,0,8,00,00,00,10,00,00,10,3E,
305589,00000102,false,Rx,0,8,00,00,00,10,00,00,10,7D,
306800,00000205,false,Rx,0,8,34,34,40,45,3B,00,00,00,
311233,00000101,false,Rx,0,8,00,00,00,10,00,00,10,D2,
312880,00000105,false,Rx,0,8,00,00,00,10,00,00,20,11,
313166,00000100,false,Rx,0,8,00,00,00,10,00,00,10,B7,
314883,00000103,false,Rx,0,8,00,00,00,10,00,00,10,18,
348189,00000204,false,Rx,0,8,34,34,40,37,3A,00,00,00,
349651,00000202,false,Rx,0,8,34,34,40,41,3A,00,00,00,
350869,000001D5,false,Rx,0,8,22,99,29,22,22,22,99,99,
354180,00000104,false,Rx,0,8,00,00,00,10,00,00,20,74,
355224,00000201,false,Rx,0,8,34,34,40,3F,3A,00,00,00,
355768,00000102,false,Rx,0,8,00,00,00,10,00,00,20,37,
357145,00000200,false,Rx,0,8,33,34,40,3C,3A,00,00,00,
358782,00000203,false,Rx,0,8,34,34,40,44,39,00,00,00,
361249,00000101,false,Rx,0,8,00,00,00,10,00,00,20,98,
362882,00000105,false,Rx,0,8,00,00,00,10,00,00,30,DC,
363169,00000100,false,Rx,0,8,00,00,00,10,00,00,20,FD,
364805,00000103,false,Rx,0,8,00,00,00,10,00,00,20,52,
382822,000001C5,false,Rx,0,8,22,22,92,22,22,22,42,22,
392175,000001D4,false,Rx,0,8,22,99,29,22,22,22,99,99,
393811,000001D2,false,Rx,0,8,22,99,29,22,22,22,99,99,
399218,000001D1,false,Rx,0,8,22,99,29,22,22,22,99,99,
401270,000001D0,false,Rx,0,8,22,99,29,22,22,22,99,99,
402816,000001D3,false,Rx,0,8,22,99,29,22,22,22,99,99,
404274,00000104,false,Rx,0,8,00,00,00,10,00,00,30,B9,
405820,00000102,false,Rx,0,8,00,00,00,10,00,00,30,FA,
406880,00000205,false,Rx,0,8,34,34,40,45,3B,00,00,00,
411282,00000101,false,Rx,0,8,00,00,00,10,00,00,30,55,
413002,00000105,false,Rx,0,8,00,00,00,10,00,00,40,85,
413288,00000100,false,Rx,0,8,00,00,00,10,00,00,30,30,
414784,00000103,false,Rx,0,8,00,00,00,10,00,00,30,9F,
424216,000001C4,false,Rx,0,8,22,22,92,22,22,22,42,22,
425761,000001C2,false,Rx,0,8,22,22,92,22,22,22,42,22,
431286,000001C1,false,Rx,0,8,22,22,92,22,22,22,42,22,
433256,000001C0,false,Rx,0,8,22,22,92,22,22,22,42,22,
434716,000001C3,false,Rx,0,8,22,22,92,22,22,22,42,22,
448192,00000204,false,Rx,0,8,34,34,40,38,3A,00,00,00,
449826,00000202,false,Rx,0,8,34,34,40,41,3A,00,00,00,
454307,00000104,false,Rx,0,8,00,00,00,10,00,00,40,E0,
455351,00000201,false,Rx,0,8,34,34,40,3F,3A,00,00,00,
455813,00000102,false,Rx,0,8,00,00,00,10,00,00,40,A3,
457190,00000200,false,Rx,0,8,33,34,40,3C,3B,00,00,00,
458824,00000203,false,Rx,0,8,34,34,40,43,39,00,00,00,
461457,00000101,false,Rx,0,8,00,00,00,10,00,00,40,0C,
463014,00000105,false,Rx,0,8,00,00,00,10,00,00,50,48,
463217,00000100,false,Rx,0,8,00,00,00,10,00,00,40,69,
464853,00000103,false,Rx,0,8,00,00,00,10,00,00,40,C6,
504263,00000104,false,Rx,0,8,00,00,00,10,00,00,50,2D,
505641,00000102,false,Rx,0,8,00,00,00,10,00,00,50,6E,
506942,00000205,false,Rx,0,8,34,34,40,45,3B,00,00,00,
511342,00000101,false,Rx,0,8,00,00,00,10,00,00,50,C1,
512977,00000105,false,Rx,0,8,00,00,00,10,00,00,60,02,
513263,00000100,false,Rx,0,8,00,00,00,10,00,00,50,A4,
514725,00000103,false,Rx,0,8,00,00,00,10,00,00,50,0B,
548218,00000204,false,Rx,0,8,34,34,40,37,3A,00,00,00,
549679,00000202,false,Rx,0,8,34,34,40,41,3A,00,00,00,
550897,000001D5,false,Rx,0,8,22,99,29,22,22,22,99,99,
554205,00000104,false,Rx,0,8,00,00,00,10,00,00,60,67,
555414,00000201,false,Rx,0,8,34,34,40,3F,3A,00,00,00,
555702,00000102,false,Rx,0,8,00,00,00,10,00,00,60,24,
557255,00000200,false,Rx,0,8,33,34,40,3C,3A,00,00,00,
558808,00000203,false,Rx,0,8,34,34,40,44,39,00,00,00,
561358,00000101,false,Rx,0,8,00,00,00,10,00,00,60,8B,
562910,00000105,false,Rx,0,8,00,00,00,10,00,00,70,CF,
563280,00000100,false,Rx,0,8,00,00,00,10,00,00,60,EE,
564832,00000103,false,Rx,0,8,00,00,00,10,00,00,60,41,
582891,000001C5,false,Rx,0,8,22,22,92,22,22,22,42,22,
592162,000001D4,false,Rx,0,8,22,99,29,22,22,22,99,99,
593705,000001D2,false,Rx,0,8,22,99,29,22,22,22,99,99,
599205,000001D1,false,Rx,0,8,22,99,29,22,22,22,99,99,
601342,000001D0,false,Rx,0,8,22,99,29,22,22,22,99,99,
602810,000001D3,false,Rx,0,8,22,99,29,22,22,22,99,99,
604272,00000104,false,Rx,0,8,00,00,00,10,00,00,70,AA,
605734,00000102,false,Rx,0,8,00,00,00,10,00,00,70,E9,
606965,00000205,false,Rx,0,8,34,34,40,45,3B,00,00,00,
611199,00000101,false,Rx,0,8,00,00,00,10,00,00,70,46,
612919,00000105,false,Rx,0,8,00,00,00,10,00,00,80,B0,
613288,00000100,false,Rx,0,8,00,00,00,10,00,00,70,23,
614843,00000103,false,Rx,0,8,00,00,00,10,00,00,70,8C,
624153,000001C4,false,Rx,0,8,22,22,92,22,22,22,42,22,
626728,000001C2,false,Rx,0,8,22,22,92,22,22,22,42,22,
631242,000001C1,false,Rx,0,8,22,22,92,22,22,22,42,22,
633292,000001C0,false,Rx,0,8,22,22,92,22,22,22,42,22,
634846,000001C3,false,Rx,0,8,22,22,92,22,22,22,42,22,
648165,00000204,false,Rx,0,8,34,34,40,38,3A,00,00,00,
649883,00000202,false,Rx,0,8,34,34,40,40,3A,00,00,00,
654119,00000104,false,Rx,0,8,00,00,00,10,00,00,80,D5,
655164,00000201,false,Rx,0,8,34,34,40,3F,3A,00,00,00,
655875,00000102,false,Rx,0,8,00,00,00,10,00,00,80,96,
657254,00000200,false,Rx,0,8,33,34,40,3B,3B,00,00,00,
658890,00000203,false,Rx,0,8,34,34,40,43,39,00,00,00,
661108,00000101,false,Rx,0,8,00,00,00,10,00,00,80,39,
662910,00000105,false,Rx,0,8,00,00,00,10,00,00,90,7D,
663279,00000100,false,Rx,0,8,00,00,00,10,00,00,80,5C,
664831,00000103,false,Rx,0,8,00,00,00,10,00,00,80,F3,
704204,00000104,false,Rx,0,8,00,00,00,10,00,00,90,18,
706007,00000102,false,Rx,0,8,00,00,00,10,00,00,90,5B,
706967,00000205,false,Rx,0,8,34,34,40,45,3B,00,00,00,
711118,00000101,false,Rx,0,8,00,00,00,10,00,00,90,F4,
712923,00000105,false,Rx,0,8,00,00,00,10,00,00,A0,37,
713209,00000100,false,Rx,0,8,00,00,00,10,00,00,90,91,
714765,00000103,false,Rx,0,8,00,00,00,10,00,00,90,3E,
748153,00000204,false,Rx,0,8,34,34,40,37,3A,00,00,00,
750038,00000202,false,Rx,0,8,34,34,40,40,3A,00,00,00,
750999,000001D5,false,Rx,0,8,22,99,29,22,22,22,99,99,
754140,00000104,false,Rx,0,8,00,00,00,10,00,00,A0,52,
755018,00000201,false,Rx,0,8,34,34,40,3F,3A,00,00,00,
756145,00000102,false,Rx,0,8,00,00,00,10,00,00,A0,11,
757274,00000200,false,Rx,0,8,33,34,40,3C,3A,00,00,00,
758569,00000203,false,Rx,0,8,34,34,40,44,39,00,00,00,
761043,00000101,false,Rx,0,8,00,00,00,10,00,00,A0,BE,
763097,00000105,false,Rx,0,8,00,00,00,10,00,00,B0,FA,
763300,00000100,false,Rx,0,8,00,00,00,10,00,00,A0,DB,
764510,00000103,false,Rx,0,8,00,00,00,10,00,00,A0,74,
783054,000001C5,false,Rx,0,8,22,22,92,22,22,22,42,22,
791993,000001D4,false,Rx,0,8,22,99,29,22,22,22,99,99,
794043,000001D2,false,Rx,0,8,22,99,29,22,22,22,99,99,
798872,000001D1,false,Rx,0,8,22,99,29,22,22,22,99,99,
801339,000001D0,false,Rx,0,8,22,99,29,22,22,22,99,99,
802382,000001D3,false,Rx,0,8,22,99,29,22,22,22,99,99,
804019,00000104,false,Rx,0,8,00,00,00,10,00,00,B0,9F,
805987,00000102,false,Rx,0,8,00,00,00,10,00,00,B0,DC,
806962,00000205,false,Rx,0,8,34,34,40,45,3B,00,00,00,
810947,00000101,false,Rx,0,8,00,00,00,10,00,00,B0,73,
813001,00000105,false,Rx,0,8,00,00,00,10,00,00,C0,A3,
813370,00000100,false,Rx,0,8,00,00,00,10,00,00,B0,16,
814414,00000103,false,Rx,0,8,00,00,00,10,00,00,B0,B9,
823895,000001C4,false,Rx,0,8,22,22,92,22,22,22,42,22,
826067,000001C2,false,Rx,0,8,22,22,92,22,22,22,42,22,
831627,000001C1,false,Rx,0,8,22,22,92,22,22,22,42,22,
833428,000001C0,false,Rx,0,8,22,22,92,22,22,22,42,22,
834473,000001C3,false,Rx,0,8,22,22,92,22,22,22,42,22,
847871,00000204,false,Rx,0,8,34,34,40,38,3A,00,00,00,
850090,00000202,false,Rx,0,8,34,34,40,40,3A,00,00,00,
853905,00000104,false,Rx,0,8,00,00,00,10,00,00,C0,C6,
854949,00000201,false,Rx,0,8,34,34,40,3F,3A,00,00,00,
856159,00000102,false,Rx,0,8,00,00,00,10,00,00,C0,85,
857370,00000200,false,Rx,0,8,33,34,40,3B,3A,00,00,00,
858497,00000203,false,Rx,0,8,34,34,40,43,39,00,00,00,
861055,00000101,false,Rx,0,8,00,00,00,10,00,00,C0,2A,
863025,00000105,false,Rx,0,8,00,00,00,10,00,00,D0,6E,
863394,00000100,false,Rx,0,8,00,00,00,10,00,00,C0,4F,
864440,00000103,false,Rx,0,8,00,00,00,10,00,00,C0,E0,
903909,00000104,false,Rx,0,8,00,00,00,10,00,00,D0,0B,
906125,00000102,false,Rx,0,8,00,00,00,10,00,00,D0,48,
907006,00000205,false,Rx,0,8,34,34,40,45,3B,00,00,00,
911155,00000101,false,Rx,0,8,00,00,00,10,00,00,D0,E7,
913039,00000105,false,Rx,0,8,00,00,00,10,00,00,E0,24,
913325,00000100,false,Rx,0,8,00,00,00,10,00,00,D0,82,
914618,00000103,false,Rx,0,8,00,00,00,10,00,00,D0,2D,
948130,00000204,false,Rx,0,8,34,34,40,38,3A,00,00,00,
950183,00000202,false,Rx,0,8,34,34,40,41,3A,00,00,00,
950894,000001D5,false,Rx,0,8,22,99,29,22,22,22,99,99,
954121,00000104,false,Rx,0,8,00,00,00,10,00,00,E0,41,
955083,00000201,false,Rx,0,8,34,34,40,3F,3A,00,00,00,
956209,00000102,false,Rx,0,8,00,00,00,10,00,00,E0,02,
957256,00000200,false,Rx,0,8,33,34,40,3C,3A,00,00,00,
958633,00000203,false,Rx,0,8,34,34,40,43,39,00,00,00,
961192,00000101,false,Rx,0,8,00,00,00,10,00,00,E0,AD,
962993,00000105,false,Rx,0,8,00,00,00,10,00,00,00,96,
963279,00000100,false,Rx,0,8,00,00,00,10,00,00,E0,C8,
964657,00000103,false,Rx,0,8,00,00,00,10,00,00,E0,67,
983010,000001C5,false,Rx,0,8,22,22,92,22,22,22,42,22,
992180,000001D4,false,Rx,0,8,22,99,29,22,22,22,99,99,
994148,000001D2,false,Rx,0,8,22,99,29,22,22,22,99,99,
999137,000001D1,false,Rx,0,8,22,99,29,22,22,22,99,99,
1001358,000001D0,false,Rx,0,8,22,99,29,22,22,22,99,99,
1002736,000001D3,false,Rx,0,8,22,99,29,22,22,22,99,99,
1004203,00000104,false,Rx,0,8,00,00,00,10,00,00,00,F3,
1006256,00000102,false,Rx,0,8,00,00,00,10,00,00,00,B0,
1007063,00000205,false,Rx,0,8,34,34,40,45,3B,00,00,00,
1011129,00000101,false,Rx,0,8,00,00,00,10,00,00,00,1F,
1013189,00000105,false,Rx,0,8,00,00,00,10,00,00,10,5B,
1013392,00000100,false,Rx,0,8,00,00,00,10,00,00,00,7A,
1014780,00000103,false,Rx,0,8,00,00,00,10,00,00,00,D5,
1024135,000001C4,false,Rx,0,8,22,22,92,22,22,22,42,22,
1026187,000001C2,false,Rx,0,8,22,22,92,22,22,22,42,22,
1031068,000001C1,false,Rx,0,8,22,22,92,22,22,22,42,22,
1033285,000001C0,false,Rx,0,8,22,22,92,22,22,22,42,22,
1036640,000001C3,false,Rx,0,8,22,22,92,22,22,22,42,22,
1048022,00000204,false,Rx,0,8,34,34,40,37,3A,00,00,00,
1050158,00000202,false,Rx,0,8,34,34,40,41,3A,00,00,00,
1054056,00000104,false,Rx,0,8,00,00,00,10,00,00,10,3E,
1055184,00000201,false,Rx,0,8,34,34,40,3F,3A,00,00,00,
1056145,00000102,false,Rx,0,8,00,00,00,10,00,00,10,7D,
1057357,00000200,false,Rx,0,8,33,34,40,3C,3B,00,00,00,
1058909,00000203,false,Rx,0,8,34,34,40,43,39,00,00,00,
1061209,00000101,false,Rx,0,8,00,00,00,10,00,00,10,D2,
1063097,00000105,false,Rx,0,8,00,00,00,10,00,00,20,11,
1063383,00000100,false,Rx,0,8,00,00,00,10,00,00,10,B7,
1064853,00000103,false,Rx,0,8,00,00,00,10,00,00,10,18,
1104038,00000104,false,Rx,0,8,00,00,00,10,00,00,20,74,
1106007,00000102,false,Rx,0,8,00,00,00,10,00,00,20,37,
1107134,00000205,false,Rx,0,8,34,34,40,45,3B,00,00,00,
1111203,00000101,false,Rx,0,8,00,00,00,10,00,00,20,98,
1113174,00000105,false,Rx,0,8,00,00,00,10,00,00,30,DC,
1113460,00000100,false,Rx,0,8,00,00,00,10,00,00,20,FD,
1115013,00000103,false,Rx,0,8,00,00,00,10,00,00,20,52,
1147829,00000204,false,Rx,0,8,34,34,40,37,3A,00,00,00,
1149985,00000202,false,Rx,0,8,34,34,40,41,3A,00,00,00,
1151113,000001D5,false,Rx,0,8,22,99,29,22,22,22,99,99,
1153840,00000104,false,Rx,0,8,00,00,00,10,00,00,30,B9,
1155133,00000201,false,Rx,0,8,34,34,40,3F,3A,00,00,00,
1156096,00000102,false,Rx,0,8,00,00,00,10,00,00,30,FA,
1157472,00000200,false,Rx,0,8,33,34,40,3C,3B,00,00,00,
1158942,00000203,false,Rx,0,8,34,34,40,44,39,00,00,00,
1161159,00000101,false,Rx,0,8,00,00,00,10,00,00,30,55,
1163210,00000105,false,Rx,0,8,00,00,00,10,00,00,40,85,
1163495,00000100,false,Rx,0,8,00,00,00,10,00,00,30,30,
1164882,00000103,false,Rx,0,8,00,00,00,10,00,00,30,9F,
1183142,000001C5,false,Rx,0,8,22,22,92,22,22,22,42,22,
1191897,000001D4,false,Rx,0,8,22,99,29,22,22,22,99,99,
1193949,000001D2,false,Rx,0,8,22,99,29,22,22,22,99,99,
1199192,000001D1,false,Rx,0,8,22,99,29,22,22,22,99,99,
1201409,000001D0,false,Rx,0,8,22,99,29,22,22,22,99,99,
1202787,000001D3,false,Rx,0,8,22,99,29,22,22,22,99,99,
1203997,00000104,false,Rx,0,8,00,00,00,10,00,00,40,E0,
1205966,00000102,false,Rx,0,8,00,00,00,10,00,00,40,A3,
1207191,00000205,false,Rx,0,8,34,34,40,44,3B,00,00,00,
1211176,00000101,false,Rx,0,8,00,00,00,10,00,00,40,0C,
1213146,00000105,false,Rx,0,8,00,00,00,10,00,00,50,48,
1213432,00000100,false,Rx,0,8,00,00,00,10,00,00,40,69,
1214901,00000103,false,Rx,0,8,00,00,00,10,00,00,40,C6,
1224090,000001C4,false,Rx,0,8,22,22,92,22,22,22,42,22,
1225975,000001C2,false,Rx,0,8,22,22,92,22,22,22,42,22,
1231156,000001C1,false,Rx,0,8,22,22,92,22,22,22,42,22,
1233401,000001C0,false,Rx,0,8,22,22,92,22,22,22,42,22,
1234882,000001C3,false,Rx,0,8,22,22,92,22,22,22,42,22,
1247962,00000204,false,Rx,0,8,34,34,40,38,3A,00,00,00,
1249848,00000202,false,Rx,0,8,34,34,40,40,3A,00,00,00,
1253998,00000104,false,Rx,0,8,00,00,00,10,00,00,50,2D,
1255124,00000201,false,Rx,0,8,34,34,40,3F,3A,00,00,00,
1255921,00000102,false,Rx,0,8,00,00,00,10,00,00,50,6E,
1257381,00000200,false,Rx,0,8,33,34,40,3C,3B,00,00,00,
1258769,00000203,false,Rx,0,8,34,34,40,43,39,00,00,00,
1261153,00000101,false,Rx,0,8,00,00,00,10,00,00,50,C1,
1263287,00000105,false,Rx,0,8,00,00,00,10,00,00,60,02,
1263575,00000100,false,Rx,0,8,00,00,00,10,00,00,50,A4,
1264785,00000103,false,Rx,0,8,00,00,00,10,00,00,50,0B,
1304130,00000104,false,Rx,0,8,00,00,00,10,00,00,60,67,
1306018,00000102,false,Rx,0,8,00,00,00,10,00,00,60,24,
1307062,00000205,false,Rx,0,8,34,34,40,45,3B,00,00,00,
1311129,00000101,false,Rx,0,8,00,00,00,10,00,00,60,8B,
1313100,00000105,false,Rx,0,8,00,00,00,10,00,00,70,CF,
1313469,00000100,false,Rx,0,8,00,00,00,10,00,00,60,EE,
1314774,00000103,false,Rx,0,8,00,00,00,10,00,00,60,41,
1348147,00000204,false,Rx,0,8,34,34,40,37,3A,00,00,00,
1350033,00000202,false,Rx,0,8,34,34,40,41,3A,00,00,00,
1351242,000001D5,false,Rx,0,8,22,99,29,22,22,22,99,99,
1354133,00000104,false,Rx,0,8,00,00,00,10,00,00,70,AA,
1355179,00000201,false,Rx,0,8,34,34,40,3F,3A,00,00,00,
1356055,00000102,false,Rx,0,8,00,00,00,10,00,00,70,E9,
1357601,00000200,false,Rx,0,8,33,34,40,3C,3A,00,00,00,
1358813,00000203,false,Rx,0,8,34,34,40,44,39,00,00,00,
1361115,00000101,false,Rx,0,8,00,00,00,10,00,00,70,46,
1363249,00000105,false,Rx,0,8,00,00,00,10,00,00,80,B0,
1363535,00000100,false,Rx,0,8,00,00,00,10,00,00,70,23,
1364833,00000103,false,Rx,0,8,00,00,00,10,00,00,70,8C,
1383256,000001C5,false,Rx,0,8,22,22,92,22,22,22,42,22,
1392197,000001D4,false,Rx,0,8,22,99,29,22,22,22,99,99,
1394400,000001D2,false,Rx,0,8,22,99,29,22,22,22,99,99,
1399226,000001D1,false,Rx,0,8,22,99,29,22,22,22,99,99,
1401445,000001D0,false,Rx,0,8,22,99,29,22,22,22,99,99,
1402822,000001D3,false,Rx,0,8,22,99,29,22,22,22,99,99,
1404207,00000104,false,Rx,0,8,00,00,00,10,00,00,80,D5,
1406030,00000102,false,Rx,0,8,00,00,00,10,00,00,80,96,
1407169,00000205,false,Rx,0,8,34,34,40,45,3B,00,00,00,
1411236,00000101,false,Rx,0,8,00,00,00,10,00,00,80,39,
1413206,00000105,false,Rx,0,8,00,00,00,10,00,00,90,7D,
1413492,00000100,false,Rx,0,8,00,00,00,10,00,00,80,5C,
1414878,00000103,false,Rx,0,8,00,00,00,10,00,00,80,F3,
1424150,000001C4,false,Rx,0,8,22,22,92,22,22,22,42,22,
1426117,000001C2,false,Rx,0,8,22,22,92,22,22,22,42,22,
1431139,000001C1,false,Rx,0,8,22,22,92,22,22,22,42,22,
1433358,000001C0,false,Rx,0,8,22,22,92,22,22,22,42,22,
1434820,000001C3,false,Rx,0,8,22,22,92,22,22,22,42,22,
1448069,00000204,false,Rx,0,8,34,34,40,37,3A,00,00,00,
1450121,00000202,false,Rx,0,8,34,34,40,41,3A,00,00,00,
1454023,00000104,false,Rx,0,8,00,00,00,10,00,00,90,18,
1455233,00000201,false,Rx,0,8,34,34,40,3F,3A,00,00,00,
1456195,00000102,false,Rx,0,8,00,00,00,10,00,00,90,5B,
1457489,00000200,false,Rx,0,8,33,34,40,3C,3A,00,00,00,
1458875,00000203,false,Rx,0,8,34,34,40,43,39,00,00,00,
1461347,00000101,false,Rx,0,8,00,00,00,10,00,00,90,F4,
1463149,00000105,false,Rx,0,8,00,00,00,10,00,00,A0,37,
1463435,00000100,false,Rx,0,8,00,00,00,10,00,00,90,91,
1464905,00000103,false,Rx,0,8,00,00,00,10,00,00,90,3E,
1504153,00000104,false,Rx,0,8,00,00,00,10,00,00,A0,52,
1506121,00000102,false,Rx,0,8,00,00,00,10,00,00,A0,11,
1507082,00000205,false,Rx,0,8,34,34,40,45,3B,00,00,00,
1511229,00000101,false,Rx,0,8,00,00,00,10,00,00,A0,BE,
1513198,00000105,false,Rx,0,8,00,00,00,10,00,00,B0,FA,
1513484,00000100,false,Rx,0,8,00,00,00,10,00,00,A0,DB,
1515038,00000103,false,Rx,0,8,00,00,00,10,00,00,A0,74,
1548265,00000204,false,Rx,0,8,34,34,40,38,3A,00,00,00,
1550067,00000202,false,Rx,0,8,34,34,40,41,3A,00,00,00,
1551194,000001D5,false,Rx,0,8,22,99,29,22,22,22,99,99,
1554172,00000104,false,Rx,0,8,00,00,00,10,00,00,B0,9F,
1555299,00000201,false,Rx,0,8,34,34,40,3F,3A,00,00,00,
1556096,00000102,false,Rx,0,8,00,00,00,10,00,00,B0,DC,
1557556,00000200,false,Rx,0,8,33,34,40,3B,3B,00,00,00,
1559026,00000203,false,Rx,0,8,34,34,40,43,39,00,00,00,
1561326,00000101,false,Rx,0,8,00,00,00,10,00,00,B0,73,
1563210,00000105,false,Rx,0,8,00,00,00,10,00,00,C0,A3,
1563582,00000100,false,Rx,0,8,00,00,00,10,00,00,B0,16,
1565050,00000103,false,Rx,0,8,00,00,00,10,00,00,B0,B9,
1583166,000001C5,false,Rx,0,8,22,22,92,22,22,22,42,22,
1592023,000001D4,false,Rx,0,8,22,99,29,22,22,22,99,99,
1593991,000001D2,false,Rx,0,8,22,99,29,22,22,22,99,99,
1599312,000001D1,false,Rx,0,8,22,99,29,22,22,22,99,99,
1601615,000001D0,false,Rx,0,8,22,99,29,22,22,22,99,99,
1602999,000001D3,false,Rx,0,8,22,99,29,22,22,22,99,99,
1604126,00000104,false,Rx,0,8,00,00,00,10,00,00,C0,C6,
1605930,00000102,false,Rx,0,8,00,00,00,10,00,00,C0,85,
1607236,00000205,false,Rx,0,8,34,34,40,45,3B,00,00,00,
1611300,00000101,false,Rx,0,8,00,00,00,10,00,00,C0,2A,
1613273,00000105,false,Rx,0,8,00,00,00,10,00,00,D0,6E,
1613563,00000100,false,Rx,0,8,00,00,00,10,00,00,C0,4F,
1614946,00000103,false,Rx,0,8,00,00,00,10,00,00,C0,E0,
1624051,000001C4,false,Rx,0,8,22,22,92,22,22,22,42,22,
1625853,000001C2,false,Rx,0,8,22,22,92,22,22,22,42,22,
1631369,000001C1,false,Rx,0,8,22,22,92,22,22,22,42,22,
1633673,000001C0,false,Rx,0,8,22,22,92,22,22,22,42,22,
1634891,000001C3,false,Rx,0,8,22,22,92,22,22,22,42,22,
1648146,00000204,false,Rx,0,8,34,34,40,37,3A,00,00,00,
1651249,00000202,false,Rx,0,8,34,34,40,40,3A,00,00,00,
1654057,00000104,false,Rx,0,8,00,00,00,10,00,00,D0,0B,
1655350,00000201,false,Rx,0,8,34,34,40,3F,3A,00,00,00,
1655896,00000102,false,Rx,0,8,00,00,00,10,00,00,D0,48,
1657610,00000200,false,Rx,0,8,33,34,40,3B,3B,00,00,00,
1658996,00000203,false,Rx,0,8,34,34,40,44,39,00,00,00,
1661297,00000101,false,Rx,0,8,00,00,00,10,00,00,D0,E7,
1663292,00000105,false,Rx,0,8,00,00,00,10,00,00,E0,24,
1663496,00000100,false,Rx,0,8,00,00,00,10,00,00,D0,82,
1664965,00000103,false,Rx,0,8,00,00,00,10,00,00,D0,2D,
1704101,00000104,false,Rx,0,8,00,00,00,10,00,00,E0,41,
1705819,00000102,false,Rx,0,8,00,00,00,10,00,00,E0,02,
1707280,00000205,false,Rx,0,8,34,34,40,45,3B,00,00,00,
1711267,00000101,false,Rx,0,8,00,00,00,10,00,00,E0,AD,
1713318,00000105,false,Rx,0,8,00,00,00,10,00,00,00,96,
1713607,00000100,false,Rx,0,8,00,00,00,10,00,00,E0,C8,
1715074,00000103,false,Rx,0,8,00,00,00,10,00,00,E0,67,
1748263,00000204,false,Rx,0,8,34,34,40,38,3A,00,00,00,
1749724,00000202,false,Rx,0,8,34,34,40,41,3A,00,00,00,
1751108,000001D5,false,Rx,0,8,22,99,29,22,22,22,99,99,
1754134,00000104,false,Rx,0,8,00,00,00,10,00,00,00,F3,
1755261,00000201,false,Rx,0,8,34,34,40,3F,3A,00,00,00,
1755805,00000102,false,Rx,0,8,00,00,00,10,00,00,00,B0,
1757434,00000200,false,Rx,0,8,33,34,40,3C,3B,00,00,00,
1758902,00000203,false,Rx,0,8,34,34,40,44,39,00,00,00,
1761205,00000101,false,Rx,0,8,00,00,00,10,00,00,00,1F,
1763175,00000105,false,Rx,0,8,00,00,00,10,00,00,10,5B,
1763461,00000100,false,Rx,0,8,00,00,00,10,00,00,00,7A,
1765013,00000103,false,Rx,0,8,00,00,00,10,00,00,00,D5,
1783190,000001C5,false,Rx,0,8,22,22,92,22,22,22,42,22,
1792129,000001D4,false,Rx,0,8,22,99,29,22,22,22,99,99,
1793851,000001D2,false,Rx,0,8,22,99,29,22,22,22,99,99,
1799171,000001D1,false,Rx,0,8,22,99,29,22,22,22,99,99,
1801388,000001D0,false,Rx,0,8,22,99,29,22,22,22,99,99,
1804434,000001D3,false,Rx,0,8,22,99,29,22,22,22,99,99,
1804522,00000104,false,Rx,0,8,00,00,00,10,00,00,10,3E,
1805907,00000102,false,Rx,0,8,00,00,00,10,00,00,10,7D,
1807213,00000205,false,Rx,0,8,34,34,40,45,3B,00,00,00,
1811116,00000101,false,Rx,0,8,00,00,00,10,00,00,10,D2,
1813336,00000105,false,Rx,0,8,00,00,00,10,00,00,20,11,
1813541,00000100,false,Rx,0,8,00,00,00,10,00,00,10,B7,
1815009,00000103,false,Rx,0,8,00,00,00,10,00,00,10,18,
1824113,000001C4,false,Rx,0,8,22,22,92,22,22,22,42,22,
1825863,000001C2,false,Rx,0,8,22,22,92,22,22,22,42,22,
1831130,000001C1,false,Rx,0,8,22,22,92,22,22,22,42,22,
1833433,000001C0,false,Rx,0,8,22,22,92,22,22,22,42,22,
1834987,000001C3,false,Rx,0,8,22,22,92,22,22,22,42,22,
1848066,00000204,false,Rx,0,8,34,34,40,37,3A,00,00,00,
1849963,00000202,false,Rx,0,8,34,34,40,41,3A,00,00,00,
1854114,00000104,false,Rx,0,8,00,00,00,10,00,00,20,74,
1856414,00000201,false,Rx,0,8,34,34,40,3F,3A,00,00,00,
1856503,00000102,false,Rx,0,8,00,00,00,10,00,00,20,37,
1857550,00000200,false,Rx,0,8,33,34,40,3C,3B,00,00,00,
1859101,00000203,false,Rx,0,8,34,34,40,44,39,00,00,00,
1861153,00000101,false,Rx,0,8,00,00,00,10,00,00,20,98,
1863287,00000105,false,Rx,0,8,00,00,00,10,00,00,30,DC,
1863575,00000100,false,Rx,0,8,00,00,00,10,00,00,20,FD,
1865126,00000103,false,Rx,0,8,00,00,00,10,00,00,20,52,
1904046,00000104,false,Rx,0,8,00,00,00,10,00,00,30,B9,
1905931,00000102,false,Rx,0,8,00,00,00,10,00,00,30,FA,
1907356,00000205,false,Rx,0,8,34,34,40,45,3B,00,00,00,
1911172,00000101,false,Rx,0,8,00,00,00,10,00,00,30,55,
1913307,00000105,false,Rx,0,8,00,00,00,10,00,00,40,85,
1913595,00000100,false,Rx,0,8,00,00,00,10,00,00,30,30,
1915061,00000103,false,Rx,0,8,00,00,00,10,00,00,30,9F,
1948019,00000204,false,Rx,0,8,34,34,40,37,3A,00,00,00,
1949930,00000202,false,Rx,0,8,34,34,40,40,3A,00,00,00,
1951393,000001D5,false,Rx,0,8,22,99,29,22,22,22,99,99,
1954042,00000104,false,Rx,0,8,00,00,00,10,00,00,40,E0,
1955172,00000201,false,Rx,0,8,34,34,40,3F,3A,00,00,00,
1955884,00000102,false,Rx,0,8,00,00,00,10,00,00,40,A3,
1958153,00000200,false,Rx,0,8,33,34,40,3B,3B,00,00,00,
1959198,00000203,false,Rx,0,8,34,34,40,43,39,00,00,00,
1961166,00000101,false,Rx,0,8,00,00,00,10,00,00,40,0C,
1963382,00000105,false,Rx,0,8,00,00,00,10,00,00,50,48,
1963672,00000100,false,Rx,0,8,00,00,00,10,00,00,40,69,
1965223,00000103,false,Rx,0,8,00,00,00,10,00,00,40,C6,
1983394,000001C5,false,Rx,0,8,22,22,92,22,22,22,42,22,
1992083,000001D4,false,Rx,0,8,22,99,29,22,22,22,99,99,
1993883,000001D2,false,Rx,0,8,22,99,29,22,22,22,99,99,
1998959,000001D1,false,Rx,0,8,22,99,29,22,22,22,99,99,
2001429,000001D0,false,Rx,0,8,22,99,29,22,22,22,99,99,
2003148,000001D3,false,Rx,0,8,22,99,29,22,22,22,99,99,
2004108,00000104,false,Rx,0,8,00,00,00,10,00,00,50,2D,
2005992,00000102,false,Rx,0,8,00,00,00,10,00,00,50,6E,
2007550,00000205,false,Rx,0,8,34,34,40,44,3B,00,00,00,
2011076,00000101,false,Rx,0,8,00,00,00,10,00,00,50,C1,
2013464,00000100,false,Rx,0,8,00,00,00,10,00,00,50,A4,
2013760,00000105,false,Rx,0,8,00,00,00,10,00,00,60,02,
2015219,00000103,false,Rx,0,8,00,00,00,10,00,00,50,0B,
2024158,000001C4,false,Rx,0,8,22,22,92,22,22,22,42,22,
2025876,000001C2,false,Rx,0,8,22,22,92,22,22,22,42,22,
2031058,000001C1,false,Rx,0,8,22,22,92,22,22,22,42,22,
2033444,000001C0,false,Rx,0,8,22,22,92,22,22,22,42,22,
2035161,000001C3,false,Rx,0,8,22,22,92,22,22,22,42,22,
2048047,00000204,false,Rx,0,8,34,34,40,37,3A,00,00,00,
2049935,00000202,false,Rx,0,8,34,34,40,41,3A,00,00,00,
2054039,00000104,false,Rx,0,8,00,00,00,10,00,00,60,67,
2054999,00000201,false,Rx,0,8,34,34,40,3F,3A,00,00,00,
2055960,00000102,false,Rx,0,8,00,00,00,10,00,00,60,24,
2057505,00000200,false,Rx,0,8,33,34,40,3C,3B,00,00,00,
2059305,00000203,false,Rx,0,8,34,34,40,44,39,00,00,00,
2061909,00000101,false,Rx,0,8,00,00,00,10,00,00,60,8B,
2063535,00000100,false,Rx,0,8,00,00,00,10,00,00,60,EE,
2063747,00000105,false,Rx,0,8,00,00,00,10,00,00,70,CF,
2065206,00000103,false,Rx,0,8,00,00,00,10,00,00,60,41,
2103983,00000104,false,Rx,0,8,00,00,00,10,00,00,70,AA,
2105953,00000102,false,Rx,0,8,00,00,00,10,00,00,70,E9,
2107666,00000205,false,Rx,0,8,34,34,40,45,3B,00,00,00,
2110982,00000101,false,Rx,0,8,00,00,00,10,00,00,70,46,
2113398,00000100,false,Rx,0,8,00,00,00,10,00,00,70,23,
2113685,00000105,false,Rx,0,8,00,00,00,10,00,00,80,B0,
2115236,00000103,false,Rx,0,8,00,00,00,10,00,00,70,8C,
2147964,00000204,false,Rx,0,8,34,34,40,37,3A,00,00,00,
2149851,00000202,false,Rx,0,8,34,34,40,41,3A,00,00,00,
2151477,000001D5,false,Rx,0,8,22,99,29,22,22,22,99,99,
2153956,00000104,false,Rx,0,8,00,00,00,10,00,00,80,D5,
2154865,00000201,false,Rx,0,8,34,34,40,3F,3A,00,00,00,
2155826,00000102,false,Rx,0,8,00,00,00,10,00,00,80,96,
2157213,00000200,false,Rx,0,8,33,34,40,3C,3B,00,00,00,
2159267,00000203,false,Rx,0,8,34,34,40,43,39,00,00,00,
2160902,00000101,false,Rx,0,8,00,00,00,10,00,00,80,39,
2163454,00000100,false,Rx,0,8,00,00,00,10,00,00,80,5C,
2163660,00000105,false,Rx,0,8,00,00,00,10,00,00,90,7D,
2165292,00000103,false,Rx,0,8,00,00,00,10,00,00,80,F3,
2183577,000001C5,false,Rx,0,8,22,22,92,22,22,22,42,22,
2191931,000001D4,false,Rx,0,8,22,99,29,22,22,22,99,99,
2193815,000001D2,false,Rx,0,8,22,99,29,22,22,22,99,99,
2198888,000001D1,false,Rx,0,8,22,99,29,22,22,22,99,99,
2201275,000001D0,false,Rx,0,8,22,99,29,22,22,22,99,99,
2203243,000001D3,false,Rx,0,8,22,99,29,22,22,22,99,99,
2204036,00000104,false,Rx,0,8,00,00,00,10,00,00,90,18,
2205839,00000102,false,Rx,0,8,00,00,00,10,00,00,90,5B,
2207562,00000205,false,Rx,0,8,34,34,40,45,3B,00,00,00,
2210962,00000101,false,Rx,0,8,00,00,00,10,00,00,90,F4,
2213268,00000100,false,Rx,0,8,00,00,00,10,00,00,90,91,
2213471,00000105,false,Rx,0,8,00,00,00,10,00,00,A0,37,
2215282,00000103,false,Rx,0,8,00,00,00,10,00,00,90,3E,
2223974,000001C4,false,Rx,0,8,22,22,92,22,22,22,42,22,
2225862,000001C2,false,Rx,0,8,22,22,92,22,22,22,42,22,
2231044,000001C1,false,Rx,0,8,22,22,92,22,22,22,42,22,
2233346,000001C0,false,Rx,0,8,22,22,92,22,22,22,42,22,
2235232,000001C3,false,Rx,0,8,22,22,92,22,22,22,42,22,
2247955,00000204,false,Rx,0,8,34,34,40,37,3A,00,00,00,
2249840,00000202,false,Rx,0,8,34,34,40,40,3A,00,00,00,
2253906,00000104,false,Rx,0,8,00,00,00,10,00,00,A0,52,
2254867,00000201,false,Rx,0,8,34,34,40,3F,3A,00,00,00,
2255827,00000102,false,Rx,0,8,00,00,00,10,00,00,A0,11,
2257237,00000200,false,Rx,0,8,33,34,40,3C,3B,00,00,00,
2259383,00000203,false,Rx,0,8,34,34,40,43,39,00,00,00,
2260854,00000101,false,Rx,0,8,00,00,00,10,00,00,A0,BE,
2263238,00000100,false,Rx,0,8,00,00,00,10,00,00,A0,DB,
2263524,00000105,false,Rx,0,8,00,00,00,10,00,00,B0,FA,
2267217,00000103,false,Rx,0,8,00,00,00,10,00,00,A0,74,
2303872,00000104,false,Rx,0,8,00,00,00,10,00,00,B0,9F,
2305833,00000102,false,Rx,0,8,00,00,00,10,00,00,B0,DC,
2307292,00000205,false,Rx,0,8,34,34,40,45,3B,00,00,00,
2310775,00000101,false,Rx,0,8,00,00,00,10,00,00,B0,73,
2313159,00000100,false,Rx,0,8,00,00,00,10,00,00,B0,16,
2313445,00000105,false,Rx,0,8,00,00,00,10,00,00,C0,A3,
2315330,00000103,false,Rx,0,8,00,00,00,10,00,00,B0,B9,
2347833,00000204,false,Rx,0,8,34,34,40,37,3A,00,00,00,
2349884,00000202,false,Rx,0,8,34,34,40,41,3A,00,00,00,
2351344,000001D5,false,Rx,0,8,22,99,29,22,22,22,99,99,
2353905,00000104,false,Rx,0,8,00,00,00,10,00,00,C0,C6,
2354782,00000201,false,Rx,0,8,34,34,40,3F,3A,00,00,00,
2355909,00000102,false,Rx,0,8,00,00,00,10,00,00,C0,85,
2357286,00000200,false,Rx,0,8,33,34,40,3B,3A,00,00,00,
2359362,00000203,false,Rx,0,8,34,34,40,43,39,00,00,00,
2360834,00000101,false,Rx,0,8,00,00,00,10,00,00,C0,2A,
2363224,00000100,false,Rx,0,8,00,00,00,10,00,00,C0,4F,
2363511,00000105,false,Rx,0,8,00,00,00,10,00,00,D0,6E,
2365312,00000103,false,Rx,0,8,00,00,00,10,00,00,C0,E0,
2383303,000001C5,false,Rx,0,8,22,22,92,22,22,22,42,22,
2391908,000001D4,false,Rx,0,8,22,99,29,22,22,22,99,99,
2393876,000001D2,false,Rx,0,8,22,99,29,22,22,22,99,99,
2398955,000001D1,false,Rx,0,8,22,99,29,22,22,22,99,99,
2401422,000001D0,false,Rx,0,8,22,99,29,22,22,22,99,99,
2403223,000001D3,false,Rx,0,8,22,99,29,22,22,22,99,99,
2404018,00000104,false,Rx,0,8,00,00,00,10,00,00,D0,0B,
2405903,00000102,false,Rx,0,8,00,00,00,10,00,00,D0,48,
2407379,00000205,false,Rx,0,8,34,34,40,45,3B,00,00,00,
2410949,00000101,false,Rx,0,8,00,00,00,10,00,00,D0,E7,
2413418,00000100,false,Rx,0,8,00,00,00,10,00,00,D0,82,
2413623,00000105,false,Rx,0,8,00,00,00,10,00,00,E0,24,
2415259,00000103,false,Rx,0,8,00,00,00,10,00,00,D0,2D,
2424013,000001C4,false,Rx,0,8,22,22,92,22,22,22,42,22,
2425899,000001C2,false,Rx,0,8,22,22,92,22,22,22,42,22,
2430935,000001C1,false,Rx,0,8,22,22,92,22,22,22,42,22,
2433401,000001C0,false,Rx,0,8,22,22,92,22,22,22,42,22,
2435204,000001C3,false,Rx,0,8,22,22,92,22,22,22,42,22,
2448010,00000204,false,Rx,0,8,34,34,40,37,3A,00,00,00,
2449895,00000202,false,Rx,0,8,34,34,40,41,3A,00,00,00,
2454130,00000104,false,Rx,0,8,00,00,00,10,00,00,E0,41,
2455009,00000201,false,Rx,0,8,34,34,40,3F,3A,00,00,00,
2455886,00000102,false,Rx,0,8,00,00,00,10,00,00,E0,02,
2457345,00000200,false,Rx,0,8,33,34,40,3B,3B,00,00,00,
2459230,00000203,false,Rx,0,8,34,34,40,43,39,00,00,00,
2460949,00000101,false,Rx,0,8,00,00,00,10,00,00,E0,AD,
2463278,00000105,false,Rx,0,8,00,00,00,10,00,00,00,96,
2463493,00000100,false,Rx,0,8,00,00,00,10,00,00,E0,C8,
2465212,00000103,false,Rx,0,8,00,00,00,10,00,00,E0,67,
2504121,00000104,false,Rx,0,8,00,00,00,10,00,00,00,F3,
2505923,00000102,false,Rx,0,8,00,00,00,10,00,00,00,B0,
2507217,00000205,false,Rx,0,8,34,34,40,45,3B,00,00,00,
2511036,00000101,false,Rx,0,8,00,00,00,10,00,00,00,1F,
2513256,00000105,false,Rx,0,8,00,00,00,10,00,00,10,5B,
2513543,00000100,false,Rx,0,8,00,00,00,10,00,00,00,7A,
2515261,00000103,false,Rx,0,8,00,00,00,10,00,00,00,D5,
2548031,00000204,false,Rx,0,8,34,34,40,37,3A,00,00,00,
2549751,00000202,false,Rx,0,8,34,34,40,41,3A,00,00,00,
2551292,000001D5,false,Rx,0,8,22,99,29,22,22,22,99,99,
2554023,00000104,false,Rx,0,8,00,00,00,10,00,00,10,3E,
2554900,00000201,false,Rx,0,8,34,34,40,3F,3A,00,00,00,
2555779,00000102,false,Rx,0,8,00,00,00,10,00,00,10,7D,
2557322,00000200,false,Rx,0,8,33,34,40,3C,3B,00,00,00,
2559124,00000203,false,Rx,0,8,34,34,40,43,39,00,00,00,
2560928,00000101,false,Rx,0,8,00,00,00,10,00,00,10,D2,
2563311,00000100,false,Rx,0,8,00,00,00,10,00,00,10,B7,
2563631,00000105,false,Rx,0,8,00,00,00,10,00,00,20,11,
2565100,00000103,false,Rx,0,8,00,00,00,10,00,00,10,18,
2583106,000001C5,false,Rx,0,8,22,22,92,22,22,22,42,22,
2591963,000001D4,false,Rx,0,8,22,99,29,22,22,22,99,99,
2593764,000001D2,false,Rx,0,8,22,99,29,22,22,22,99,99,
2598833,000001D1,false,Rx,0,8,22,99,29,22,22,22,99,99,
2601132,000001D0,false,Rx,0,8,22,99,29,22,22,22,99,99,
2603020,000001D3,false,Rx,0,8,22,99,29,22,22,22,99,99,
2603982,00000104,false,Rx,0,8,00,00,00,10,00,00,20,74,
2605783,00000102,false,Rx,0,8,00,00,00,10,00,00,20,37,
2607172,00000205,false,Rx,0,8,34,34,40,45,3B,00,00,00,
2610820,00000101,false,Rx,0,8,00,00,00,10,00,00,20,98,
2613123,00000105,false,Rx,0,8,00,00,00,10,00,00,30,DC,
2613409,00000100,false,Rx,0,8,00,00,00,10,00,00,20,FD,
2615129,00000103,false,Rx,0,8,00,00,00,10,00,00,20,52,
2624972,000001C4,false,Rx,0,8,22,22,92,22,22,22,42,22,
2625677,000001C2,false,Rx,0,8,22,22,92,22,22,22,42,22,
2630602,000001C1,false,Rx,0,8,22,22,92,22,22,22,42,22,
2633163,000001C0,false,Rx,0,8,22,22,92,22,22,22,42,22,
2635132,000001C3,false,Rx,0,8,22,22,92,22,22,22,42,22,
2648023,00000204,false,Rx,0,8,34,34,40,37,3A,00,00,00,
2649651,00000202,false,Rx,0,8,34,34,40,41,3A,00,00,00,
2654056,00000104,false,Rx,0,8,00,00,00,10,00,00,30,B9,
2654594,00000201,false,Rx,0,8,34,34,40,3F,3A,00,00,00,
2655720,00000102,false,Rx,0,8,00,00,00,10,00,00,30,FA,
2657192,00000200,false,Rx,0,8,33,34,40,3C,3B,00,00,00,
2659076,00000203,false,Rx,0,8,34,34,40,43,39,00,00,00,
2660704,00000101,false,Rx,0,8,00,00,00,10,00,00,30,55,
2663097,00000105,false,Rx,0,8,00,00,00,10,00,00,40,85,
2663383,00000100,false,Rx,0,8,00,00,00,10,00,00,30,30,
2665103,00000103,false,Rx,0,8,00,00,00,10,00,00,30,9F,
2704000,00000104,false,Rx,0,8,00,00,00,10,00,00,40,E0,
2705544,00000102,false,Rx,0,8,00,00,00,10,00,00,40,A3,
2707012,00000205,false,Rx,0,8,34,34,40,45,3B,00,00,00,
2710735,00000101,false,Rx,0,8,00,00,00,10,00,00,40,0C,
2713043,00000105,false,Rx,0,8,00,00,00,10,00,00,50,48,
2713246,00000100,false,Rx,0,8,00,00,00,10,00,00,40,69,
2715215,00000103,false,Rx,0,8,00,00,00,10,00,00,40,C6,
2748153,00000204,false,Rx,0,8,34,34,40,37,3A,00,00,00,
2749615,00000202,false,Rx,0,8,34,34,40,41,3A,00,00,00,
2751166,000001D5,false,Rx,0,8,22,99,29,22,22,22,99,99,
2754140,00000104,false,Rx,0,8,00,00,00,10,00,00,50,2D,
2754594,00000201,false,Rx,0,8,34,34,40,3F,3A,00,00,00,
2755639,00000102,false,Rx,0,8,00,00,00,10,00,00,50,6E,
2757025,00000200,false,Rx,0,8,33,34,40,3C,3B,00,00,00,
2759243,00000203,false,Rx,0,8,34,34,40,43,39,00,00,00,
2760620,00000101,false,Rx,0,8,00,00,00,10,00,00,50,C1,
2763013,00000100,false,Rx,0,8,00,00,00,10,00,00,50,A4,
2763299,00000105,false,Rx,0,8,00,00,00,10,00,00,60,02,
2765269,00000103,false,Rx,0,8,00,00,00,10,00,00,50,0B,
2783189,000001C5,false,Rx,0,8,22,22,92,22,22,22,42,22,
2792212,000001D4,false,Rx,0,8,22,99,29,22,22,22,99,99,
2793508,000001D2,false,Rx,0,8,22,99,29,22,22,22,99,99,
2798498,000001D1,false,Rx,0,8,22,99,29,22,22,22,99,99,
2801057,000001D0,false,Rx,0,8,22,99,29,22,22,22,99,99,
2803358,000001D3,false,Rx,0,8,22,99,29,22,22,22,99,99,
2804235,00000104,false,Rx,0,8,00,00,00,10,00,00,60,67,
2805529,00000102,false,Rx,0,8,00,00,00,10,00,00,60,24,
2807180,00000205,false,Rx,0,8,34,34,40,44,3B,00,00,00,
2810487,00000101,false,Rx,0,8,00,00,00,10,00,00,60,8B,
2813050,00000100,false,Rx,0,8,00,00,00,10,00,00,60,EE,
2813252,00000105,false,Rx,0,8,00,00,00,10,00,00,70,CF,
2815386,00000103,false,Rx,0,8,00,00,00,10,00,00,60,41,
2824269,000001C4,false,Rx,0,8,22,22,92,22,22,22,42,22,
2825566,000001C2,false,Rx,0,8,22,22,92,22,22,22,42,22,
2830482,000001C1,false,Rx,0,8,22,22,92,22,22,22,42,22,
2832977,000001C0,false,Rx,0,8,22,22,92,22,22,22,42,22,
2835363,000001C3,false,Rx,0,8,22,22,92,22,22,22,42,22,
2848249,00000204,false,Rx,0,8,34,34,40,37,3A,00,00,00,
2849544,00000202,false,Rx,0,8,34,34,40,40,3A,00,00,00,
2854202,00000104,false,Rx,0,8,00,00,00,10,00,00,70,AA,
2854488,00000201,false,Rx,0,8,34,34,40,3F,3A,00,00,00,
2855531,00000102,false,Rx,0,8,00,00,00,10,00,00,70,E9,
2857082,00000200,false,Rx,0,8,33,34,40,3C,3B,00,00,00,
2859382,00000203,false,Rx,0,8,34,34,40,44,39,00,00,00,
2860512,00000101,false,Rx,0,8,00,00,00,10,00,00,70,46,
2863154,00000100,false,Rx,0,8,00,00,00,10,00,00,70,23,
2863356,00000105,false,Rx,0,8,00,00,00,10,00,00,80,B0,
2865406,00000103,false,Rx,0,8,00,00,00,10,00,00,70,8C,
2904123,00000104,false,Rx,0,8,00,00,00,10,00,00,80,D5,
2905583,00000102,false,Rx,0,8,00,00,00,10,00,00,80,96,
2907299,00000205,false,Rx,0,8,34,34,40,45,3B,00,00,00,
2910445,00000101,false,Rx,0,8,00,00,00,10,00,00,80,39,
2913090,00000100,false,Rx,0,8,00,00,00,10,00,00,80,5C,
2913292,00000105,false,Rx,0,8,00,00,00,10,00,00,90,7D,
2915429,00000103,false,Rx,0,8,00,00,00,10,00,00,80,F3,
2948174,00000204,false,Rx,0,8,34,34,40,38,3A,00,00,00,
2949553,00000202,false,Rx,0,8,34,34,40,41,3A,00,00,00,
2951273,000001D5,false,Rx,0,8,22,99,29,22,22,22,99,99,
2954164,00000104,false,Rx,0,8,00,00,00,10,00,00,90,18,
2954450,00000201,false,Rx,0,8,34,34,40,3F,3A,00,00,00,
2955578,00000102,false,Rx,0,8,00,00,00,10,00,00,90,5B,
2957046,00000200,false,Rx,0,8,33,34,40,3C,3B,00,00,00,
2959516,00000203,false,Rx,0,8,34,34,40,43,39,00,00,00,
2960477,00000101,false,Rx,0,8,00,00,00,10,00,00,90,F4,
2963040,00000100,false,Rx,0,8,00,00,00,10,00,00,90,91,
2963326,00000105,false,Rx,0,8,00,00,00,10,00,00,A0,37,
2965544,00000103,false,Rx,0,8,00,00,00,10,00,00,90,3E,
2983214,000001C5,false,Rx,0,8,22,22,92,22,22,22,42,22,
2992069,000001D4,false,Rx,0,8,22,99,29,22,22,22,99,99,
2993530,000001D2,false,Rx,0,8,22,99,29,22,22,22,99,99,
2998358,000001D1,false,Rx,0,8,22,99,29,22,22,22,99,99,
3001000,000001D0,false,Rx,0,8,22,99,29,22,22,22,99,99,
3003553,000001D3,false,Rx,0,8,22,99,29,22,22,22,99,99,
3004180,00000104,false,Rx,0,8,00,00,00,10,00,00,A0,52,
3005555,00000102,false,Rx,0,8,00,00,00,10,00,00,A0,11,
3007290,00000205,false,Rx,0,8,34,34,40,45,3B,00,00,00,
3010436,00000101,false,Rx,0,8,00,00,00,10,00,00,A0,BE,
3012998,00000100,false,Rx,0,8,00,00,00,10,00,00,A0,DB,
3013366,00000105,false,Rx,0,8,00,00,00,10,00,00,B0,FA,
3015503,00000103,false,Rx,0,8,00,00,00,10,00,00,A0,74,
3024031,000001C4,false,Rx,0,8,22,22,92,22,22,22,42,22,
3025576,000001C2,false,Rx,0,8,22,22,92,22,22,22,42,22,
3030326,000001C1,false,Rx,0,8,22,22,92,22,22,22,42,22,
3032986,000001C0,false,Rx,0,8,22,22,92,22,22,22,42,22,
3035481,000001C3,false,Rx,0,8,22,22,92,22,22,22,42,22,
3048031,00000204,false,Rx,0,8,34,34,40,38,3A,00,00,00,
3049576,00000202,false,Rx,0,8,34,34,40,41,3A,00,00,00,
3053981,00000104,false,Rx,0,8,00,00,00,10,00,00,B0,9F,
3054351,00000201,false,Rx,0,8,34,34,40,3F,3A,00,00,00,
3055645,00000102,false,Rx,0,8,00,00,00,10,00,00,B0,DC,
3056947,00000200,false,Rx,0,8,33,34,40,3C,3B,00,00,00,
3059498,00000203,false,Rx,0,8,34,34,40,44,39,00,00,00,
3060376,00000101,false,Rx,0,8,00,00,00,10,00,00,B0,73,
3062940,00000100,false,Rx,0,8,00,00,00,10,00,00,B0,16,
3063226,00000105,false,Rx,0,8,00,00,00,10,00,00,C0,A3,
3065529,00000103,false,Rx,0,8,00,00,00,10,00,00,B0,B9,
3104010,00000104,false,Rx,0,8,00,00,00,10,00,00,C0,C6,
3105637,00000102,false,Rx,0,8,00,00,00,10,00,00,C0,85,
3107192,00000205,false,Rx,0,8,34,34,40,45,3B,00,00,00,
3110331,00000101,false,Rx,0,8,00,00,00,10,00,00,C0,2A,
3112890,00000100,false,Rx,0,8,00,00,00,10,00,00,C0,4F,
3113176,00000105,false,Rx,0,8,00,00,00,10,00,00,D0,6E,
3115476,00000103,false,Rx,0,8,00,00,00,10,00,00,C0,E0,
3147915,00000204,false,Rx,0,8,34,34,40,37,3A,00,00,00,
3149541,00000202,false,Rx,0,8,34,34,40,40,3A,00,00,00,
3151095,000001D5,false,Rx,0,8,22,99,29,22,22,22,99,99,
3153987,00000104,false,Rx,0,8,00,00,00,10,00,00,D0,0B,
3154356,00000201,false,Rx,0,8,34,34,40,3F,3A,00,00,00,
3155569,00000102,false,Rx,0,8,00,00,00,10,00,00,D0,48,
3156870,00000200,false,Rx,0,8,33,34,40,3C,3B,00,00,00,
3159423,00000203,false,Rx,0,8,34,34,40,44,39,00,00,00,
3160383,00000101,false,Rx,0,8,00,00,00,10,00,00,D0,E7,
3162862,00000100,false,Rx,0,8,00,00,00,10,00,00,D0,82,
3163149,00000105,false,Rx,0,8,00,00,00,10,00,00,E0,24,
3165451,00000103,false,Rx,0,8,00,00,00,10,00,00,D0,2D,
3183083,000001C5,false,Rx,0,8,22,22,92,22,22,22,42,22,
3191819,000001D4,false,Rx,0,8,22,99,29,22,22,22,99,99,
3193447,000001D2,false,Rx,0,8,22,99,29,22,22,22,99,99,
3198455,000001D1,false,Rx,0,8,22,99,29,22,22,22,99,99,
3200940,000001D0,false,Rx,0,8,22,99,29,22,22,22,99,99,
3203491,000001D3,false,Rx,0,8,22,99,29,22,22,22,99,99,
3203869,00000104,false,Rx,0,8,00,00,00,10,00,00,E0,41,
3205413,00000102,false,Rx,0,8,00,00,00,10,00,00,E0,02,
3207061,00000205,false,Rx,0,8,34,34,40,44,3B,00,00,00,
3210454,00000101,false,Rx,0,8,00,00,00,10,00,00,E0,AD,
3212935,00000100,false,Rx,0,8,00,00,00,10,00,00,E0,C8,
3213138,00000105,false,Rx,0,8,00,00,00,10,00,00,00,96,
3215524,00000103,false,Rx,0,8,00,00,00,10,00,00,E0,67,
3223797,000001C4,false,Rx,0,8,22,22,92,22,22,22,42,22,
3225508,000001C2,false,Rx,0,8,22,22,92,22,22,22,42,22,
3230428,000001C1,false,Rx,0,8,22,22,92,22,22,22,42,22,
3232917,000001C0,false,Rx,0,8,22,22,92,22,22,22,42,22,
3235465,000001C3,false,Rx,0,8,22,22,92,22,22,22,42,22,
3247800,00000204,false,Rx,0,8,34,34,40,37,3A,00,00,00,
3249678,00000202,false,Rx,0,8,34,34,40,41,3A,00,00,00,
3253833,00000104,false,Rx,0,8,00,00,00,10,00,00,00,F3,
3254535,00000201,false,Rx,0,8,34,34,40,3F,3A,00,00,00,
3255665,00000102,false,Rx,0,8,00,00,00,10,00,00,00,B0,
3256967,00000200,false,Rx,0,8,33,34,40,3C,3B,00,00,00,
3259519,00000203,false,Rx,0,8,34,34,40,43,39,00,00,00,
3260567,00000101,false,Rx,0,8,00,00,00,10,00,00,00,1F,
3263041,00000105,false,Rx,0,8,00,00,00,10,00,00,10,5B,
3263244,00000100,false,Rx,0,8,00,00,00,10,00,00,00,7A,
3265630,00000103,false,Rx,0,8,00,00,00,10,00,00,00,D5,
3304000,00000104,false,Rx,0,8,00,00,00,10,00,00,10,3E,
3305801,00000102,false,Rx,0,8,00,00,00,10,00,00,10,7D,
3307095,00000205,false,Rx,0,8,34,34,40,45,3B,00,00,00,
3310486,00000101,false,Rx,0,8,00,00,00,10,00,00,10,D2,
3313047,00000100,false,Rx,0,8,00,00,00,10,00,00,10,B7,
3313249,00000105,false,Rx,0,8,00,00,00,10,00,00,20,11,
3315634,00000103,false,Rx,0,8,00,00,00,10,00,00,10,18,
3347810,00000204,false,Rx,0,8,34,34,40,37,3A,00,00,00,
3349688,00000202,false,Rx,0,8,34,34,40,40,3A,00,00,00,
3351156,000001D5,false,Rx,0,8,22,99,29,22,22,22,99,99,
3353799,00000104,false,Rx,0,8,00,00,00,10,00,00,20,74,
3354501,00000201,false,Rx,0,8,34,34,40,3F,3A,00,00,00,
3355713,00000102,false,Rx,0,8,00,00,00,10,00,00,20,37,
3357014,00000200,false,Rx,0,8,33,34,40,3C,3B,00,00,00,
3359648,00000203,false,Rx,0,8,34,34,40,44,39,00,00,00,
3360609,00000101,false,Rx,0,8,00,00,00,10,00,00,20,98,
3363083,00000105,false,Rx,0,8,00,00,00,10,00,00,30,DC,
3363368,00000100,false,Rx,0,8,00,00,00,10,00,00,20,FD,
3365673,00000103,false,Rx,0,8,00,00,00,10,00,00,20,52,
3383208,000001C5,false,Rx,0,8,22,22,92,22,22,22,42,22,
3392791,000001D4,false,Rx,0,8,22,99,29,22,22,22,99,99,
3393579,000001D2,false,Rx,0,8,22,99,29,22,22,22,99,99,
3398569,000001D1,false,Rx,0,8,22,99,29,22,22,22,99,99,
3401042,000001D0,false,Rx,0,8,22,99,29,22,22,22,99,99,
3403598,000001D3,false,Rx,0,8,22,99,29,22,22,22,99,99,
3403802,00000104,false,Rx,0,8,00,00,00,10,00,00,30,B9,
3405596,00000102,false,Rx,0,8,00,00,00,10,00,00,30,FA,
3407159,00000205,false,Rx,0,8,34,34,40,45,3B,00,00,00,
3410550,00000101,false,Rx,0,8,00,00,00,10,00,00,30,55,
3413111,00000100,false,Rx,0,8,00,00,00,10,00,00,30,30,
3413314,00000105,false,Rx,0,8,00,00,00,10,00,00,40,85,
3415530,00000103,false,Rx,0,8,00,00,00,10,00,00,30,9F,
3423805,000001C4,false,Rx,0,8,22,22,92,22,22,22,42,22,
3425514,000001C2,false,Rx,0,8,22,22,92,22,22,22,42,22,
3430607,000001C1,false,Rx,0,8,22,22,92,22,22,22,42,22,
3433096,000001C0,false,Rx,0,8,22,22,92,22,22,22,42,22,
3435647,000001C3,false,Rx,0,8,22,22,92,22,22,22,42,22,
3447881,00000204,false,Rx,0,8,34,34,40,38,3A,00,00,00,
3449509,00000202,false,Rx,0,8,34,34,40,40,3A,00,00,00,
3453833,00000104,false,Rx,0,8,00,00,00,10,00,00,40,E0,
3454551,00000201,false,Rx,0,8,34,34,40,3F,3A,00,00,00,
3455522,00000102,false,Rx,0,8,00,00,00,10,00,00,40,A3,
3457073,00000200,false,Rx,0,8,33,34,40,3C,3B,00,00,00,
3459708,00000203,false,Rx,0,8,34,34,40,44,39,00,00,00,
3460587,00000101,false,Rx,0,8,00,00,00,10,00,00,40,0C,
3463062,00000105,false,Rx,0,8,00,00,00,10,00,00,50,48,
3463347,00000100,false,Rx,0,8,00,00,00,10,00,00,40,69,
3465569,00000103,false,Rx,0,8,00,00,00,10,00,00,40,C6,
3503781,00000104,false,Rx,0,8,00,00,00,10,00,00,50,2D,
3505407,00000102,false,Rx,0,8,00,00,00,10,00,00,50,6E,
3507042,00000205,false,Rx,0,8,34,34,40,44,3B,00,00,00,
3510608,00000101,false,Rx,0,8,00,00,00,10,00,00,50,C1,
3513082,00000105,false,Rx,0,8,00,00,00,10,00,00,60,02,
3513285,00000100,false,Rx,0,8,00,00,00,10,00,00,50,A4,
3515506,00000103,false,Rx,0,8,00,00,00,10,00,00,50,0B,
3547862,00000204,false,Rx,0,8,34,34,40,38,3A,00,00,00,
3549404,00000202,false,Rx,0,8,34,34,40,41,3A,00,00,00,
3551122,000001D5,false,Rx,0,8,22,99,29,22,22,22,99,99,
3553766,00000104,false,Rx,0,8,00,00,00,10,00,00,60,67,
3554467,00000201,false,Rx,0,8,34,34,40,3F,3A,00,00,00,
3555427,00000102,false,Rx,0,8,00,00,00,10,00,00,60,24,
3557062,00000200,false,Rx,0,8,33,34,40,3C,3B,00,00,00,
3559615,00000203,false,Rx,0,8,34,34,40,44,39,00,00,00,
3560492,00000101,false,Rx,0,8,00,00,00,10,00,00,60,8B,
3563050,00000100,false,Rx,0,8,00,00,00,10,00,00,60,EE,
3563336,00000105,false,Rx,0,8,00,00,00,10,00,00,70,CF,
3565553,00000103,false,Rx,0,8,00,00,00,10,00,00,60,41,
3583083,000001C5,false,Rx,0,8,22,22,92,22,22,22,42,22,
3591809,000001D4,false,Rx,0,8,22,99,29,22,22,22,99,99,
3593352,000001D2,false,Rx,0,8,22,99,29,22,22,22,99,99,
3598434,000001D1,false,Rx,0,8,22,99,29,22,22,22,99,99,
3601076,000001D0,false,Rx,0,8,22,99,29,22,22,22,99,99,
3603630,000001D3,false,Rx,0,8,22,99,29,22,22,22,99,99,
3603841,00000104,false,Rx,0,8,00,00,00,10,00,00,70,AA,
3605301,00000102,false,Rx,0,8,00,00,00,10,00,00,70,E9,
3607200,00000205,false,Rx,0,8,34,34,40,45,3B,00,00,00,
3610511,00000101,false,Rx,0,8,00,00,00,10,00,00,70,46,
3612991,00000100,false,Rx,0,8,00,00,00,10,00,00,70,23,
3613192,00000105,false,Rx,0,8,00,00,00,10,00,00,80,B0,
3615754,00000103,false,Rx,0,8,00,00,00,10,00,00,70,8C,
3623761,000001C4,false,Rx,0,8,22,22,92,22,22,22,42,22,
3625311,000001C2,false,Rx,0,8,22,22,92,22,22,22,42,22,
3630481,000001C1,false,Rx,0,8,22,22,92,22,22,22,42,22,
3633058,000001C0,false,Rx,0,8,22,22,92,22,22,22,42,22,
3635613,000001C3,false,Rx,0,8,22,22,92,22,22,22,42,22,
3647832,00000204,false,Rx,0,8,34,34,40,38,3A,00,00,00,
3649843,00000202,false,Rx,0,8,34,34,40,41,3A,00,00,00,
3653825,00000104,false,Rx,0,8,00,00,00,10,00,00,80,D5,
3654444,00000201,false,Rx,0,8,34,34,40,3F,3A,00,00,00,
3655238,00000102,false,Rx,0,8,00,00,00,10,00,00,80,96,
3657040,00000200,false,Rx,0,8,33,34,40,3C,3B,00,00,00,
3659673,00000203,false,Rx,0,8,34,34,40,44,39,00,00,00,
3660466,00000101,false,Rx,0,8,00,00,00,10,00,00,80,39,
3663029,00000100,false,Rx,0,8,00,00,00,10,00,00,80,5C,
3663314,00000105,false,Rx,0,8,00,00,00,10,00,00,90,7D,
3665698,00000103,false,Rx,0,8,00,00,00,10,00,00,80,F3,
3703876,00000104,false,Rx,0,8,00,00,00,10,00,00,90,18,
3705090,00000102,false,Rx,0,8,00,00,00,10,00,00,90,5B,
3707057,00000205,false,Rx,0,8,34,34,40,45,3B,00,00,00,
3710448,00000101,false,Rx,0,8,00,00,00,10,00,00,90,F4,
3713030,00000100,false,Rx,0,8,00,00,00,10,00,00,90,91,
3713316,00000105,false,Rx,0,8,00,00,00,10,00,00,A0,37,
3715793,00000103,false,Rx,0,8,00,00,00,10,00,00,90,3E,
3747847,00000204,false,Rx,0,8,34,34,40,38,3A,00,00,00,
3749140,00000202,false,Rx,0,8,34,34,40,41,3A,00,00,00,
3751180,000001D5,false,Rx,0,8,22,99,29,22,22,22,99,99,
3753817,00000104,false,Rx,0,8,00,00,00,10,00,00,A0,52,
3754353,00000201,false,Rx,0,8,34,34,40,3F,3A,00,00,00,
3755065,00000102,false,Rx,0,8,00,00,00,10,00,00,A0,11,
3756949,00000200,false,Rx,0,8,33,34,40,3C,3B,00,00,00,
3759840,00000203,false,Rx,0,8,34,34,40,43,39,00,00,00,
3760293,00000101,false,Rx,0,8,00,00,00,10,00,00,A0,BE,
3762940,00000100,false,Rx,0,8,00,00,00,10,00,00,A0,DB,
3763143,00000105,false,Rx,0,8,00,00,00,10,00,00,B0,FA,
3765872,00000103,false,Rx,0,8,00,00,00,10,00,00,A0,74,
3783121,000001C5,false,Rx,0,8,22,22,92,22,22,22,42,22,
3791809,000001D4,false,Rx,0,8,22,99,29,22,22,22,99,99,
3793043,000001D2,false,Rx,0,8,22,99,29,22,22,22,99,99,
3798382,000001D1,false,Rx,0,8,22,99,29,22,22,22,99,99,
3800946,000001D0,false,Rx,0,8,22,99,29,22,22,22,99,99,
3803791,000001D3,false,Rx,0,8,22,99,29,22,22,22,99,99,
3804077,00000104,false,Rx,0,8,00,00,00,10,00,00,B0,9F,
3805037,00000102,false,Rx,0,8,00,00,00,10,00,00,B0,DC,
3807105,00000205,false,Rx,0,8,34,34,40,45,3B,00,00,00,
3810413,00000101,false,Rx,0,8,00,00,00,10,00,00,B0,73,
3813058,00000100,false,Rx,0,8,00,00,00,10,00,00,B0,16,
3813262,00000105,false,Rx,0,8,00,00,00,10,00,00,C0,A3,
3815986,00000103,false,Rx,0,8,00,00,00,10,00,00,B0,B9,
3823916,000001C4,false,Rx,0,8,22,22,92,22,22,22,42,22,
3825072,000001C2,false,Rx,0,8,22,22,92,22,22,22,42,22,
3830406,000001C1,false,Rx,0,8,22,22,92,22,22,22,42,22,
3832977,000001C0,false,Rx,0,8,22,22,92,22,22,22,42,22,
3835872,000001C3,false,Rx,0,8,22,22,92,22,22,22,42,22,
3847833,00000204,false,Rx,0,8,34,34,40,38,3A,00,00,00,
3849125,00000202,false,Rx,0,8,34,34,40,40,3A,00,00,00,
3854769,00000104,false,Rx,0,8,00,00,00,10,00,00,C0,C6,
3854858,00000201,false,Rx,0,8,34,34,40,3F,3A,00,00,00,
3855144,00000102,false,Rx,0,8,00,00,00,10,00,00,C0,85,
3856947,00000200,false,Rx,0,8,33,34,40,3C,3B,00,00,00,
3859759,00000203,false,Rx,0,8,34,34,40,43,39,00,00,00,
3860294,00000101,false,Rx,0,8,00,00,00,10,00,00,C0,2A,
3862857,00000100,false,Rx,0,8,00,00,00,10,00,00,C0,4F,
3863143,00000105,false,Rx,0,8,00,00,00,10,00,00,D0,6E,
3865787,00000103,false,Rx,0,8,00,00,00,10,00,00,C0,E0,
3903903,00000104,false,Rx,0,8,00,00,00,10,00,00,D0,0B,
3905557,00000102,false,Rx,0,8,00,00,00,10,00,00,D0,48,
3907025,00000205,false,Rx,0,8,34,34,40,44,3B,00,00,00,
3910332,00000101,false,Rx,0,8,00,00,00,10,00,00,D0,E7,
3912974,00000100,false,Rx,0,8,00,00,00,10,00,00,D0,82,
3913260,00000105,false,Rx,0,8,00,00,00,10,00,00,E0,24,
3915728,00000103,false,Rx,0,8,00,00,00,10,00,00,D0,2D,
3947811,00000204,false,Rx,0,8,34,34,40,37,3A,00,00,00,
3949023,00000202,false,Rx,0,8,34,34,40,41,3A,00,00,00,
3950992,000001D5,false,Rx,0,8,22,99,29,22,22,22,99,99,
3953800,00000104,false,Rx,0,8,00,00,00,10,00,00,E0,41,
3954253,00000201,false,Rx,0,8,34,34,40,3F,3A,00,00,00,
3954965,00000102,false,Rx,0,8,00,00,00,10,00,00,E0,02,
3956968,00000200,false,Rx,0,8,33,34,40,3C,3B,00,00,00,
3959605,00000203,false,Rx,0,8,34,34,40,43,39,00,00,00,
3960315,00000101,false,Rx,0,8,00,00,00,10,00,00,E0,AD,
3962959,00000100,false,Rx,0,8,00,00,00,10,00,00,E0,C8,
3963246,00000105,false,Rx,0,8,00,00,00,10,00,00,00,96,
3965713,00000103,false,Rx,0,8,00,00,00,10,00,00,E0,67,
3983158,000001C5,false,Rx,0,8,22,22,92,22,22,22,42,22,
3991765,000001D4,false,Rx,0,8,22,99,29,22,22,22,99,99,
3992891,000001D2,false,Rx,0,8,22,99,29,22,22,22,99,99,
3998249,000001D1,false,Rx,0,8,22,99,29,22,22,22,99,99,
4000905,000001D0,false,Rx,0,8,22,99,29,22,22,22,99,99,
4003622,000001D3,false,Rx,0,8,22,99,29,22,22,22,99,99,
4003917,00000104,false,Rx,0,8,00,00,00,10,00,00,00,F3,
4004960,00000102,false,Rx,0,8,00,00,00,10,00,00,00,B0,
4008332,00000205,false,Rx,0,8,34,34,40,45,3B,00,00,00,
4010216,00000101,false,Rx,0,8,00,00,00,10,00,00,00,1F,
4012946,00000100,false,Rx,0,8,00,00,00,10,00,00,00,7A,
4013149,00000105,false,Rx,0,8,00,00,00,10,00,00,10,5B,
4015877,00000103,false,Rx,0,8,00,00,00,10,00,00,00,D5,
4023811,000001C4,false,Rx,0,8,22,22,92,22,22,22,42,22,
4024857,000001C2,false,Rx,0,8,22,22,92,22,22,22,42,22,
4030028,000001C1,false,Rx,0,8,22,22,92,22,22,22,42,22,
4032844,000001C0,false,Rx,0,8,22,22,92,22,22,22,42,22,
4035729,000001C3,false,Rx,0,8,22,22,92,22,22,22,42,22,
4047948,00000204,false,Rx,0,8,34,34,40,37,3A,00,00,00,
4048825,00000202,false,Rx,0,8,34,34,40,41,3A,00,00,00,
4053898,00000104,false,Rx,0,8,00,00,00,10,00,00,10,3E,
4054184,00000201,false,Rx,0,8,34,34,40,3F,3A,00,00,00,
4054894,00000102,false,Rx,0,8,00,00,00,10,00,00,10,7D,
4056947,00000200,false,Rx,0,8,33,34,40,3C,3B,00,00,00,
4060298,00000203,false,Rx,0,8,34,34,40,44,39,00,00,00,
4060386,00000101,false,Rx,0,8,00,00,00,10,00,00,10,D2,
4062947,00000100,false,Rx,0,8,00,00,00,10,00,00,10,B7,
4063234,00000105,false,Rx,0,8,00,00,00,10,00,00,20,11,
4065794,00000103,false,Rx,0,8,00,00,00,10,00,00,10,18,
4103946,00000104,false,Rx,0,8,00,00,00,10,00,00,20,74,
4104649,00000102,false,Rx,0,8,00,00,00,10,00,00,20,37,
4106957,00000205,false,Rx,0,8,34,34,40,44,3B,00,00,00,
4110103,00000101,false,Rx,0,8,00,00,00,10,00,00,20,98,
4112801,00000100,false,Rx,0,8,00,00,00,10,00,00,20,FD,
4113087,00000105,false,Rx,0,8,00,00,00,10,00,00,30,DC,
4115896,00000103,false,Rx,0,8,00,00,00,10,00,00,20,52,
4147950,00000204,false,Rx,0,8,34,34,40,37,3A,00,00,00,
4148652,00000202,false,Rx,0,8,34,34,40,41,3A,00,00,00,
4150960,000001D5,false,Rx,0,8,22,99,29,22,22,22,99,99,
4153940,00000104,false,Rx,0,8,00,00,00,10,00,00,30,B9,
4154226,00000201,false,Rx,0,8,34,34,40,3F,3A,00,00,00,
4154682,00000102,false,Rx,0,8,00,00,00,10,00,00,30,FA,
4156733,00000200,false,Rx,0,8,33,34,40,3C,3B,00,00,00,
4159799,00000203,false,Rx,0,8,34,34,40,44,39,00,00,00,
4160001,00000101,false,Rx,0,8,00,00,00,10,00,00,30,55,
4162761,00000100,false,Rx,0,8,00,00,00,10,00,00,30,30,
4163047,00000105,false,Rx,0,8,00,00,00,10,00,00,40,85,
4165775,00000103,false,Rx,0,8,00,00,00,10,00,00,30,9F,
4183022,000001C5,false,Rx,0,8,22,22,92,22,22,22,42,22,
4191961,000001D4,false,Rx,0,8,22,99,29,22,22,22,99,99,
4192582,000001D2,false,Rx,0,8,22,99,29,22,22,22,99,99,
4197996,000001D1,false,Rx,0,8,22,99,29,22,22,22,99,99,
4200713,000001D0,false,Rx,0,8,22,99,29,22,22,22,99,99,
4203811,000001D3,false,Rx,0,8,22,99,29,22,22,22,99,99,
4204098,00000104,false,Rx,0,8,00,00,00,10,00,00,40,E0,
4204648,00000102,false,Rx,0,8,00,00,00,10,00,00,40,A3,
4207052,00000205,false,Rx,0,8,34,34,40,45,3B,00,00,00,
4210112,00000101,false,Rx,0,8,00,00,00,10,00,00,40,0C,
4213455,00000100,false,Rx,0,8,00,00,00,10,00,00,40,69,
4213547,00000105,false,Rx,0,8,00,00,00,10,00,00,50,48,
4215859,00000103,false,Rx,0,8,00,00,00,10,00,00,40,C6,
4223976,000001C4,false,Rx,0,8,22,22,92,22,22,22,42,22,
4224682,000001C2,false,Rx,0,8,22,22,92,22,22,22,42,22,
4230028,000001C1,false,Rx,0,8,22,22,92,22,22,22,42,22,
4232768,000001C0,false,Rx,0,8,22,22,92,22,22,22,42,22,
4235826,000001C3,false,Rx,0,8,22,22,92,22,22,22,42,22,
4248038,00000204,false,Rx,0,8,34,34,40,37,3A,00,00,00,
4248748,00000202,false,Rx,0,8,34,34,40,41,3A,00,00,00,
4254069,00000104,false,Rx,0,8,00,00,00,10,00,00,50,2D,
4254272,00000201,false,Rx,0,8,34,34,40,3F,3A,00,00,00,
4254817,00000102,false,Rx,0,8,00,00,00,10,00,00,50,6E,
4256787,00000200,false,Rx,0,8,33,34,40,3C,3B,00,00,00,
4259847,00000203,false,Rx,0,8,34,34,40,43,39,00,00,00,
4260133,00000101,false,Rx,0,8,00,00,00,10,00,00,50,C1,
4262780,00000100,false,Rx,0,8,00,00,00,10,00,00,50,A4,
4263066,00000105,false,Rx,0,8,00,00,00,10,00,00,60,02,
4265849,00000103,false,Rx,0,8,00,00,00,10,00,00,50,0B,
4303925,00000104,false,Rx,0,8,00,00,00,10,00,00,60,67,
4304748,00000102,false,Rx,0,8,00,00,00,10,00,00,60,24,
4307146,00000205,false,Rx,0,8,34,34,40,45,3B,00,00,00,
4310123,00000101,false,Rx,0,8,00,00,00,10,00,00,60,8B,
4312676,00000100,false,Rx,0,8,00,00,00,10,00,00,60,EE,
4313220,00000105,false,Rx,0,8,00,00,00,10,00,00,70,CF,
4315692,00000103,false,Rx,0,8,00,00,00,10,00,00,60,41,
4347856,00000204,false,Rx,0,8,34,34,40,37,3A,00,00,00,
4348727,00000202,false,Rx,0,8,34,34,40,40,3A,00,00,00,
4350952,000001D5,false,Rx,0,8,22,99,29,22,22,22,99,99,
4353847,00000104,false,Rx,0,8,00,00,00,10,00,00,70,AA,
4354133,00000201,false,Rx,0,8,34,34,40,3F,3A,00,00,00,
4354846,00000102,false,Rx,0,8,00,00,00,10,00,00,70,E9,
4356722,00000200,false,Rx,0,8,33,34,40,3C,3B,00,00,00,
4359616,00000203,false,Rx,0,8,34,34,40,43,39,00,00,00,
4360241,00000101,false,Rx,0,8,00,00,00,10,00,00,70,46,
4362800,00000100,false,Rx,0,8,00,00,00,10,00,00,70,23,
4363087,00000105,false,Rx,0,8,00,00,00,10,00,00,80,B0,
4365723,00000103,false,Rx,0,8,00,00,00,10,00,00,70,8C,
4382971,000001C5,false,Rx,0,8,22,22,92,22,22,22,42,22,
4391827,000001D4,false,Rx,0,8,22,99,29,22,22,22,99,99,
4392786,000001D2,false,Rx,0,8,22,99,29,22,22,22,99,99,
4398114,000001D1,false,Rx,0,8,22,99,29,22,22,22,99,99,
4400760,000001D0,false,Rx,0,8,22,99,29,22,22,22,99,99,
4403727,000001D3,false,Rx,0,8,22,99,29,22,22,22,99,99,
4404021,00000104,false,Rx,0,8,00,00,00,10,00,00,80,D5,
4404808,00000102,false,Rx,0,8,00,00,00,10,00,00,80,96,
4406956,00000205,false,Rx,0,8,34,34,40,45,3B,00,00,00,
4410056,00000101,false,Rx,0,8,00,00,00,10,00,00,80,39,
4412789,00000100,false,Rx,0,8,00,00,00,10,00,00,80,5C,
4412991,00000105,false,Rx,0,8,00,00,00,10,00,00,90,7D,
4415709,00000103,false,Rx,0,8,00,00,00,10,00,00,80,F3,
4423880,000001C4,false,Rx,0,8,22,22,92,22,22,22,42,22,
4424758,000001C2,false,Rx,0,8,22,22,92,22,22,22,42,22,
4430095,000001C1,false,Rx,0,8,22,22,92,22,22,22,42,22,
4432840,000001C0,false,Rx,0,8,22,22,92,22,22,22,42,22,
4435724,000001C3,false,Rx,0,8,22,22,92,22,22,22,42,22,
4447859,00000204,false,Rx,0,8,34,34,40,38,3A,00,00,00,
4448820,00000202,false,Rx,0,8,34,34,40,40,3A,00,00,00,
4453893,00000104,false,Rx,0,8,00,00,00,10,00,00,90,18,
4454179,00000201,false,Rx,0,8,34,34,40,3F,3A,00,00,00,
4454890,00000102,false,Rx,0,8,00,00,00,10,00,00,90,5B,
4456943,00000200,false,Rx,0,8,33,34,40,3B,3B,00,00,00,
4459751,00000203,false,Rx,0,8,34,34,40,44,39,00,00,00,
4460120,00000101,false,Rx,0,8,00,00,00,10,00,00,90,F4,
4462848,00000100,false,Rx,0,8,00,00,00,10,00,00,90,91,
4463133,00000105,false,Rx,0,8,00,00,00,10,00,00,A0,37,
4465688,00000103,false,Rx,0,8,00,00,00,10,00,00,90,3E,
4503795,00000104,false,Rx,0,8,00,00,00,10,00,00,A0,52,
4504839,00000102,false,Rx,0,8,00,00,00,10,00,00,A0,11,
4507056,00000205,false,Rx,0,8,34,34,40,45,3B,00,00,00,
4509815,00000101,false,Rx,0,8,00,00,00,10,00,00,A0,BE,
4512710,00000100,false,Rx,0,8,00,00,00,10,00,00,A0,DB,
4513005,00000105,false,Rx,0,8,00,00,00,10,00,00,B0,FA,
4515896,00000103,false,Rx,0,8,00,00,00,10,00,00,A0,74,
4547748,00000204,false,Rx,0,8,34,34,40,38,3A,00,00,00,
4548792,00000202,false,Rx,0,8,34,34,40,40,3A,00,00,00,
4551012,000001D5,false,Rx,0,8,22,99,29,22,22,22,99,99,
4553821,00000104,false,Rx,0,8,00,00,00,10,00,00,B0,9F,
4554024,00000201,false,Rx,0,8,34,34,40,3F,3A,00,00,00,
4554818,00000102,false,Rx,0,8,00,00,00,10,00,00,B0,DC,
4556786,00000200,false,Rx,0,8,33,34,40,3C,3B,00,00,00,
4559930,00000101,false,Rx,0,8,00,00,00,10,00,00,B0,73,
4560133,00000203,false,Rx,0,8,34,34,40,44,39,00,00,00,
4562855,00000100,false,Rx,0,8,00,00,00,10,00,00,B0,16,
4563059,00000105,false,Rx,0,8,00,00,00,10,00,00,C0,A3,
4565952,00000103,false,Rx,0,8,00,00,00,10,00,00,B0,B9,
4582934,000001C5,false,Rx,0,8,22,22,92,22,22,22,42,22,
4591699,000001D4,false,Rx,0,8,22,99,29,22,22,22,99,99,
4592754,000001D2,false,Rx,0,8,22,99,29,22,22,22,99,99,
4597909,000001D1,false,Rx,0,8,22,99,29,22,22,22,99,99,
4600802,000001D0,false,Rx,0,8,22,99,29,22,22,22,99,99,
4603688,00000104,false,Rx,0,8,00,00,00,10,00,00,C0,C6,
4604066,000001D3,false,Rx,0,8,22,99,29,22,22,22,99,99,
4604780,00000102,false,Rx,0,8,00,00,00,10,00,00,C0,85,
4607011,00000205,false,Rx,0,8,34,34,40,45,3B,00,00,00,
4609820,00000101,false,Rx,0,8,00,00,00,10,00,00,C0,2A,
4612821,00000100,false,Rx,0,8,00,00,00,10,00,00,C0,4F,
4613024,00000105,false,Rx,0,8,00,00,00,10,00,00,D0,6E,
4616096,00000103,false,Rx,0,8,00,00,00,10,00,00,C0,E0,
4623713,000001C4,false,Rx,0,8,22,22,92,22,22,22,42,22,
4624765,000001C2,false,Rx,0,8,22,22,92,22,22,22,42,22,
4629851,000001C1,false,Rx,0,8,22,22,92,22,22,22,42,22,
4632758,000001C0,false,Rx,0,8,22,22,92,22,22,22,42,22,
4636149,000001C3,false,Rx,0,8,22,22,92,22,22,22,42,22,
4647690,00000204,false,Rx,0,8,34,34,40,38,3A,00,00,00,
4648651,00000202,false,Rx,0,8,34,34,40,41,3A,00,00,00,
4653639,00000104,false,Rx,0,8,00,00,00,10,00,00,D0,0B,
4653849,00000201,false,Rx,0,8,34,34,40,3F,3A,00,00,00,
4654719,00000102,false,Rx,0,8,00,00,00,10,00,00,D0,48,
4656690,00000200,false,Rx,0,8,33,34,40,3C,3B,00,00,00,
4659839,00000101,false,Rx,0,8,00,00,00,10,00,00,D0,E7,
4660125,00000203,false,Rx,0,8,34,34,40,44,39,00,00,00,
4662773,00000100,false,Rx,0,8,00,00,00,10,00,00,D0,82,
4663059,00000105,false,Rx,0,8,00,00,00,10,00,00,E0,24,
4666204,00000103,false,Rx,0,8,00,00,00,10,00,00,D0,2D,
4703599,00000104,false,Rx,0,8,00,00,00,10,00,00,E0,41,
4704726,00000102,false,Rx,0,8,00,00,00,10,00,00,E0,02,
4707035,00000205,false,Rx,0,8,34,34,40,44,3B,00,00,00,
4709841,00000101,false,Rx,0,8,00,00,00,10,00,00,E0,AD,
4712724,00000100,false,Rx,0,8,00,00,00,10,00,00,E0,C8,
4713101,00000105,false,Rx,0,8,00,00,00,10,00,00,00,96,
4716109,00000103,false,Rx,0,8,00,00,00,10,00,00,E0,67,
4747475,00000204,false,Rx,0,8,34,34,40,38,3A,00,00,00,
4748782,00000202,false,Rx,0,8,34,34,40,41,3A,00,00,00,
4751083,000001D5,false,Rx,0,8,22,99,29,22,22,22,99,99,
4753550,00000104,false,Rx,0,8,00,00,00,10,00,00,00,F3,
4753760,00000201,false,Rx,0,8,34,34,40,3F,3A,00,00,00,
4754804,00000102,false,Rx,0,8,00,00,00,10,00,00,00,B0,
4756774,00000200,false,Rx,0,8,33,34,40,3C,3B,00,00,00,
4759750,00000101,false,Rx,0,8,00,00,00,10,00,00,00,1F,
4760203,00000203,false,Rx,0,8,34,34,40,43,39,00,00,00,
4762765,00000100,false,Rx,0,8,00,00,00,10,00,00,00,7A,
4763134,00000105,false,Rx,0,8,00,00,00,10,00,00,10,5B,
4766112,00000103,false,Rx,0,8,00,00,00,10,00,00,00,D5,
4782978,000001C5,false,Rx,0,8,22,22,92,22,22,22,42,22,
4791326,000001D4,false,Rx,0,8,22,99,29,22,22,22,99,99,
4792788,000001D2,false,Rx,0,8,22,99,29,22,22,22,99,99,
4797691,000001D1,false,Rx,0,8,22,99,29,22,22,22,99,99,
4800665,000001D0,false,Rx,0,8,22,99,29,22,22,22,99,99,
4803307,00000104,false,Rx,0,8,00,00,00,10,00,00,10,3E,
4804101,000001D3,false,Rx,0,8,22,99,29,22,22,22,99,99,
4804896,00000102,false,Rx,0,8,00,00,00,10,00,00,10,7D,
4806963,00000205,false,Rx,0,8,34,34,40,45,3B,00,00,00,
4809775,00000101,false,Rx,0,8,00,00,00,10,00,00,10,D2,
4812753,00000100,false,Rx,0,8,00,00,00,10,00,00,10,B7,
4812956,00000105,false,Rx,0,8,00,00,00,10,00,00,20,11,
4816182,00000103,false,Rx,0,8,00,00,00,10,00,00,10,18,
4823392,000001C4,false,Rx,0,8,22,22,92,22,22,22,42,22,
4824892,000001C2,false,Rx,0,8,22,22,92,22,22,22,42,22,
4829811,000001C1,false,Rx,0,8,22,22,92,22,22,22,42,22,
4832804,000001C0,false,Rx,0,8,22,22,92,22,22,22,42,22,
4836197,000001C3,false,Rx,0,8,22,22,92,22,22,22,42,22,
4847316,00000204,false,Rx,0,8,34,34,40,37,3A,00,00,00,
4848870,00000202,false,Rx,0,8,34,34,40,41,3A,00,00,00,
4853358,00000104,false,Rx,0,8,00,00,00,10,00,00,20,74,
4853645,00000201,false,Rx,0,8,34,34,40,3F,3A,00,00,00,
4854947,00000102,false,Rx,0,8,00,00,00,10,00,00,20,37,
4856751,00000200,false,Rx,0,8,33,34,40,3C,3B,00,00,00,
4859717,00000101,false,Rx,0,8,00,00,00,10,00,00,20,98,
4860178,00000203,false,Rx,0,8,34,34,40,43,39,00,00,00,
4862730,00000100,false,Rx,0,8,00,00,00,10,00,00,20,FD,
4862940,00000105,false,Rx,0,8,00,00,00,10,00,00,30,DC,
4866164,00000103,false,Rx,0,8,00,00,00,10,00,00,20,52,
4903407,00000104,false,Rx,0,8,00,00,00,10,00,00,30,B9,
4904876,00000102,false,Rx,0,8,00,00,00,10,00,00,30,FA,
4906673,00000205,false,Rx,0,8,34,34,40,45,3B,00,00,00,
4909569,00000101,false,Rx,0,8,00,00,00,10,00,00,30,55,
4912627,00000100,false,Rx,0,8,00,00,00,10,00,00,30,30,
4912838,00000105,false,Rx,0,8,00,00,00,10,00,00,40,85,
4916312,00000103,false,Rx,0,8,00,00,00,10,00,00,30,9F,
4947562,00000204,false,Rx,0,8,34,34,40,38,3A,00,00,00,
4948864,00000202,false,Rx,0,8,34,34,40,40,3A,00,00,00,
4950751,000001D5,false,Rx,0,8,22,99,29,22,22,22,99,99,
4953466,00000201,false,Rx,0,8,34,34,40,3F,3A,00,00,00,
4953761,00000104,false,Rx,0,8,00,00,00,10,00,00,40,E0,
4954888,00000102,false,Rx,0,8,00,00,00,10,00,00,40,A3,
4956685,00000200,false,Rx,0,8,33,34,40,3C,3B,00,00,00,
4959492,00000101,false,Rx,0,8,00,00,00,10,00,00,40,0C,
4960037,00000203,false,Rx,0,8,34,34,40,44,39,00,00,00,
4962592,00000100,false,Rx,0,8,00,00,00,10,00,00,40,69,
4962885,00000105,false,Rx,0,8,00,00,00,10,00,00,50,48,
4966029,00000103,false,Rx,0,8,00,00,00,10,00,00,40,C6,
4982723,000001C5,false,Rx,0,8,22,22,92,22,22,22,42,22,
4991517,000001D4,false,Rx,0,8,22,99,29,22,22,22,99,99,
4992821,000001D2,false,Rx,0,8,22,99,29,22,22,22,99,99,
4997632,000001D1,false,Rx,0,8,22,99,29,22,22,22,99,99,
5000783,000001D0,false,Rx,0,8,22,99,29,22,22,22,99,99,
5003583,00000104,false,Rx,0,8,00,00,00,10,00,00,50,2D,
5004126,000001D3,false,Rx,0,8,22,99,29,22,22,22,99,99,
5004840,00000102,false,Rx,0,8,00,00,00,10,00,00,50,6E,
5006643,00000205,false,Rx,0,8,34,34,40,45,3B,00,00,00,
5009535,00000101,false,Rx,0,8,00,00,00,10,00,00,50,C1,
5012685,00000100,false,Rx,0,8,00,00,00,10,00,00,50,A4,
5012894,00000105,false,Rx,0,8,00,00,00,10,00,00,60,02,
5016121,00000103,false,Rx,0,8,00,00,00,10,00,00,50,0B,
5023587,000001C4,false,Rx,0,8,22,22,92,22,22,22,42,22,
5024805,000001C2,false,Rx,0,8,22,22,92,22,22,22,42,22,
5029553,000001C1,false,Rx,0,8,22,22,92,22,22,22,42,22,
5033426,000001C0,false,Rx,0,8,22,22,92,22,22,22,42,22,
5036236,000001C3,false,Rx,0,8,22,22,92,22,22,22,42,22,
5047522,00000204,false,Rx,0,8,34,34,40,38,3A,00,00,00,
5048735,00000202,false,Rx,0,8,34,34,40,40,3A,00,00,00,
5053472,00000201,false,Rx,0,8,34,34,40,3F,3A,00,00,00,
5053677,00000104,false,Rx,0,8,00,00,00,10,00,00,60,67,
5054812,00000102,false,Rx,0,8,00,00,00,10,00,00,60,24,
5056609,00000200,false,Rx,0,8,33,34,40,3C,3B,00,00,00,
5059498,00000101,false,Rx,0,8,00,00,00,10,00,00,60,8B,
5060292,00000203,false,Rx,0,8,34,34,40,44,39,00,00,00,
5062682,00000105,false,Rx,0,8,00,00,00,10,00,00,70,CF,
5062893,00000100,false,Rx,0,8,00,00,00,10,00,00,60,EE,
5066203,00000103,false,Rx,0,8,00,00,00,10,00,00,60,41,
5103579,00000104,false,Rx,0,8,00,00,00,10,00,00,70,AA,
5104706,00000102,false,Rx,0,8,00,00,00,10,00,00,70,E9,
5106508,00000205,false,Rx,0,8,34,34,40,45,3B,00,00,00,
5109483,00000101,false,Rx,0,8,00,00,00,10,00,00,70,46,
5112544,00000105,false,Rx,0,8,00,00,00,10,00,00,80,B0,
5112837,00000100,false,Rx,0,8,00,00,00,10,00,00,70,23,
5116145,00000103,false,Rx,0,8,00,00,00,10,00,00,70,8C,
5147522,00000204,false,Rx,0,8,34,34,40,38,3A,00,00,00,
5148651,00000202,false,Rx,0,8,34,34,40,41,3A,00,00,00,
5150451,000001D5,false,Rx,0,8,22,99,29,22,22,22,99,99,
5153429,00000201,false,Rx,0,8,34,34,40,3F,3A,00,00,00,
5153717,00000104,false,Rx,0,8,00,00,00,10,00,00,80,D5,
5154770,00000102,false,Rx,0,8,00,00,00,10,00,00,80,96,
5156731,00000200,false,Rx,0,8,33,34,40,3C,3B,00,00,00,
5159541,00000101,false,Rx,0,8,00,00,00,10,00,00,80,39,
5160168,00000203,false,Rx,0,8,34,34,40,43,39,00,00,00,
5162469,00000105,false,Rx,0,8,00,00,00,10,00,00,90,7D,
5162766,00000100,false,Rx,0,8,00,00,00,10,00,00,80,5C,
5166157,00000103,false,Rx,0,8,00,00,00,10,00,00,80,F3,
5182483,000001C5,false,Rx,0,8,22,22,92,22,22,22,42,22,
5191572,000001D4,false,Rx,0,8,22,99,29,22,22,22,99,99,
5192700,000001D2,false,Rx,0,8,22,99,29,22,22,22,99,99,
5197527,000001D1,false,Rx,0,8,22,99,29,22,22,22,99,99,
5200764,000001D0,false,Rx,0,8,22,99,29,22,22,22,99,99,
5203565,00000104,false,Rx,0,8,00,00,00,10,00,00,90,18,
5204191,000001D3,false,Rx,0,8,22,99,29,22,22,22,99,99,
5204819,00000102,false,Rx,0,8,00,00,00,10,00,00,90,5B,
5206529,00000205,false,Rx,0,8,34,34,40,45,3B,00,00,00,
5209603,00000101,false,Rx,0,8,00,00,00,10,00,00,90,F4,
5212494,00000105,false,Rx,0,8,00,00,00,10,00,00,A0,37,
5212877,00000100,false,Rx,0,8,00,00,00,10,00,00,90,91,
5216189,00000103,false,Rx,0,8,00,00,00,10,00,00,90,3E,
5223616,000001C4,false,Rx,0,8,22,22,92,22,22,22,42,22,
5224749,000001C2,false,Rx,0,8,22,22,92,22,22,22,42,22,
5229535,000001C1,false,Rx,0,8,22,22,92,22,22,22,42,22,
5232698,000001C0,false,Rx,0,8,22,22,92,22,22,22,42,22,
5236018,000001C3,false,Rx,0,8,22,22,92,22,22,22,42,22,
5247602,00000204,false,Rx,0,8,34,34,40,37,3A,00,00,00,
5248729,00000202,false,Rx,0,8,34,34,40,41,3A,00,00,00,
5253385,00000201,false,Rx,0,8,34,34,40,3F,3A,00,00,00,
5253593,00000104,false,Rx,0,8,00,00,00,10,00,00,A0,52,
5254895,00000102,false,Rx,0,8,00,00,00,10,00,00,A0,11,
5256692,00000200,false,Rx,0,8,33,34,40,3C,3B,00,00,00,
5259416,00000101,false,Rx,0,8,00,00,00,10,00,00,A0,BE,
5259959,00000203,false,Rx,0,8,34,34,40,43,39,00,00,00,
5262429,00000105,false,Rx,0,8,00,00,00,10,00,00,B0,FA,
5262717,00000100,false,Rx,0,8,00,00,00,10,00,00,A0,DB,
5265953,00000103,false,Rx,0,8,00,00,00,10,00,00,A0,74,
5303608,00000104,false,Rx,0,8,00,00,00,10,00,00,B0,9F,
5304819,00000102,false,Rx,0,8,00,00,00,10,00,00,B0,DC,
5306363,00000205,false,Rx,0,8,34,34,40,45,3B,00,00,00,
5309425,00000101,false,Rx,0,8,00,00,00,10,00,00,B0,73,
5312399,00000105,false,Rx,0,8,00,00,00,10,00,00,C0,A3,
5312688,00000100,false,Rx,0,8,00,00,00,10,00,00,B0,16,
5316007,00000103,false,Rx,0,8,00,00,00,10,00,00,B0,B9,
5347704,00000204,false,Rx,0,8,34,34,40,38,3A,00,00,00,
5348840,00000202,false,Rx,0,8,34,34,40,41,3A,00,00,00,
5350383,000001D5,false,Rx,0,8,22,99,29,22,22,22,99,99,
5353278,00000201,false,Rx,0,8,34,34,40,3F,3A,00,00,00,
5353649,00000104,false,Rx,0,8,00,00,00,10,00,00,C0,C6,
5354949,00000102,false,Rx,0,8,00,00,00,10,00,00,C0,85,
5356492,00000200,false,Rx,0,8,33,34,40,3C,3B,00,00,00,
5359383,00000101,false,Rx,0,8,00,00,00,10,00,00,C0,2A,
5360011,00000203,false,Rx,0,8,34,34,40,43,39,00,00,00,
5362394,00000105,false,Rx,0,8,00,00,00,10,00,00,D0,6E,
5362601,00000100,false,Rx,0,8,00,00,00,10,00,00,C0,4F,
5365917,00000103,false,Rx,0,8,00,00,00,10,00,00,C0,E0,
5382324,000001C5,false,Rx,0,8,22,22,92,22,22,22,42,22,
5391657,000001D4,false,Rx,0,8,22,99,29,22,22,22,99,99,
5392791,000001D2,false,Rx,0,8,22,99,29,22,22,22,99,99,
5397528,000001D1,false,Rx,0,8,22,99,29,22,22,22,99,99,
5400506,000001D0,false,Rx,0,8,22,99,29,22,22,22,99,99,
5403732,00000104,false,Rx,0,8,00,00,00,10,00,00,D0,0B,
5403942,000001D3,false,Rx,0,8,22,99,29,22,22,22,99,99,
5404729,00000102,false,Rx,0,8,00,00,00,10,00,00,D0,48,
5406363,00000205,false,Rx,0,8,34,34,40,45,3B,00,00,00,
5409518,00000101,false,Rx,0,8,00,00,00,10,00,00,D0,E7,
5412409,00000105,false,Rx,0,8,00,00,00,10,00,00,E0,24,
5412616,00000100,false,Rx,0,8,00,00,00,10,00,00,D0,82,
5415934,00000103,false,Rx,0,8,00,00,00,10,00,00,D0,2D,
5423692,000001C4,false,Rx,0,8,22,22,92,22,22,22,42,22,
5424653,000001C2,false,Rx,0,8,22,22,92,22,22,22,42,22,
5429483,000001C1,false,Rx,0,8,22,22,92,22,22,22,42,22,
5432512,000001C0,false,Rx,0,8,22,22,92,22,22,22,42,22,
5435840,000001C3,false,Rx,0,8,22,22,92,22,22,22,42,22,
5447651,00000204,false,Rx,0,8,34,34,40,37,3A,00,00,00,
5448695,00000202,false,Rx,0,8,34,34,40,41,3A,00,00,00,
5453522,00000201,false,Rx,0,8,34,34,40,3F,3A,00,00,00,
5453817,00000104,false,Rx,0,8,00,00,00,10,00,00,E0,41,
5454688,00000102,false,Rx,0,8,00,00,00,10,00,00,E0,02,
5456575,00000200,false,Rx,0,8,33,34,40,3C,3B,00,00,00,
5459550,00000101,false,Rx,0,8,00,00,00,10,00,00,E0,AD,
5459844,00000203,false,Rx,0,8,34,34,40,44,39,00,00,00,
5462477,00000105,false,Rx,0,8,00,00,00,10,00,00,00,96,
5462685,00000100,false,Rx,0,8,00,00,00,10,00,00,E0,C8,
5465916,00000103,false,Rx,0,8,00,00,00,10,00,00,E0,67,
5503775,00000104,false,Rx,0,8,00,00,00,10,00,00,00,F3,
5504819,00000102,false,Rx,0,8,00,00,00,10,00,00,00,B0,
5506528,00000205,false,Rx,0,8,34,34,40,45,3B,00,00,00,
5509505,00000101,false,Rx,0,8,00,00,00,10,00,00,00,1F,
5512566,00000105,false,Rx,0,8,00,00,00,10,00,00,10,5B,
5512778,00000100,false,Rx,0,8,00,00,00,10,00,00,00,7A,
5515924,00000103,false,Rx,0,8,00,00,00,10,00,00,00,D5,
5547814,00000204,false,Rx,0,8,34,34,40,38,3A,00,00,00,
5548860,00000202,false,Rx,0,8,34,34,40,40,3A,00,00,00,
5550485,000001D5,false,Rx,0,8,22,99,29,22,22,22,99,99,
5553547,00000201,false,Rx,0,8,34,34,40,3F,3A,00,00,00,
5553757,00000104,false,Rx,0,8,00,00,00,10,00,00,10,3E,
5554802,00000102,false,Rx,0,8,00,00,00,10,00,00,10,7D,
5556510,00000200,false,Rx,0,8,33,34,40,3C,3B,00,00,00,
5559485,00000101,false,Rx,0,8,00,00,00,10,00,00,10,D2,
5559864,00000203,false,Rx,0,8,34,34,40,43,39,00,00,00,
5562415,00000100,false,Rx,0,8,00,00,00,10,00,00,10,B7,
5562703,00000105,false,Rx,0,8,00,00,00,10,00,00,20,11,
5565939,00000103,false,Rx,0,8,00,00,00,10,00,00,10,18,
5582550,000001C5,false,Rx,0,8,22,22,92,22,22,22,42,22,
5591826,000001D4,false,Rx,0,8,22,99,29,22,22,22,99,99,
5592787,000001D2,false,Rx,0,8,22,99,29,22,22,22,99,99,
5597518,000001D1,false,Rx,0,8,22,99,29,22,22,22,99,99,
5600494,000001D0,false,Rx,0,8,22,99,29,22,22,22,99,99,
5603721,00000104,false,Rx,0,8,00,00,00,10,00,00,20,74,
5604016,000001D3,false,Rx,0,8,22,99,29,22,22,22,99,99,
5604636,00000102,false,Rx,0,8,00,00,00,10,00,00,20,37,
5606522,00000205,false,Rx,0,8,34,34,40,45,3B,00,00,00,
5609597,00000101,false,Rx,0,8,00,00,00,10,00,00,20,98,
5612486,00000100,false,Rx,0,8,00,00,00,10,00,00,20,FD,
5612788,00000105,false,Rx,0,8,00,00,00,10,00,00,30,DC,
5616014,00000103,false,Rx,0,8,00,00,00,10,00,00,20,52,
5623691,000001C4,false,Rx,0,8,22,22,92,22,22,22,42,22,
5624652,000001C2,false,Rx,0,8,22,22,92,22,22,22,42,22,
5629484,000001C1,false,Rx,0,8,22,22,92,22,22,22,42,22,
5632474,000001C0,false,Rx,0,8,22,22,92,22,22,22,42,22,
5635877,000001C3,false,Rx,0,8,22,22,92,22,22,22,42,22,
5647896,00000204,false,Rx,0,8,34,34,40,37,3A,00,00,00,
5648685,00000202,false,Rx,0,8,34,34,40,40,3A,00,00,00,
5653505,00000201,false,Rx,0,8,34,34,40,3F,3A,00,00,00,
5653801,00000104,false,Rx,0,8,00,00,00,10,00,00,30,B9,
5654762,00000102,false,Rx,0,8,00,00,00,10,00,00,30,FA,
5656556,00000200,false,Rx,0,8,33,34,40,3C,3B,00,00,00,
5659532,00000101,false,Rx,0,8,00,00,00,10,00,00,30,55,
5659993,00000203,false,Rx,0,8,34,34,40,43,39,00,00,00,
5662460,00000105,false,Rx,0,8,00,00,00,10,00,00,40,85,
5662757,00000100,false,Rx,0,8,00,00,00,10,00,00,30,30,
5665982,00000103,false,Rx,0,8,00,00,00,10,00,00,30,9F,
5703714,00000104,false,Rx,0,8,00,00,00,10,00,00,40,E0,
5704768,00000102,false,Rx,0,8,00,00,00,10,00,00,40,A3,
5706476,00000205,false,Rx,0,8,34,34,40,45,3B,00,00,00,
5709537,00000101,false,Rx,0,8,00,00,00,10,00,00,40,0C,
5712597,00000105,false,Rx,0,8,00,00,00,10,00,00,50,48,
5712802,00000100,false,Rx,0,8,00,00,00,10,00,00,40,69,
5716112,00000103,false,Rx,0,8,00,00,00,10,00,00,40,C6,
5747624,00000204,false,Rx,0,8,34,34,40,38,3A,00,00,00,
5748758,00000202,false,Rx,0,8,34,34,40,40,3A,00,00,00,
5750410,000001D5,false,Rx,0,8,22,99,29,22,22,22,99,99,
5753468,00000201,false,Rx,0,8,34,34,40,3F,3A,00,00,00,
5753764,00000104,false,Rx,0,8,00,00,00,10,00,00,50,2D,
5754808,00000102,false,Rx,0,8,00,00,00,10,00,00,50,6E,
5756518,00000200,false,Rx,0,8,33,34,40,3B,3B,00,00,00,
5759594,00000101,false,Rx,0,8,00,00,00,10,00,00,50,C1,
5760066,00000203,false,Rx,0,8,34,34,40,43,39,00,00,00,
5762369,00000105,false,Rx,0,8,00,00,00,10,00,00,60,02,
5762656,00000100,false,Rx,0,8,00,00,00,10,00,00,50,A4,
5766055,00000103,false,Rx,0,8,00,00,00,10,00,00,50,0B,
5782296,000001C5,false,Rx,0,8,22,22,92,22,22,22,42,22,
5791569,000001D4,false,Rx,0,8,22,99,29,22,22,22,99,99,
5792613,000001D2,false,Rx,0,8,22,99,29,22,22,22,99,99,
5797356,000001D1,false,Rx,0,8,22,99,29,22,22,22,99,99,
5800981,000001D0,false,Rx,0,8,22,99,29,22,22,22,99,99,
5803699,00000104,false,Rx,0,8,00,00,00,10,00,00,60,67,
5803993,000001D3,false,Rx,0,8,22,99,29,22,22,22,99,99,
5804697,00000102,false,Rx,0,8,00,00,00,10,00,00,60,24,
5806330,00000205,false,Rx,0,8,34,34,40,45,3B,00,00,00,
5809319,00000101,false,Rx,0,8,00,00,00,10,00,00,60,8B,
5812295,00000105,false,Rx,0,8,00,00,00,10,00,00,70,CF,
5812588,00000100,false,Rx,0,8,00,00,00,10,00,00,60,EE,
5816152,00000103,false,Rx,0,8,00,00,00,10,00,00,60,41,
5823657,000001C4,false,Rx,0,8,22,22,92,22,22,22,42,22,
5824728,000001C2,false,Rx,0,8,22,22,92,22,22,22,42,22,
5829314,000001C1,false,Rx,0,8,22,22,92,22,22,22,42,22,
5832386,000001C0,false,Rx,0,8,22,22,92,22,22,22,42,22,
5835954,000001C3,false,Rx,0,8,22,22,92,22,22,22,42,22,
5847698,00000204,false,Rx,0,8,34,34,40,38,3A,00,00,00,
5848659,00000202,false,Rx,0,8,34,34,40,40,3A,00,00,00,
5853348,00000201,false,Rx,0,8,34,34,40,3F,3A,00,00,00,
5853719,00000104,false,Rx,0,8,00,00,00,10,00,00,70,AA,
5854685,00000102,false,Rx,0,8,00,00,00,10,00,00,70,E9,
5856235,00000200,false,Rx,0,8,33,34,40,3B,3B,00,00,00,
5859378,00000101,false,Rx,0,8,00,00,00,10,00,00,70,46,
5859923,00000203,false,Rx,0,8,34,34,40,43,39,00,00,00,
5862223,00000105,false,Rx,0,8,00,00,00,10,00,00,80,B0,
5862509,00000100,false,Rx,0,8,00,00,00,10,00,00,70,23,
5865910,00000103,false,Rx,0,8,00,00,00,10,00,00,70,8C,
5903762,00000104,false,Rx,0,8,00,00,00,10,00,00,80,D5,
5904714,00000102,false,Rx,0,8,00,00,00,10,00,00,80,96,
5906431,00000205,false,Rx,0,8,34,34,40,45,3B,00,00,00,
5909324,00000101,false,Rx,0,8,00,00,00,10,00,00,80,39,
5912381,00000105,false,Rx,0,8,00,00,00,10,00,00,90,7D,
5912588,00000100,false,Rx,0,8,00,00,00,10,00,00,80,5C,
5915820,00000103,false,Rx,0,8,00,00,00,10,00,00,80,F3,
5947674,00000204,false,Rx,0,8,34,34,40,38,3A,00,00,00,
5948808,00000202,false,Rx,0,8,34,34,40,41,3A,00,00,00,
5950436,000001D5,false,Rx,0,8,22,99,29,22,22,22,99,99,
5953411,00000201,false,Rx,0,8,34,34,40,3F,3A,00,00,00,
5954505,00000104,false,Rx,0,8,00,00,00,10,00,00,90,18,
5954885,00000102,false,Rx,0,8,00,00,00,10,00,00,90,5B,
5956344,00000200,false,Rx,0,8,33,34,40,3C,3B,00,00,00,
5959485,00000101,false,Rx,0,8,00,00,00,10,00,00,90,F4,
5959782,00000203,false,Rx,0,8,34,34,40,43,39,00,00,00,
5962331,00000100,false,Rx,0,8,00,00,00,10,00,00,90,91,
5962534,00000105,false,Rx,0,8,00,00,00,10,00,00,A0,37,
5965774,00000103,false,Rx,0,8,00,00,00,10,00,00,90,3E,
5982429,000001C5,false,Rx,0,8,22,22,92,22,22,22,42,22,
5991622,000001D4,false,Rx,0,8,22,99,29,22,22,22,99,99,
5992665,000001D2,false,Rx,0,8,22,99,29,22,22,22,99,99,
5997487,000001D1,false,Rx,0,8,22,99,29,22,22,22,99,99,
6000297,000001D0,false,Rx,0,8,22,99,29,22,22,22,99,99,
6003692,00000104,false,Rx,0,8,00,00,00,10,00,00,A0,52,
6003903,000001D3,false,Rx,0,8,22,99,29,22,22,22,99,99,
6006296,00000102,false,Rx,0,8,00,00,00,10,00,00,A0,11,
6006501,00000205,false,Rx,0,8,34,34,40,45,3B,00,00,00,
6009489,00000101,false,Rx,0,8,00,00,00,10,00,00,A0,BE,
6012382,00000100,false,Rx,0,8,00,00,00,10,00,00,A0,DB,
6012589,00000105,false,Rx,0,8,00,00,00,10,00,00,B0,FA,
6015760,00000103,false,Rx,0,8,00,00,00,10,00,00,A0,74,
6023597,000001C4,false,Rx,0,8,22,22,92,22,22,22,42,22,
6024558,000001C2,false,Rx,0,8,22,22,92,22,22,22,42,22,
6029481,000001C1,false,Rx,0,8,22,22,92,22,22,22,42,22,
6032216,000001C0,false,Rx,0,8,22,22,92,22,22,22,42,22,
6035612,000001C3,false,Rx,0,8,22,22,92,22,22,22,42,22,
6047533,00000204,false,Rx,0,8,34,34,40,38,3A,00,00,00,
6048578,00000202,false,Rx,0,8,34,34,40,40,3A,00,00,00,
6053399,00000201,false,Rx,0,8,34,34,40,3F,3A,00,00,00,
6053688,00000104,false,Rx,0,8,00,00,00,10,00,00,B0,9F,
6054649,00000102,false,Rx,0,8,00,00,00,10,00,00,B0,DC,
6056283,00000200,false,Rx,0,8,33,34,40,3C,3B,00,00,00,
6059535,00000101,false,Rx,0,8,00,00,00,10,00,00,B0,73,
6059746,00000203,false,Rx,0,8,34,34,40,44,39,00,00,00,
6062296,00000100,false,Rx,0,8,00,00,00,10,00,00,B0,16,
6062500,00000105,false,Rx,0,8,00,00,00,10,00,00,C0,A3,
6065644,00000103,false,Rx,0,8,00,00,00,10,00,00,B0,B9,
6103408,00000104,false,Rx,0,8,00,00,00,10,00,00,C0,C6,
6104536,00000102,false,Rx,0,8,00,00,00,10,00,00,C0,85,
6106341,00000205,false,Rx,0,8,34,34,40,45,3B,00,00,00,
6109506,00000101,false,Rx,0,8,00,00,00,10,00,00,C0,2A,
6112232,00000100,false,Rx,0,8,00,00,00,10,00,00,C0,4F,
6112434,00000105,false,Rx,0,8,00,00,00,10,00,00,D0,6E,
6115659,00000103,false,Rx,0,8,00,00,00,10,00,00,C0,E0,
6147461,00000204,false,Rx,0,8,34,34,40,38,3A,00,00,00,
6148536,00000202,false,Rx,0,8,34,34,40,41,3A,00,00,00,
6150184,000001D5,false,Rx,0,8,22,99,29,22,22,22,99,99,
6153409,00000104,false,Rx,0,8,00,00,00,10,00,00,D0,0B,
6153614,00000201,false,Rx,0,8,34,34,40,3F,3A,00,00,00,
6154575,00000102,false,Rx,0,8,00,00,00,10,00,00,D0,48,
6156124,00000200,false,Rx,0,8,33,34,40,3C,3B,00,00,00,
6159832,00000101,false,Rx,0,8,00,00,00,10,00,00,D0,E7,
6159920,00000203,false,Rx,0,8,34,34,40,44,39,00,00,00,
6162138,00000100,false,Rx,0,8,00,00,00,10,00,00,D0,82,
6162425,00000105,false,Rx,0,8,00,00,00,10,00,00,E0,24,
6165734,00000103,false,Rx,0,8,00,00,00,10,00,00,D0,2D,
6182067,000001C5,false,Rx,0,8,22,22,92,22,22,22,42,22,
6191422,000001D4,false,Rx,0,8,22,99,29,22,22,22,99,99,
6192550,000001D2,false,Rx,0,8,22,99,29,22,22,22,99,99,
6197539,000001D1,false,Rx,0,8,22,99,29,22,22,22,99,99,
6200101,000001D0,false,Rx,0,8,22,99,29,22,22,22,99,99,
6203325,00000104,false,Rx,0,8,00,00,00,10,00,00,E0,41,
6203697,000001D3,false,Rx,0,8,22,99,29,22,22,22,99,99,
6204489,00000102,false,Rx,0,8,00,00,00,10,00,00,E0,02,
6206125,00000205,false,Rx,0,8,34,34,40,45,3B,00,00,00,
6209534,00000101,false,Rx,0,8,00,00,00,10,00,00,E0,AD,
6211979,00000100,false,Rx,0,8,00,00,00,10,00,00,E0,C8,
6212265,00000105,false,Rx,0,8,00,00,00,10,00,00,00,96,
6215833,00000103,false,Rx,0,8,00,00,00,10,00,00,E0,67,
6223338,000001C4,false,Rx,0,8,22,22,92,22,22,22,42,22,
6224466,000001C2,false,Rx,0,8,22,22,92,22,22,22,42,22,
6229470,000001C1,false,Rx,0,8,22,22,92,22,22,22,42,22,
6232048,000001C0,false,Rx,0,8,22,22,92,22,22,22,42,22,
6235609,000001C3,false,Rx,0,8,22,22,92,22,22,22,42,22,
6247401,00000204,false,Rx,0,8,34,34,40,38,3A,00,00,00,
6248363,00000202,false,Rx,0,8,34,34,40,40,3A,00,00,00,
6253311,00000104,false,Rx,0,8,00,00,00,10,00,00,00,F3,
6253513,00000201,false,Rx,0,8,34,34,40,3F,3A,00,00,00,
6254391,00000102,false,Rx,0,8,00,00,00,10,00,00,00,B0,
6256028,00000200,false,Rx,0,8,33,34,40,3C,3B,00,00,00,
6259423,00000101,false,Rx,0,8,00,00,00,10,00,00,00,1F,
6259710,00000203,false,Rx,0,8,34,34,40,44,39,00,00,00,
6263574,00000105,false,Rx,0,8,00,00,00,10,00,00,10,5B,
6263662,00000100,false,Rx,0,8,00,00,00,10,00,00,00,7A,
6265630,00000103,false,Rx,0,8,00,00,00,10,00,00,00,D5,
6303311,00000104,false,Rx,0,8,00,00,00,10,00,00,10,3E,
6304357,00000102,false,Rx,0,8,00,00,00,10,00,00,10,7D,
6306159,00000205,false,Rx,0,8,34,34,40,44,3B,00,00,00,
6309383,00000101,false,Rx,0,8,00,00,00,10,00,00,10,D2,
6312028,00000100,false,Rx,0,8,00,00,00,10,00,00,10,B7,
6312314,00000105,false,Rx,0,8,00,00,00,10,00,00,20,11,
6315639,00000103,false,Rx,0,8,00,00,00,10,00,00,10,18,
6347226,00000204,false,Rx,0,8,34,34,40,38,3A,00,00,00,
6348439,00000202,false,Rx,0,8,34,34,40,41,3A,00,00,00,
6350075,000001D5,false,Rx,0,8,22,99,29,22,22,22,99,99,
6353329,00000104,false,Rx,0,8,00,00,00,10,00,00,20,74,
6353533,00000201,false,Rx,0,8,34,34,40,3F,3A,00,00,00,
6354420,00000102,false,Rx,0,8,00,00,00,10,00,00,20,37,
6356139,00000200,false,Rx,0,8,33,34,40,3C,3B,00,00,00,
6359364,00000101,false,Rx,0,8,00,00,00,10,00,00,20,98,
6359651,00000203,false,Rx,0,8,34,34,40,43,39,00,00,00,
6362126,00000105,false,Rx,0,8,00,00,00,10,00,00,30,DC,
6362412,00000100,false,Rx,0,8,00,00,00,10,00,00,20,FD,
6365631,00000103,false,Rx,0,8,00,00,00,10,00,00,20,52,
6382129,000001C5,false,Rx,0,8,22,22,92,22,22,22,42,22,
6391317,000001D4,false,Rx,0,8,22,99,29,22,22,22,99,99,
6392194,000001D2,false,Rx,0,8,22,99,29,22,22,22,99,99,
6397439,000001D1,false,Rx,0,8,22,99,29,22,22,22,99,99,
6400248,000001D0,false,Rx,0,8,22,99,29,22,22,22,99,99,
6403306,00000104,false,Rx,0,8,00,00,00,10,00,00,30,B9,
6403594,000001D3,false,Rx,0,8,22,99,29,22,22,22,99,99,
6404304,00000102,false,Rx,0,8,00,00,00,10,00,00,30,FA,
6406108,00000205,false,Rx,0,8,34,34,40,45,3B,00,00,00,
6409429,00000101,false,Rx,0,8,00,00,00,10,00,00,30,55,
6412156,00000105,false,Rx,0,8,00,00,00,10,00,00,40,85,
6412358,00000100,false,Rx,0,8,00,00,00,10,00,00,30,30,
6416630,00000103,false,Rx,0,8,00,00,00,10,00,00,30,9F,
6423303,000001C4,false,Rx,0,8,22,22,92,22,22,22,42,22,
6424264,000001C2,false,Rx,0,8,22,22,92,22,22,22,42,22,
6429433,000001C1,false,Rx,0,8,22,22,92,22,22,22,42,22,
6432179,000001C0,false,Rx,0,8,22,22,92,22,22,22,42,22,
6435653,000001C3,false,Rx,0,8,22,22,92,22,22,22,42,22,
6447280,00000204,false,Rx,0,8,34,34,40,38,3A,00,00,00,
6448241,00000202,false,Rx,0,8,34,34,40,41,3A,00,00,00,
6453315,00000104,false,Rx,0,8,00,00,00,10,00,00,40,E0,
6453518,00000201,false,Rx,0,8,34,34,40,3F,3A,00,00,00,
6454230,00000102,false,Rx,0,8,00,00,00,10,00,00,40,A3,
6456228,00000200,false,Rx,0,8,33,34,40,3C,3B,00,00,00,
6459465,00000101,false,Rx,0,8,00,00,00,10,00,00,40,0C,
6459671,00000203,false,Rx,0,8,34,34,40,43,39,00,00,00,
6462228,00000100,false,Rx,0,8,00,00,00,10,00,00,40,69,
6462513,00000105,false,Rx,0,8,00,00,00,10,00,00,50,48,
6465573,00000103,false,Rx,0,8,00,00,00,10,00,00,40,C6,
6503339,00000104,false,Rx,0,8,00,00,00,10,00,00,50,2D,
6504132,00000102,false,Rx,0,8,00,00,00,10,00,00,50,6E,
6506270,00000205,false,Rx,0,8,34,34,40,45,3B,00,00,00,
6509411,00000101,false,Rx,0,8,00,00,00,10,00,00,50,C1,
6512054,00000100,false,Rx,0,8,00,00,00,10,00,00,50,A4,
6512341,00000105,false,Rx,0,8,00,00,00,10,00,00,60,02,
6515734,00000103,false,Rx,0,8,00,00,00,10,00,00,50,0B,
6547350,00000204,false,Rx,0,8,34,34,40,38,3A,00,00,00,
6548062,00000202,false,Rx,0,8,34,34,40,40,3A,00,00,00,
6550281,000001D5,false,Rx,0,8,22,99,29,22,22,22,99,99,
6553259,00000201,false,Rx,0,8,34,34,40,3F,3A,00,00,00,
6553550,00000104,false,Rx,0,8,00,00,00,10,00,00,60,67,
6554094,00000102,false,Rx,0,8,00,00,00,10,00,00,60,24,
6556145,00000200,false,Rx,0,8,33,34,40,3C,3B,00,00,00,
6559245,00000101,false,Rx,0,8,00,00,00,10,00,00,60,8B,
6559789,00000203,false,Rx,0,8,34,34,40,44,39,00,00,00,
6562093,00000100,false,Rx,0,8,00,00,00,10,00,00,60,EE,
6562379,00000105,false,Rx,0,8,00,00,00,10,00,00,70,CF,
6565691,00000103,false,Rx,0,8,00,00,00,10,00,00,60,41,
6582172,000001C5,false,Rx,0,8,22,22,92,22,22,22,42,22,
6591280,000001D4,false,Rx,0,8,22,99,29,22,22,22,99,99,
6592076,000001D2,false,Rx,0,8,22,99,29,22,22,22,99,99,
6597229,000001D1,false,Rx,0,8,22,99,29,22,22,22,99,99,
6600122,000001D0,false,Rx,0,8,22,99,29,22,22,22,99,99,
6603345,00000104,false,Rx,0,8,00,00,00,10,00,00,70,AA,
6603716,000001D3,false,Rx,0,8,22,99,29,22,22,22,99,99,
6604093,00000102,false,Rx,0,8,00,00,00,10,00,00,70,E9,
6606227,00000205,false,Rx,0,8,34,34,40,45,3B,00,00,00,
6609219,00000101,false,Rx,0,8,00,00,00,10,00,00,70,46,
6612114,00000100,false,Rx,0,8,00,00,00,10,00,00,70,23,
6612316,00000105,false,Rx,0,8,00,00,00,10,00,00,80,B0,
6615803,00000103,false,Rx,0,8,00,00,00,10,00,00,70,8C,
6623332,000001C4,false,Rx,0,8,22,22,92,22,22,22,42,22,
6624043,000001C2,false,Rx,0,8,22,22,92,22,22,22,42,22,
6629218,000001C1,false,Rx,0,8,22,22,92,22,22,22,42,22,
6631966,000001C0,false,Rx,0,8,22,22,92,22,22,22,42,22,
6635777,000001C3,false,Rx,0,8,22,22,92,22,22,22,42,22,
6647325,00000204,false,Rx,0,8,34,34,40,37,3A,00,00,00,
6648119,00000202,false,Rx,0,8,34,34,40,41,3A,00,00,00,
6653197,00000201,false,Rx,0,8,34,34,40,3F,3A,00,00,00,
6653400,00000104,false,Rx,0,8,00,00,00,10,00,00,80,D5,
6654112,00000102,false,Rx,0,8,00,00,00,10,00,00,80,96,
6655997,00000200,false,Rx,0,8,33,34,40,3C,3B,00,00,00,
6659222,00000101,false,Rx,0,8,00,00,00,10,00,00,80,39,
6659767,00000203,false,Rx,0,8,34,34,40,44,39,00,00,00,
6662030,00000100,false,Rx,0,8,00,00,00,10,00,00,80,5C,
6662317,00000105,false,Rx,0,8,00,00,00,10,00,00,90,7D,
6665800,00000103,false,Rx,0,8,00,00,00,10,00,00,80,F3,
6703280,00000104,false,Rx,0,8,00,00,00,10,00,00,90,18,
6704159,00000102,false,Rx,0,8,00,00,00,10,00,00,90,5B,
6705959,00000205,false,Rx,0,8,34,34,40,45,3B,00,00,00,
6709106,00000101,false,Rx,0,8,00,00,00,10,00,00,90,F4,
6711999,00000100,false,Rx,0,8,00,00,00,10,00,00,90,91,
6712285,00000105,false,Rx,0,8,00,00,00,10,00,00,A0,37,
6715939,00000103,false,Rx,0,8,00,00,00,10,00,00,90,3E,
6747364,00000204,false,Rx,0,8,34,34,40,38,3A,00,00,00,
6748076,00000202,false,Rx,0,8,34,34,40,41,3A,00,00,00,
6749960,000001D5,false,Rx,0,8,22,99,29,22,22,22,99,99,
6752940,00000201,false,Rx,0,8,34,34,40,3F,3A,00,00,00,
6753309,00000104,false,Rx,0,8,00,00,00,10,00,00,A0,52,
6754106,00000102,false,Rx,0,8,00,00,00,10,00,00,A0,11,
6755992,00000200,false,Rx,0,8,33,34,40,3C,3B,00,00,00,
6759049,00000101,false,Rx,0,8,00,00,00,10,00,00,A0,BE,
6760013,00000203,false,Rx,0,8,34,34,40,44,39,00,00,00,
6761989,00000100,false,Rx,0,8,00,00,00,10,00,00,A0,DB,
6762298,00000105,false,Rx,0,8,00,00,00,10,00,00,B0,FA,
6766043,00000103,false,Rx,0,8,00,00,00,10,00,00,A0,74,
6782062,000001C5,false,Rx,0,8,22,22,92,22,22,22,42,22,
6791355,000001D4,false,Rx,0,8,22,99,29,22,22,22,99,99,
6792067,000001D2,false,Rx,0,8,22,99,29,22,22,22,99,99,
6797057,000001D1,false,Rx,0,8,22,99,29,22,22,22,99,99,
6799949,000001D0,false,Rx,0,8,22,99,29,22,22,22,99,99,
6803342,00000104,false,Rx,0,8,00,00,00,10,00,00,B0,9F,
6803970,000001D3,false,Rx,0,8,22,99,29,22,22,22,99,99,
6804173,00000102,false,Rx,0,8,00,00,00,10,00,00,B0,DC,
6806058,00000205,false,Rx,0,8,34,34,40,45,3B,00,00,00,
6809047,00000101,false,Rx,0,8,00,00,00,10,00,00,B0,73,
6812026,00000100,false,Rx,0,8,00,00,00,10,00,00,B0,16,
6812229,00000105,false,Rx,0,8,00,00,00,10,00,00,C0,A3,
6815882,00000103,false,Rx,0,8,00,00,00,10,00,00,B0,B9,
6823307,000001C4,false,Rx,0,8,22,22,92,22,22,22,42,22,
6824046,000001C2,false,Rx,0,8,22,22,92,22,22,22,42,22,
6829141,000001C1,false,Rx,0,8,22,22,92,22,22,22,42,22,
6832139,000001C0,false,Rx,0,8,22,22,92,22,22,22,42,22,
6835790,000001C3,false,Rx,0,8,22,22,92,22,22,22,42,22,
6847408,00000204,false,Rx,0,8,34,34,40,38,3A,00,00,00,
6847953,00000202,false,Rx,0,8,34,34,40,41,3A,00,00,00,
6853114,00000201,false,Rx,0,8,34,34,40,3F,3A,00,00,00,
6853400,00000104,false,Rx,0,8,00,00,00,10,00,00,C0,C6,
6853946,00000102,false,Rx,0,8,00,00,00,10,00,00,C0,85,
6856080,00000200,false,Rx,0,8,33,34,40,3C,3B,00,00,00,
6859056,00000101,false,Rx,0,8,00,00,00,10,00,00,C0,2A,
6859767,00000203,false,Rx,0,8,34,34,40,44,39,00,00,00,
6862067,00000100,false,Rx,0,8,00,00,00,10,00,00,C0,4F,
6862270,00000105,false,Rx,0,8,00,00,00,10,00,00,D0,6E,
6865868,00000103,false,Rx,0,8,00,00,00,10,00,00,C0,E0,
6903455,00000104,false,Rx,0,8,00,00,00,10,00,00,D0,0B,
6903917,00000102,false,Rx,0,8,00,00,00,10,00,00,D0,48,
6906133,00000205,false,Rx,0,8,34,34,40,45,3B,00,00,00,
6909195,00000101,false,Rx,0,8,00,00,00,10,00,00,D0,E7,
6912006,00000100,false,Rx,0,8,00,00,00,10,00,00,D0,82,
6912209,00000105,false,Rx,0,8,00,00,00,10,00,00,E0,24,
6915947,00000103,false,Rx,0,8,00,00,00,10,00,00,D0,2D,
6947394,00000204,false,Rx,0,8,34,34,40,38,3A,00,00,00,
6947859,00000202,false,Rx,0,8,34,34,40,41,3A,00,00,00,
6949993,000001D5,false,Rx,0,8,22,99,29,22,22,22,99,99,
6953219,00000201,false,Rx,0,8,34,34,40,3F,3A,00,00,00,
6953504,00000104,false,Rx,0,8,00,00,00,10,00,00,E0,41,
6953884,00000102,false,Rx,0,8,00,00,00,10,00,00,E0,02,
6956020,00000200,false,Rx,0,8,33,34,40,3C,3B,00,00,00,
6959245,00000101,false,Rx,0,8,00,00,00,10,00,00,E0,AD,
6960040,00000203,false,Rx,0,8,34,34,40,44,39,00,00,00,
6961927,00000100,false,Rx,0,8,00,00,00,10,00,00,E0,C8,
6962213,00000105,false,Rx,0,8,00,00,00,10,00,00,00,96,
6966032,00000103,false,Rx,0,8,00,00,00,10,00,00,E0,67,
6982017,000001C5,false,Rx,0,8,22,22,92,22,22,22,42,22,
6991455,000001D4,false,Rx,0,8,22,99,29,22,22,22,99,99,
6991833,000001D2,false,Rx,0,8,22,99,29,22,22,22,99,99,
6997155,000001D1,false,Rx,0,8,22,99,29,22,22,22,99,99,
6999881,000001D0,false,Rx,0,8,22,99,29,22,22,22,99,99,
7003441,00000104,false,Rx,0,8,00,00,00,10,00,00,00,F3,
7003903,00000102,false,Rx,0,8,00,00,00,10,00,00,00,B0,
7004188,000001D3,false,Rx,0,8,22,99,29,22,22,22,99,99,
7006156,00000205,false,Rx,0,8,34,34,40,45,3B,00,00,00,
7009227,00000101,false,Rx,0,8,00,00,00,10,00,00,00,1F,
7011955,00000100,false,Rx,0,8,00,00,00,10,00,00,00,7A,
7012241,00000105,false,Rx,0,8,00,00,00,10,00,00,10,5B,
7016146,00000103,false,Rx,0,8,00,00,00,10,00,00,00,D5,
7023402,000001C4,false,Rx,0,8,22,22,92,22,22,22,42,22,
7023781,000001C2,false,Rx,0,8,22,22,92,22,22,22,42,22,
7029119,000001C1,false,Rx,0,8,22,22,92,22,22,22,42,22,
7031923,000001C0,false,Rx,0,8,22,22,92,22,22,22,42,22,
7035989,000001C3,false,Rx,0,8,22,22,92,22,22,22,42,22,
7047376,00000204,false,Rx,0,8,34,34,40,38,3A,00,00,00,
7047924,00000202,false,Rx,0,8,34,34,40,40,3A,00,00,00,
7053080,00000201,false,Rx,0,8,34,34,40,3F,3A,00,00,00,
7053532,00000104,false,Rx,0,8,00,00,00,10,00,00,10,3E,
7053911,00000102,false,Rx,0,8,00,00,00,10,00,00,10,7D,
7055880,00000200,false,Rx,0,8,33,34,40,3C,3B,00,00,00,
7059191,00000101,false,Rx,0,8,00,00,00,10,00,00,10,D2,
7060070,00000203,false,Rx,0,8,34,34,40,44,39,00,00,00,
7061872,00000100,false,Rx,0,8,00,00,00,10,00,00,10,B7,
7062074,00000105,false,Rx,0,8,00,00,00,10,00,00,20,11,
7066056,00000103,false,Rx,0,8,00,00,00,10,00,00,10,18,
7103378,00000104,false,Rx,0,8,00,00,00,10,00,00,20,74,
7103926,00000102,false,Rx,0,8,00,00,00,10,00,00,20,37,
7106226,00000205,false,Rx,0,8,34,34,40,44,3B,00,00,00,
7109121,00000101,false,Rx,0,8,00,00,00,10,00,00,20,98,
7111851,00000100,false,Rx,0,8,00,00,00,10,00,00,20,FD,
7112137,00000105,false,Rx,0,8,00,00,00,10,00,00,30,DC,
7116040,00000103,false,Rx,0,8,00,00,00,10,00,00,20,52,
7147377,00000204,false,Rx,0,8,34,34,40,38,3A,00,00,00,
7147757,00000202,false,Rx,0,8,34,34,40,41,3A,00,00,00,
7150058,000001D5,false,Rx,0,8,22,99,29,22,22,22,99,99,
7153119,00000201,false,Rx,0,8,34,34,40,3F,3A,00,00,00,
7153488,00000104,false,Rx,0,8,00,00,00,10,00,00,30,B9,
7153693,00000102,false,Rx,0,8,00,00,00,10,00,00,30,FA,
7155837,00000200,false,Rx,0,8,33,34,40,3C,3B,00,00,00,
7159228,00000101,false,Rx,0,8,00,00,00,10,00,00,30,55,
7160026,00000203,false,Rx,0,8,34,34,40,44,39,00,00,00,
7161910,00000100,false,Rx,0,8,00,00,00,10,00,00,30,30,
7162112,00000105,false,Rx,0,8,00,00,00,10,00,00,40,85,
7166013,00000103,false,Rx,0,8,00,00,00,10,00,00,30,9F,
7181970,000001C5,false,Rx,0,8,22,22,92,22,22,22,42,22,
7191392,000001D4,false,Rx,0,8,22,99,29,22,22,22,99,99,
7191679,000001D2,false,Rx,0,8,22,99,29,22,22,22,99,99,
7197013,000001D1,false,Rx,0,8,22,99,29,22,22,22,99,99,
7199732,000001D0,false,Rx,0,8,22,99,29,22,22,22,99,99,
7203550,00000104,false,Rx,0,8,00,00,00,10,00,00,40,E0,
7203760,00000102,false,Rx,0,8,00,00,00,10,00,00,40,A3,
7203963,000001D3,false,Rx,0,8,22,99,29,22,22,22,99,99,
7206101,00000205,false,Rx,0,8,34,34,40,45,3B,00,00,00,
7209007,00000101,false,Rx,0,8,00,00,00,10,00,00,40,0C,
7211642,00000100,false,Rx,0,8,00,00,00,10,00,00,40,69,
7212020,00000105,false,Rx,0,8,00,00,00,10,00,00,50,48,
7215834,00000103,false,Rx,0,8,00,00,00,10,00,00,40,C6,
7223505,000001C4,false,Rx,0,8,22,22,92,22,22,22,42,22,
7223800,000001C2,false,Rx,0,8,22,22,92,22,22,22,42,22,
7229052,000001C1,false,Rx,0,8,22,22,92,22,22,22,42,22,
7231708,000001C0,false,Rx,0,8,22,22,92,22,22,22,42,22,
7236493,000001C3,false,Rx,0,8,22,22,92,22,22,22,42,22,
7247531,00000204,false,Rx,0,8,34,34,40,37,3A,00,00,00,
7247735,00000202,false,Rx,0,8,34,34,40,41,3A,00,00,00,
7252981,00000201,false,Rx,0,8,34,34,40,3F,3A,00,00,00,
7253516,00000104,false,Rx,0,8,00,00,00,10,00,00,50,2D,
7253721,00000102,false,Rx,0,8,00,00,00,10,00,00,50,6E,
7255691,00000200,false,Rx,0,8,33,34,40,3C,3B,00,00,00,
7259007,00000101,false,Rx,0,8,00,00,00,10,00,00,50,C1,
7259801,00000203,false,Rx,0,8,34,34,40,44,39,00,00,00,
7261771,00000100,false,Rx,0,8,00,00,00,10,00,00,50,A4,
7261973,00000105,false,Rx,0,8,00,00,00,10,00,00,60,02,
7265873,00000103,false,Rx,0,8,00,00,00,10,00,00,50,0B,
7303553,00000104,false,Rx,0,8,00,00,00,10,00,00,60,67,
7303841,00000102,false,Rx,0,8,00,00,00,10,00,00,60,24,
7306057,00000205,false,Rx,0,8,34,34,40,45,3B,00,00,00,
7308950,00000101,false,Rx,0,8,00,00,00,10,00,00,60,8B,
7311759,00000100,false,Rx,0,8,00,00,00,10,00,00,60,EE,
7312127,00000105,false,Rx,0,8,00,00,00,10,00,00,70,CF,
7316031,00000103,false,Rx,0,8,00,00,00,10,00,00,60,41,
7347339,00000204,false,Rx,0,8,34,34,40,37,3A,00,00,00,
7347544,00000202,false,Rx,0,8,34,34,40,40,3A,00,00,00,
7350103,000001D5,false,Rx,0,8,22,99,29,22,22,22,99,99,
7352911,00000201,false,Rx,0,8,34,34,40,3F,3A,00,00,00,
7353280,00000104,false,Rx,0,8,00,00,00,10,00,00,70,AA,
7353569,00000102,false,Rx,0,8,00,00,00,10,00,00,70,E9,
7355876,00000200,false,Rx,0,8,33,34,40,3C,3B,00,00,00,
7359106,00000101,false,Rx,0,8,00,00,00,10,00,00,70,46,
7359900,00000203,false,Rx,0,8,34,34,40,44,39,00,00,00,
7361873,00000100,false,Rx,0,8,00,00,00,10,00,00,70,23,
7362159,00000105,false,Rx,0,8,00,00,00,10,00,00,80,B0,
7365891,00000103,false,Rx,0,8,00,00,00,10,00,00,70,8C,
7382166,000001C5,false,Rx,0,8,22,22,92,22,22,22,42,22,
7391336,000001D4,false,Rx,0,8,22,99,29,22,22,22,99,99,
7391540,000001D2,false,Rx,0,8,22,99,29,22,22,22,99,99,
7396956,000001D1,false,Rx,0,8,22,99,29,22,22,22,99,99,
7399840,000001D0,false,Rx,0,8,22,99,29,22,22,22,99,99,
7403230,00000104,false,Rx,0,8,00,00,00,10,00,00,80,D5,
7403603,00000102,false,Rx,0,8,00,00,00,10,00,00,80,96,
7403897,000001D3,false,Rx,0,8,22,99,29,22,22,22,99,99,
7406199,00000205,false,Rx,0,8,34,34,40,45,3B,00,00,00,
7409020,00000101,false,Rx,0,8,00,00,00,10,00,00,80,39,
7411829,00000100,false,Rx,0,8,00,00,00,10,00,00,80,5C,
7412198,00000105,false,Rx,0,8,00,00,00,10,00,00,90,7D,
7416023,00000103,false,Rx,0,8,00,00,00,10,00,00,80,F3,
7423363,000001C4,false,Rx,0,8,22,22,92,22,22,22,42,22,
7423569,000001C2,false,Rx,0,8,22,22,92,22,22,22,42,22,
7429076,000001C1,false,Rx,0,8,22,22,92,22,22,22,42,22,
7431820,000001C0,false,Rx,0,8,22,22,92,22,22,22,42,22,
7435969,000001C3,false,Rx,0,8,22,22,92,22,22,22,42,22,
7447452,00000204,false,Rx,0,8,34,34,40,37,3A,00,00,00,
7447657,00000202,false,Rx,0,8,34,34,40,41,3A,00,00,00,
7452902,00000201,false,Rx,0,8,34,34,40,3F,3A,00,00,00,
7453438,00000104,false,Rx,0,8,00,00,00,10,00,00,90,18,
7453726,00000102,false,Rx,0,8,00,00,00,10,00,00,90,5B,
7455785,00000200,false,Rx,0,8,33,34,40,3C,3B,00,00,00,
7459014,00000101,false,Rx,0,8,00,00,00,10,00,00,90,F4,
7459892,00000203,false,Rx,0,8,34,34,40,44,39,00,00,00,
7461778,00000100,false,Rx,0,8,00,00,00,10,00,00,90,91,
7462064,00000105,false,Rx,0,8,00,00,00,10,00,00,A0,37,
7465881,00000103,false,Rx,0,8,00,00,00,10,00,00,90,3E,
7503399,00000104,false,Rx,0,8,00,00,00,10,00,00,A0,52,
7503688,00000102,false,Rx,0,8,00,00,00,10,00,00,A0,11,
7505998,00000205,false,Rx,0,8,34,34,40,45,3B,00,00,00,
7508889,00000101,false,Rx,0,8,00,00,00,10,00,00,A0,BE,
7511950,00000100,false,Rx,0,8,00,00,00,10,00,00,A0,DB,
7512152,00000105,false,Rx,0,8,00,00,00,10,00,00,B0,FA,
7515970,00000103,false,Rx,0,8,00,00,00,10,00,00,A0,74,
7547384,00000204,false,Rx,0,8,34,34,40,37,3A,00,00,00,
7547589,00000202,false,Rx,0,8,34,34,40,41,3A,00,00,00,
7549981,000001D5,false,Rx,0,8,22,99,29,22,22,22,99,99,
7552895,00000201,false,Rx,0,8,34,34,40,3F,3A,00,00,00,
7553430,00000104,false,Rx,0,8,00,00,00,10,00,00,B0,9F,
7553635,00000102,false,Rx,0,8,00,00,00,10,00,00,B0,DC,
7555945,00000200,false,Rx,0,8,33,34,40,3C,3B,00,00,00,
7558924,00000101,false,Rx,0,8,00,00,00,10,00,00,B0,73,
7560050,00000203,false,Rx,0,8,34,34,40,44,39,00,00,00,
7561936,00000100,false,Rx,0,8,00,00,00,10,00,00,B0,16,
7562139,00000105,false,Rx,0,8,00,00,00,10,00,00,C0,A3,
7566039,00000103,false,Rx,0,8,00,00,00,10,00,00,B0,B9,
7581920,000001C5,false,Rx,0,8,22,22,92,22,22,22,42,22,
7591370,000001D4,false,Rx,0,8,22,99,29,22,22,22,99,99,
7591658,000001D2,false,Rx,0,8,22,99,29,22,22,22,99,99,
7596907,000001D1,false,Rx,0,8,22,99,29,22,22,22,99,99,
7599966,000001D0,false,Rx,0,8,22,99,29,22,22,22,99,99,
7603361,00000104,false,Rx,0,8,00,00,00,10,00,00,C0,C6,
