Time Stamp,ID,Extended,Dir,Bus,LEN,D1,D2,D3,D4,D5,D6,D7,D8
1810591,00000104,false,Rx,0,8,00,00,00,10,00,00,00,F3,
1810890,00000105,false,Rx,0,8,00,00,00,10,00,00,00,96,
1814554,00000101,false,Rx,0,8,00,00,00,10,00,00,00,1F,
1814762,00000103,false,Rx,0,8,00,00,00,10,00,00,00,D5,
1815387,00000102,false,Rx,0,8,00,00,00,10,00,00,00,B0,
1817017,00000100,false,Rx,0,8,00,00,00,10,00,00,00,7A,
1854665,00000204,false,Rx,0,8,3A,3A,40,40,43,00,00,00,
1854869,00000205,false,Rx,0,8,3A,3A,40,4E,44,00,00,00,
1858505,00000203,false,Rx,0,8,3A,3A,40,4C,41,00,00,00,
1858792,00000201,false,Rx,0,8,3A,3A,40,48,43,00,00,00,
1859334,00000202,false,Rx,0,8,39,3A,40,49,42,00,00,00,
1860623,00000104,false,Rx,0,8,00,00,00,10,00,00,10,3E,
1861634,00000105,false,Rx,0,8,00,00,00,10,00,00,10,5B,
1861722,00000200,false,Rx,0,8,39,3A,40,44,42,00,00,00,
1864604,00000101,false,Rx,0,8,00,00,00,10,00,00,10,D2,
1864807,00000103,false,Rx,0,8,00,00,00,10,00,00,10,18,
1865348,00000102,false,Rx,0,8,00,00,00,10,00,00,10,7D,
1866888,00000100,false,Rx,0,8,00,00,00,10,00,00,10,B7,
1898559,000001D4,false,Rx,0,8,22,99,29,22,22,22,99,99,
1898846,000001D5,false,Rx,0,8,22,99,29,22,22,22,99,99,
1902528,000001D1,false,Rx,0,8,22,99,29,22,22,22,99,99,
1902730,000001D3,false,Rx,0,8,22,99,29,22,22,22,99,99,
1903367,000001D2,false,Rx,0,8,22,99,29,22,22,22,99,99,
1904831,000001D0,false,Rx,0,8,22,99,29,22,22,22,99,99,
1910647,00000104,false,Rx,0,8,00,00,00,10,00,00,20,74,
1910934,00000105,false,Rx,0,8,00,00,00,10,00,00,20,11,
1914459,00000101,false,Rx,0,8,00,00,00,10,00,00,20,98,
1914745,00000103,false,Rx,0,8,00,00,00,10,00,00,20,52,
1915453,00000102,false,Rx,0,8,00,00,00,10,00,00,20,37,
1916910,00000100,false,Rx,0,8,00,00,00,10,00,00,20,FD,
1930590,000001C4,false,Rx,0,8,22,11,92,22,22,22,42,22,
1930877,000001C5,false,Rx,0,8,22,11,92,22,22,22,42,22,
1934347,000001C1,false,Rx,0,8,22,11,92,22,22,22,42,22,
1934632,000001C3,false,Rx,0,8,22,11,92,22,22,22,42,22,
1935425,000001C2,false,Rx,0,8,22,11,92,22,22,22,42,22,
1936799,000001C0,false,Rx,0,8,22,11,92,22,22,22,42,22,
1954610,00000204,false,Rx,0,8,3A,39,40,40,43,00,00,00,
1954897,00000205,false,Rx,0,8,3A,39,40,4E,44,00,00,00,
1958451,00000201,false,Rx,0,8,3A,3A,40,48,43,00,00,00,
1958653,00000203,false,Rx,0,8,3A,39,40,4C,41,00,00,00,
1959528,00000202,false,Rx,0,8,39,3A,40,49,42,00,00,00,
1960653,00000104,false,Rx,0,8,00,00,00,10,00,00,30,B9,
1960856,00000200,false,Rx,0,8,39,3A,40,44,42,00,00,00,
1961150,00000105,false,Rx,0,8,00,00,00,10,00,00,30,DC,
1965651,00000101,false,Rx,0,8,00,00,00,10,00,00,30,55,
1965739,00000103,false,Rx,0,8,00,00,00,10,00,00,30,9F,
1965828,00000102,false,Rx,0,8,00,00,00,10,00,00,30,FA,
1966868,00000100,false,Rx,0,8,00,00,00,10,00,00,30,30,
2010559,00000104,false,Rx,0,8,00,00,00,10,00,00,40,E0,
2010928,00000105,false,Rx,0,8,00,00,00,10,00,00,40,85,
2014401,00000101,false,Rx,0,8,00,00,00,10,00,00,40,0C,
2014604,00000103,false,Rx,0,8,00,00,00,10,00,00,40,C6,
2015396,00000102,false,Rx,0,8,00,00,00,10,00,00,40,A3,
2016789,00000100,false,Rx,0,8,00,00,00,10,00,00,40,69,
2054518,00000204,false,Rx,0,8,3A,39,40,40,43,00,00,00,
2054807,00000205,false,Rx,0,8,3A,39,40,4E,44,00,00,00,
2058277,00000201,false,Rx,0,8,3A,3A,40,48,43,00,00,00,
2058480,00000203,false,Rx,0,8,3A,39,40,4C,41,00,00,00,
2059438,00000202,false,Rx,0,8,39,3A,40,49,42,00,00,00,
2060478,00000104,false,Rx,0,8,00,00,00,10,00,00,50,2D,
2060680,00000200,false,Rx,0,8,39,3A,40,44,42,00,00,00,
2060973,00000105,false,Rx,0,8,00,00,00,10,00,00,50,48,
2064269,00000103,false,Rx,0,8,00,00,00,10,00,00,50,0B,
2064472,00000101,false,Rx,0,8,00,00,00,10,00,00,50,C1,
2065512,00000102,false,Rx,0,8,00,00,00,10,00,00,50,6E,
2067397,00000100,false,Rx,0,8,00,00,00,10,00,00,50,A4,
2098418,000001D4,false,Rx,0,8,22,99,29,22,22,22,99,99,
2098787,000001D5,false,Rx,0,8,22,99,29,22,22,22,99,99,
2102268,000001D1,false,Rx,0,8,22,99,29,22,22,22,99,99,
2102471,000001D3,false,Rx,0,8,22,99,29,22,22,22,99,99,
2103440,000001D2,false,Rx,0,8,22,99,29,22,22,22,99,99,
2104656,000001D0,false,Rx,0,8,22,99,29,22,22,22,99,99,
2110388,00000104,false,Rx,0,8,00,00,00,10,00,00,60,67,
2110840,00000105,false,Rx,0,8,00,00,00,10,00,00,60,02,
2114234,00000103,false,Rx,0,8,00,00,00,10,00,00,60,41,
2114519,00000101,false,Rx,0,8,00,00,00,10,00,00,60,8B,
2115396,00000102,false,Rx,0,8,00,00,00,10,00,00,60,24,
2116684,00000100,false,Rx,0,8,00,00,00,10,00,00,60,EE,
2130519,000001C4,false,Rx,0,8,22,11,92,22,22,22,42,22,
2130889,000001C5,false,Rx,0,8,22,11,92,22,22,22,42,22,
2134276,000001C1,false,Rx,0,8,22,11,92,22,22,22,42,22,
2134479,000001C3,false,Rx,0,8,22,11,92,22,22,22,42,22,
2135520,000001C2,false,Rx,0,8,22,11,92,22,22,22,42,22,
2136561,000001C0,false,Rx,0,8,22,11,92,22,22,22,42,22,
2154535,00000204,false,Rx,0,8,3A,39,40,41,43,00,00,00,
2154997,00000205,false,Rx,0,8,3A,39,40,4E,44,00,00,00,
2158228,00000201,false,Rx,0,8,3A,3A,40,48,43,00,00,00,
2158514,00000203,false,Rx,0,8,3A,39,40,4B,41,00,00,00,
2159499,00000202,false,Rx,0,8,39,3A,40,49,42,00,00,00,
2160540,00000104,false,Rx,0,8,00,00,00,10,00,00,70,AA,
2160742,00000200,false,Rx,0,8,39,3A,40,44,42,00,00,00,
2161036,00000105,false,Rx,0,8,00,00,00,10,00,00,70,CF,
2164249,00000101,false,Rx,0,8,00,00,00,10,00,00,70,46,
2164535,00000103,false,Rx,0,8,00,00,00,10,00,00,70,8C,
2165492,00000102,false,Rx,0,8,00,00,00,10,00,00,70,E9,
2166616,00000100,false,Rx,0,8,00,00,00,10,00,00,70,23,
2210573,00000104,false,Rx,0,8,00,00,00,10,00,00,80,D5,
2210859,00000105,false,Rx,0,8,00,00,00,10,00,00,80,B0,
2214245,00000101,false,Rx,0,8,00,00,00,10,00,00,80,39,
2214446,00000103,false,Rx,0,8,00,00,00,10,00,00,80,F3,
2215487,00000102,false,Rx,0,8,00,00,00,10,00,00,80,96,
2216611,00000100,false,Rx,0,8,00,00,00,10,00,00,80,5C,
2254592,00000204,false,Rx,0,8,3A,39,40,40,43,00,00,00,
2254970,00000205,false,Rx,0,8,3A,39,40,4E,44,00,00,00,
2258394,00000201,false,Rx,0,8,3A,3A,40,48,43,00,00,00,
2258596,00000203,false,Rx,0,8,3A,39,40,4C,41,00,00,00,
2259471,00000202,false,Rx,0,8,39,3A,40,49,42,00,00,00,
2260595,00000104,false,Rx,0,8,00,00,00,10,00,00,90,18,
2260798,00000200,false,Rx,0,8,39,3A,40,44,42,00,00,00,
2261092,00000105,false,Rx,0,8,00,00,00,10,00,00,90,7D,
2264393,00000101,false,Rx,0,8,00,00,00,10,00,00,90,F4,
2264595,00000103,false,Rx,0,8,00,00,00,10,00,00,90,3E,
2265471,00000102,false,Rx,0,8,00,00,00,10,00,00,90,5B,
2266595,00000100,false,Rx,0,8,00,00,00,10,00,00,90,91,
2298642,000001D4,false,Rx,0,8,22,99,29,22,22,22,99,99,
2298929,000001D5,false,Rx,0,8,22,99,29,22,22,22,99,99,
2302248,000001D1,false,Rx,0,8,22,99,29,22,22,22,99,99,
2302450,000001D3,false,Rx,0,8,22,99,29,22,22,22,99,99,
2303497,000001D2,false,Rx,0,8,22,99,29,22,22,22,99,99,
2304548,000001D0,false,Rx,0,8,22,99,29,22,22,22,99,99,
2310607,00000104,false,Rx,0,8,00,00,00,10,00,00,A0,52,
2311070,00000105,false,Rx,0,8,00,00,00,10,00,00,A0,37,
2314285,00000101,false,Rx,0,8,00,00,00,10,00,00,A0,BE,
2314487,00000103,false,Rx,0,8,00,00,00,10,00,00,A0,74,
2315610,00000102,false,Rx,0,8,00,00,00,10,00,00,A0,11,
2316570,00000100,false,Rx,0,8,00,00,00,10,00,00,A0,DB,
2330739,000001C4,false,Rx,0,8,22,11,92,22,22,22,42,22,
2331027,000001C5,false,Rx,0,8,22,11,92,22,22,22,42,22,
2334244,000001C3,false,Rx,0,8,22,11,92,22,22,22,42,22,
2334529,000001C1,false,Rx,0,8,22,11,92,22,22,22,42,22,
2335570,000001C2,false,Rx,0,8,22,11,92,22,22,22,42,22,
2336610,000001C0,false,Rx,0,8,22,11,92,22,22,22,42,22,
2354720,00000204,false,Rx,0,8,3A,39,40,40,43,00,00,00,
2355098,00000205,false,Rx,0,8,3A,39,40,4E,44,00,00,00,
2358261,00000201,false,Rx,0,8,3A,3A,40,48,43,00,00,00,
2358463,00000203,false,Rx,0,8,3A,39,40,4B,41,00,00,00,
2359686,00000202,false,Rx,0,8,39,3A,40,49,42,00,00,00,
2360562,00000200,false,Rx,0,8,39,3A,40,44,42,00,00,00,
2360768,00000104,false,Rx,0,8,00,00,00,10,00,00,B0,9F,
2361143,00000105,false,Rx,0,8,00,00,00,10,00,00,B0,FA,
2364275,00000103,false,Rx,0,8,00,00,00,10,00,00,B0,B9,
2364560,00000101,false,Rx,0,8,00,00,00,10,00,00,B0,73,
2365684,00000102,false,Rx,0,8,00,00,00,10,00,00,B0,DC,
2366394,00000100,false,Rx,0,8,00,00,00,10,00,00,B0,16,
2410656,00000104,false,Rx,0,8,00,00,00,10,00,00,C0,C6,
2411199,00000105,false,Rx,0,8,00,00,00,10,00,00,C0,A3,
2414331,00000103,false,Rx,0,8,00,00,00,10,00,00,C0,E0,
2414617,00000101,false,Rx,0,8,00,00,00,10,00,00,C0,2A,
2415658,00000102,false,Rx,0,8,00,00,00,10,00,00,C0,85,
2416450,00000100,false,Rx,0,8,00,00,00,10,00,00,C0,4F,
2454702,00000204,false,Rx,0,8,3A,39,40,40,43,00,00,00,
2455329,00000205,false,Rx,0,8,3A,39,40,4E,44,00,00,00,
2458380,00000203,false,Rx,0,8,3A,39,40,4C,41,00,00,00,
2458583,00000201,false,Rx,0,8,3A,3A,40,48,43,00,00,00,
2459625,00000202,false,Rx,0,8,39,3A,40,49,42,00,00,00,
2460335,00000200,false,Rx,0,8,39,3A,40,44,42,00,00,00,
2460730,00000104,false,Rx,0,8,00,00,00,10,00,00,D0,0B,
2461360,00000105,false,Rx,0,8,00,00,00,10,00,00,D0,6E,
2464252,00000103,false,Rx,0,8,00,00,00,10,00,00,D0,2D,
2464620,00000101,false,Rx,0,8,00,00,00,10,00,00,D0,E7,
2465661,00000102,false,Rx,0,8,00,00,00,10,00,00,D0,48,
2466370,00000100,false,Rx,0,8,00,00,00,10,00,00,D0,82,
2498697,000001D4,false,Rx,0,8,22,99,29,22,22,22,99,99,
2499241,000001D5,false,Rx,0,8,22,99,29,22,22,22,99,99,
2502139,000001D3,false,Rx,0,8,22,99,29,22,22,22,99,99,
2502424,000001D1,false,Rx,0,8,22,99,29,22,22,22,99,99,
2503640,000001D2,false,Rx,0,8,22,99,29,22,22,22,99,99,
2504391,000001D0,false,Rx,0,8,22,99,29,22,22,22,99,99,
2510700,00000104,false,Rx,0,8,00,00,00,10,00,00,E0,41,
2511243,00000105,false,Rx,0,8,00,00,00,10,00,00,E0,24,
2514209,00000103,false,Rx,0,8,00,00,00,10,00,00,E0,67,
2514411,00000101,false,Rx,0,8,00,00,00,10,00,00,E0,AD,
2515787,00000102,false,Rx,0,8,00,00,00,10,00,00,E0,02,
2516411,00000100,false,Rx,0,8,00,00,00,10,00,00,E0,C8,
2530713,000001C4,false,Rx,0,8,22,11,92,22,22,22,42,22,
2531257,000001C5,false,Rx,0,8,22,11,92,22,22,22,42,22,
2534145,000001C3,false,Rx,0,8,22,11,92,22,22,22,42,22,
2534430,000001C1,false,Rx,0,8,22,11,92,22,22,22,42,22,
2535720,000001C2,false,Rx,0,8,22,11,92,22,22,22,42,22,
2536429,000001C0,false,Rx,0,8,22,11,92,22,22,22,42,22,
2554622,00000204,false,Rx,0,8,3A,39,40,40,43,00,00,00,
2555248,00000205,false,Rx,0,8,3A,39,40,4E,44,00,00,00,
2558217,00000203,false,Rx,0,8,3A,39,40,4C,41,00,00,00,
2558419,00000201,false,Rx,0,8,3A,3A,40,48,43,00,00,00,
2559880,00000202,false,Rx,0,8,39,3A,40,49,42,00,00,00,
2560340,00000200,false,Rx,0,8,39,3A,40,44,42,00,00,00,
2560792,00000104,false,Rx,0,8,00,00,00,10,00,00,00,F3,
2561333,00000105,false,Rx,0,8,00,00,00,10,00,00,00,96,
2564244,00000103,false,Rx,0,8,00,00,00,10,00,00,00,D5,
2564446,00000101,false,Rx,0,8,00,00,00,10,00,00,00,1F,
2565913,00000102,false,Rx,0,8,00,00,00,10,00,00,00,B0,
2566373,00000100,false,Rx,0,8,00,00,00,10,00,00,00,7A,
2610739,00000104,false,Rx,0,8,00,00,00,10,00,00,10,3E,
2611365,00000105,false,Rx,0,8,00,00,00,10,00,00,10,5B,
2614166,00000103,false,Rx,0,8,00,00,00,10,00,00,10,18,
2614451,00000101,false,Rx,0,8,00,00,00,10,00,00,10,D2,
2615908,00000102,false,Rx,0,8,00,00,00,10,00,00,10,7D,
2616450,00000100,false,Rx,0,8,00,00,00,10,00,00,10,B7,
2654666,00000204,false,Rx,0,8,3A,39,40,40,43,00,00,00,
2655293,00000205,false,Rx,0,8,3A,39,40,4E,44,00,00,00,
2658340,00000203,false,Rx,0,8,3A,39,40,4B,41,00,00,00,
2658543,00000201,false,Rx,0,8,3A,3A,40,48,43,00,00,00,
2659834,00000202,false,Rx,0,8,39,3A,40,49,42,00,00,00,
2660376,00000200,false,Rx,0,8,39,3A,40,44,42,00,00,00,
2660660,00000104,false,Rx,0,8,00,00,00,10,00,00,20,74,
2661369,00000105,false,Rx,0,8,00,00,00,10,00,00,20,11,
2664252,00000103,false,Rx,0,8,00,00,00,10,00,00,20,52,
2664454,00000101,false,Rx,0,8,00,00,00,10,00,00,20,98,
2665854,00000102,false,Rx,0,8,00,00,00,10,00,00,20,37,
2666396,00000100,false,Rx,0,8,00,00,00,10,00,00,20,FD,
2698677,000001D4,false,Rx,0,8,22,99,29,22,22,22,99,99,
2699306,000001D5,false,Rx,0,8,22,99,29,22,22,22,99,99,
2702202,000001D3,false,Rx,0,8,22,99,29,22,22,22,99,99,
2702486,000001D1,false,Rx,0,8,22,99,29,22,22,22,99,99,
2703790,000001D2,false,Rx,0,8,22,99,29,22,22,22,99,99,
2704335,000001D0,false,Rx,0,8,22,99,29,22,22,22,99,99,
2710652,00000104,false,Rx,0,8,00,00,00,10,00,00,30,B9,
2711362,00000105,false,Rx,0,8,00,00,00,10,00,00,30,DC,
2714163,00000103,false,Rx,0,8,00,00,00,10,00,00,30,9F,
2714448,00000101,false,Rx,0,8,00,00,00,10,00,00,30,55,
2715906,00000102,false,Rx,0,8,00,00,00,10,00,00,30,FA,
2716366,00000100,false,Rx,0,8,00,00,00,10,00,00,30,30,
2730624,000001C4,false,Rx,0,8,22,11,92,22,22,22,42,22,
2731416,000001C5,false,Rx,0,8,22,11,92,22,22,22,42,22,
2734240,000001C3,false,Rx,0,8,22,11,92,22,22,22,42,22,
2734443,000001C1,false,Rx,0,8,22,11,92,22,22,22,42,22,
2735733,000001C2,false,Rx,0,8,22,11,92,22,22,22,42,22,
2736443,000001C0,false,Rx,0,8,22,11,92,22,22,22,42,22,
2754471,00000204,false,Rx,0,8,3A,39,40,40,43,00,00,00,
2755429,00000205,false,Rx,0,8,3A,39,40,4E,44,00,00,00,
2758151,00000203,false,Rx,0,8,3A,39,40,4C,41,00,00,00,
2758437,00000201,false,Rx,0,8,3A,3A,40,48,43,00,00,00,
2759727,00000202,false,Rx,0,8,39,3A,40,49,42,00,00,00,
2760271,00000200,false,Rx,0,8,39,3A,40,44,42,00,00,00,
2760473,00000104,false,Rx,0,8,00,00,00,10,00,00,40,E0,
2761431,00000105,false,Rx,0,8,00,00,00,10,00,00,40,85,
2764151,00000103,false,Rx,0,8,00,00,00,10,00,00,40,C6,
2764437,00000101,false,Rx,0,8,00,00,00,10,00,00,40,0C,
2765814,00000102,false,Rx,0,8,00,00,00,10,00,00,40,A3,
2766273,00000100,false,Rx,0,8,00,00,00,10,00,00,40,69,
2810421,00000104,false,Rx,0,8,00,00,00,10,00,00,50,2D,
2811466,00000105,false,Rx,0,8,00,00,00,10,00,00,50,48,
2814183,00000103,false,Rx,0,8,00,00,00,10,00,00,50,0B,
2814468,00000101,false,Rx,0,8,00,00,00,10,00,00,50,C1,
2815843,00000102,false,Rx,0,8,00,00,00,10,00,00,50,6E,
2816220,00000100,false,Rx,0,8,00,00,00,10,00,00,50,A4,
2854371,00000204,false,Rx,0,8,3A,39,40,40,43,00,00,00,
2855413,00000205,false,Rx,0,8,3A,39,40,4E,44,00,00,00,
2858132,00000203,false,Rx,0,8,3A,39,40,4C,41,00,00,00,
2858334,00000201,false,Rx,0,8,3A,3A,40,48,43,00,00,00,
2859792,00000202,false,Rx,0,8,39,3A,40,49,42,00,00,00,
2860168,00000200,false,Rx,0,8,39,3A,40,44,42,00,00,00,
2860454,00000104,false,Rx,0,8,00,00,00,10,00,00,60,67,
2861495,00000105,false,Rx,0,8,00,00,00,10,00,00,60,02,
2864049,00000103,false,Rx,0,8,00,00,00,10,00,00,60,41,
2864333,00000101,false,Rx,0,8,00,00,00,10,00,00,60,8B,
2865874,00000102,false,Rx,0,8,00,00,00,10,00,00,60,24,
2866167,00000100,false,Rx,0,8,00,00,00,10,00,00,60,EE,
2898259,000001D4,false,Rx,0,8,22,99,29,22,22,22,99,99,
2899383,000001D5,false,Rx,0,8,22,99,29,22,22,22,99,99,
2902116,000001D3,false,Rx,0,8,22,99,29,22,22,22,99,99,
2902401,000001D1,false,Rx,0,8,22,99,29,22,22,22,99,99,
2903877,000001D2,false,Rx,0,8,22,99,29,22,22,22,99,99,
2904335,000001D0,false,Rx,0,8,22,99,29,22,22,22,99,99,
2910321,00000104,false,Rx,0,8,00,00,00,10,00,00,70,AA,
2911445,00000105,false,Rx,0,8,00,00,00,10,00,00,70,CF,
2914163,00000103,false,Rx,0,8,00,00,00,10,00,00,70,8C,
2914365,00000101,false,Rx,0,8,00,00,00,10,00,00,70,46,
2915824,00000102,false,Rx,0,8,00,00,00,10,00,00,70,E9,
2916366,00000100,false,Rx,0,8,00,00,00,10,00,00,70,23,
2930292,000001C4,false,Rx,0,8,22,11,92,22,22,22,42,22,
2931415,000001C5,false,Rx,0,8,22,11,92,22,22,22,42,22,
2934302,000001C1,false,Rx,0,8,22,11,92,22,22,22,42,22,
2934505,000001C3,false,Rx,0,8,22,11,92,22,22,22,42,22,
2935800,000001C2,false,Rx,0,8,22,11,92,22,22,22,42,22,
2936342,000001C0,false,Rx,0,8,22,11,92,22,22,22,42,22,
2954289,00000204,false,Rx,0,8,3A,39,40,40,43,00,00,00,
2955413,00000205,false,Rx,0,8,3A,39,40,4E,44,00,00,00,
2958214,00000201,false,Rx,0,8,3A,3A,40,48,43,00,00,00,
2958416,00000203,false,Rx,0,8,3A,39,40,4B,41,00,00,00,
2959873,00000202,false,Rx,0,8,39,3A,40,49,42,00,00,00,
2960249,00000104,false,Rx,0,8,00,00,00,10,00,00,80,D5,
2960534,00000200,false,Rx,0,8,39,3A,40,44,42,00,00,00,
2961492,00000105,false,Rx,0,8,00,00,00,10,00,00,80,B0,
2964209,00000101,false,Rx,0,8,00,00,00,10,00,00,80,39,
2964494,00000103,false,Rx,0,8,00,00,00,10,00,00,80,F3,
2965869,00000102,false,Rx,0,8,00,00,00,10,00,00,80,96,
2966410,00000100,false,Rx,0,8,00,00,00,10,00,00,80,5C,
3010393,00000104,false,Rx,0,8,00,00,00,10,00,00,90,18,
3011516,00000105,false,Rx,0,8,00,00,00,10,00,00,90,7D,
3014235,00000101,false,Rx,0,8,00,00,00,10,00,00,90,F4,
3014521,00000103,false,Rx,0,8,00,00,00,10,00,00,90,3E,
3015897,00000102,false,Rx,0,8,00,00,00,10,00,00,90,5B,
3016355,00000100,false,Rx,0,8,00,00,00,10,00,00,90,91,
3054329,00000204,false,Rx,0,8,3A,39,40,41,43,00,00,00,
3055536,00000205,false,Rx,0,8,3A,39,40,4F,44,00,00,00,
3058087,00000201,false,Rx,0,8,3A,3A,40,48,43,00,00,00,
3058289,00000203,false,Rx,0,8,3A,39,40,4B,41,00,00,00,
3060001,00000202,false,Rx,0,8,39,3A,40,49,42,00,00,00,
3060287,00000200,false,Rx,0,8,39,3A,40,44,42,00,00,00,
3060572,00000104,false,Rx,0,8,00,00,00,10,00,00,A0,52,
3061530,00000105,false,Rx,0,8,00,00,00,10,00,00,A0,37,
3064165,00000101,false,Rx,0,8,00,00,00,10,00,00,A0,BE,
3064367,00000103,false,Rx,0,8,00,00,00,10,00,00,A0,74,
3065996,00000102,false,Rx,0,8,00,00,00,10,00,00,A0,11,
3066282,00000100,false,Rx,0,8,00,00,00,10,00,00,A0,DB,
3098316,000001D4,false,Rx,0,8,22,99,29,22,22,22,99,99,
3099523,000001D5,false,Rx,0,8,22,99,29,22,22,22,99,99,
3102171,000001D1,false,Rx,0,8,22,99,29,22,22,22,99,99,
3102372,000001D3,false,Rx,0,8,22,99,29,22,22,22,99,99,
3103933,000001D2,false,Rx,0,8,22,99,29,22,22,22,99,99,
3104309,000001D0,false,Rx,0,8,22,99,29,22,22,22,99,99,
3110369,00000104,false,Rx,0,8,00,00,00,10,00,00,B0,9F,
3111575,00000105,false,Rx,0,8,00,00,00,10,00,00,B0,FA,
3114211,00000101,false,Rx,0,8,00,00,00,10,00,00,B0,73,
3114496,00000103,false,Rx,0,8,00,00,00,10,00,00,B0,B9,
3116041,00000102,false,Rx,0,8,00,00,00,10,00,00,B0,DC,
3116327,00000100,false,Rx,0,8,00,00,00,10,00,00,B0,16,
3130258,000001C4,false,Rx,0,8,22,11,92,22,22,22,42,22,
3131465,000001C5,false,Rx,0,8,22,11,92,22,22,22,42,22,
3134182,000001C1,false,Rx,0,8,22,11,92,22,22,22,42,22,
3134385,000001C3,false,Rx,0,8,22,11,92,22,22,22,42,22,
3136015,000001C2,false,Rx,0,8,22,11,92,22,22,22,42,22,
3136300,000001C0,false,Rx,0,8,22,11,92,22,22,22,42,22,
3154234,00000204,false,Rx,0,8,3A,39,40,40,43,00,00,00,
3155606,00000205,false,Rx,0,8,3A,39,40,4E,44,00,00,00,
3158162,00000201,false,Rx,0,8,3A,3A,40,48,43,00,00,00,
3158364,00000203,false,Rx,0,8,3A,39,40,4C,41,00,00,00,
3159906,00000202,false,Rx,0,8,39,3A,40,49,42,00,00,00,
3160282,00000104,false,Rx,0,8,00,00,00,10,00,00,C0,C6,
3160485,00000200,false,Rx,0,8,39,3A,40,44,42,00,00,00,
3161609,00000105,false,Rx,0,8,00,00,00,10,00,00,C0,A3,
3164161,00000101,false,Rx,0,8,00,00,00,10,00,00,C0,2A,
3164446,00000103,false,Rx,0,8,00,00,00,10,00,00,C0,E0,
3165994,00000102,false,Rx,0,8,00,00,00,10,00,00,C0,85,
3166279,00000100,false,Rx,0,8,00,00,00,10,00,00,C0,4F,
3210234,00000104,false,Rx,0,8,00,00,00,10,00,00,D0,0B,
3211607,00000105,false,Rx,0,8,00,00,00,10,00,00,D0,6E,
3214162,00000101,false,Rx,0,8,00,00,00,10,00,00,D0,E7,
3214364,00000103,false,Rx,0,8,00,00,00,10,00,00,D0,2D,
3215997,00000102,false,Rx,0,8,00,00,00,10,00,00,D0,48,
3216282,00000100,false,Rx,0,8,00,00,00,10,00,00,D0,82,
3254338,00000204,false,Rx,0,8,3A,39,40,40,43,00,00,00,
3255546,00000205,false,Rx,0,8,3A,39,40,4E,44,00,00,00,
3258180,00000201,false,Rx,0,8,3A,3A,40,48,43,00,00,00,
3258465,00000203,false,Rx,0,8,3A,39,40,4C,41,00,00,00,
3260004,00000202,false,Rx,0,8,39,3A,40,49,42,00,00,00,
3260215,00000200,false,Rx,0,8,39,3A,40,44,42,00,00,00,
3260500,00000104,false,Rx,0,8,00,00,00,10,00,00,E0,41,
3261541,00000105,false,Rx,0,8,00,00,00,10,00,00,E0,24,
3264257,00000101,false,Rx,0,8,00,00,00,10,00,00,E0,AD,
3264460,00000103,false,Rx,0,8,00,00,00,10,00,00,E0,67,
3266090,00000102,false,Rx,0,8,00,00,00,10,00,00,E0,02,
3266375,00000100,false,Rx,0,8,00,00,00,10,00,00,E0,C8,
3298303,000001D4,false,Rx,0,8,22,99,29,22,22,22,99,99,
3299426,000001D5,false,Rx,0,8,22,99,29,22,22,22,99,99,
3302158,000001D1,false,Rx,0,8,22,99,29,22,22,22,99,99,
3302443,000001D3,false,Rx,0,8,22,99,29,22,22,22,99,99,
3303917,000001D2,false,Rx,0,8,22,99,29,22,22,22,99,99,
3304127,000001D0,false,Rx,0,8,22,99,29,22,22,22,99,99,
3310353,00000104,false,Rx,0,8,00,00,00,10,00,00,00,F3,
3311559,00000105,false,Rx,0,8,00,00,00,10,00,00,00,96,
3314194,00000101,false,Rx,0,8,00,00,00,10,00,00,00,1F,
3314479,00000103,false,Rx,0,8,00,00,00,10,00,00,00,D5,
3315935,00000102,false,Rx,0,8,00,00,00,10,00,00,00,B0,
3316229,00000100,false,Rx,0,8,00,00,00,10,00,00,00,7A,
3330245,000001C4,false,Rx,0,8,22,11,92,22,22,22,42,22,
3331286,000001C5,false,Rx,0,8,22,11,92,22,22,22,42,22,
3334001,000001C1,false,Rx,0,8,22,11,92,22,22,22,42,22,
3334204,000001C3,false,Rx,0,8,22,11,92,22,22,22,42,22,
3335909,000001C2,false,Rx,0,8,22,11,92,22,22,22,42,22,
3336119,000001C0,false,Rx,0,8,22,11,92,22,22,22,42,22,
3354239,00000204,false,Rx,0,8,3A,39,40,41,43,00,00,00,
3355363,00000205,false,Rx,0,8,3A,39,40,4E,44,00,00,00,
3358080,00000201,false,Rx,0,8,3A,3A,40,48,43,00,00,00,
3358365,00000203,false,Rx,0,8,3A,39,40,4B,41,00,00,00,
3359997,00000202,false,Rx,0,8,39,3A,40,49,42,00,00,00,
3360199,00000200,false,Rx,0,8,39,3A,40,44,42,00,00,00,
3360484,00000104,false,Rx,0,8,00,00,00,10,00,00,10,3E,
3361360,00000105,false,Rx,0,8,00,00,00,10,00,00,10,5B,
3364077,00000101,false,Rx,0,8,00,00,00,10,00,00,10,D2,
3364363,00000103,false,Rx,0,8,00,00,00,10,00,00,10,18,
3365992,00000102,false,Rx,0,8,00,00,00,10,00,00,10,7D,
3366278,00000100,false,Rx,0,8,00,00,00,10,00,00,10,B7,
3410202,00000104,false,Rx,0,8,00,00,00,10,00,00,20,74,
3411409,00000105,false,Rx,0,8,00,00,00,10,00,00,20,11,
3414126,00000103,false,Rx,0,8,00,00,00,10,00,00,20,52,
3414328,00000101,false,Rx,0,8,00,00,00,10,00,00,20,98,
3416033,00000102,false,Rx,0,8,00,00,00,10,00,00,20,37,
3416236,00000100,false,Rx,0,8,00,00,00,10,00,00,20,FD,
3454214,00000204,false,Rx,0,8,3A,39,40,41,43,00,00,00,
3455501,00000205,false,Rx,0,8,3A,39,40,4F,44,00,00,00,
3458140,00000201,false,Rx,0,8,3A,3A,40,48,43,00,00,00,
3458343,00000203,false,Rx,0,8,3A,39,40,4C,41,00,00,00,
3460087,00000202,false,Rx,0,8,39,3A,40,48,42,00,00,00,
3460371,00000104,false,Rx,0,8,00,00,00,10,00,00,30,B9,
3460574,00000200,false,Rx,0,8,39,3A,40,44,42,00,00,00,
3461530,00000105,false,Rx,0,8,00,00,00,10,00,00,30,DC,
3464165,00000101,false,Rx,0,8,00,00,00,10,00,00,30,55,
3464367,00000103,false,Rx,0,8,00,00,00,10,00,00,30,9F,
3466079,00000102,false,Rx,0,8,00,00,00,10,00,00,30,FA,
3466364,00000100,false,Rx,0,8,00,00,00,10,00,00,30,30,
3498238,000001D4,false,Rx,0,8,22,99,29,22,22,22,99,99,
3499444,000001D5,false,Rx,0,8,22,99,29,22,22,22,99,99,
3502070,000001D1,false,Rx,0,8,22,99,29,22,22,22,99,99,
3502271,000001D3,false,Rx,0,8,22,99,29,22,22,22,99,99,
3504031,000001D2,false,Rx,0,8,22,99,29,22,22,22,99,99,
3504316,000001D0,false,Rx,0,8,22,99,29,22,22,22,99,99,
3510221,00000104,false,Rx,0,8,00,00,00,10,00,00,40,E0,
3511426,00000105,false,Rx,0,8,00,00,00,10,00,00,40,85,
3514060,00000101,false,Rx,0,8,00,00,00,10,00,00,40,0C,
3514262,00000103,false,Rx,0,8,00,00,00,10,00,00,40,C6,
3515974,00000102,false,Rx,0,8,00,00,00,10,00,00,40,A3,
3516260,00000100,false,Rx,0,8,00,00,00,10,00,00,40,69,
3530189,000001C4,false,Rx,0,8,22,11,92,22,22,22,42,22,
3531396,000001C5,false,Rx,0,8,22,11,92,22,22,22,42,22,
3534030,000001C1,false,Rx,0,8,22,11,92,22,22,22,42,22,
3534315,000001C3,false,Rx,0,8,22,11,92,22,22,22,42,22,
3535936,000001C2,false,Rx,0,8,22,11,92,22,22,22,42,22,
3536146,000001C0,false,Rx,0,8,22,11,92,22,22,22,42,22,
3554261,00000204,false,Rx,0,8,3A,39,40,40,43,00,00,00,
3555386,00000205,false,Rx,0,8,3A,39,40,4E,44,00,00,00,
3558019,00000201,false,Rx,0,8,3A,3A,40,48,43,00,00,00,
3558387,00000203,false,Rx,0,8,3A,39,40,4C,41,00,00,00,
3560017,00000202,false,Rx,0,8,39,3A,40,49,42,00,00,00,
3560219,00000104,false,Rx,0,8,00,00,00,10,00,00,50,2D,
3560505,00000200,false,Rx,0,8,39,3A,40,44,43,00,00,00,
3561466,00000105,false,Rx,0,8,00,00,00,10,00,00,50,48,
3564017,00000101,false,Rx,0,8,00,00,00,10,00,00,50,C1,
3564220,00000103,false,Rx,0,8,00,00,00,10,00,00,50,0B,
3566014,00000102,false,Rx,0,8,00,00,00,10,00,00,50,6E,
3566299,00000100,false,Rx,0,8,00,00,00,10,00,00,50,A4,
3610162,00000104,false,Rx,0,8,00,00,00,10,00,00,60,67,
3611451,00000105,false,Rx,0,8,00,00,00,10,00,00,60,02,
3613996,00000101,false,Rx,0,8,00,00,00,10,00,00,60,8B,
3614281,00000103,false,Rx,0,8,00,00,00,10,00,00,60,41,
3615903,00000102,false,Rx,0,8,00,00,00,10,00,00,60,24,
3616197,00000100,false,Rx,0,8,00,00,00,10,00,00,60,EE,
3654145,00000204,false,Rx,0,8,3A,39,40,40,43,00,00,00,
3655393,00000205,false,Rx,0,8,3A,39,40,4E,44,00,00,00,
3658027,00000201,false,Rx,0,8,3A,3A,40,48,43,00,00,00,
3658312,00000203,false,Rx,0,8,3A,39,40,4B,41,00,00,00,
3659768,00000202,false,Rx,0,8,39,3A,40,49,42,00,00,00,
3660061,00000200,false,Rx,0,8,39,3A,40,44,43,00,00,00,
3660346,00000104,false,Rx,0,8,00,00,00,10,00,00,70,AA,
3661388,00000105,false,Rx,0,8,00,00,00,10,00,00,70,CF,
3664021,00000101,false,Rx,0,8,00,00,00,10,00,00,70,46,
3664306,00000103,false,Rx,0,8,00,00,00,10,00,00,70,8C,
3665762,00000102,false,Rx,0,8,00,00,00,10,00,00,70,E9,
3666055,00000100,false,Rx,0,8,00,00,00,10,00,00,70,23,
3698184,000001D4,false,Rx,0,8,22,99,29,22,22,22,99,99,
3699307,000001D5,false,Rx,0,8,22,99,29,22,22,22,99,99,
3701946,000001D1,false,Rx,0,8,22,99,29,22,22,22,99,99,
3702322,000001D3,false,Rx,0,8,22,99,29,22,22,22,99,99,
3703793,000001D2,false,Rx,0,8,22,99,29,22,22,22,99,99,
3704004,000001D0,false,Rx,0,8,22,99,29,22,22,22,99,99,
3710182,00000104,false,Rx,0,8,00,00,00,10,00,00,80,D5,
3711388,00000105,false,Rx,0,8,00,00,00,10,00,00,80,B0,
3713931,00000101,false,Rx,0,8,00,00,00,10,00,00,80,39,
3714308,00000103,false,Rx,0,8,00,00,00,10,00,00,80,F3,
3715930,00000102,false,Rx,0,8,00,00,00,10,00,00,80,96,
3716141,00000100,false,Rx,0,8,00,00,00,10,00,00,80,5C,
3730261,000001C4,false,Rx,0,8,22,11,92,22,22,22,42,22,
3731303,000001C5,false,Rx,0,8,22,11,92,22,22,22,42,22,
3733931,000001C1,false,Rx,0,8,22,11,92,22,22,22,42,22,
3734307,000001C3,false,Rx,0,8,22,11,92,22,22,22,42,22,
3735765,000001C2,false,Rx,0,8,22,11,92,22,22,22,42,22,
3735966,000001C0,false,Rx,0,8,22,11,92,22,22,22,42,22,
3754419,00000204,false,Rx,0,8,3A,39,40,41,43,00,00,00,
3755294,00000205,false,Rx,0,8,3A,39,40,4F,44,00,00,00,
3758788,00000201,false,Rx,0,8,3A,3A,40,48,43,00,00,00,
3758876,00000203,false,Rx,0,8,3A,39,40,4C,41,00,00,00,
3759666,00000202,false,Rx,0,8,39,3A,40,49,42,00,00,00,
3760044,00000200,false,Rx,0,8,39,3A,40,44,42,00,00,00,
3760329,00000104,false,Rx,0,8,00,00,00,10,00,00,90,18,
3761369,00000105,false,Rx,0,8,00,00,00,10,00,00,90,7D,
3763912,00000101,false,Rx,0,8,00,00,00,10,00,00,90,F4,
3764287,00000103,false,Rx,0,8,00,00,00,10,00,00,90,3E,
3765740,00000102,false,Rx,0,8,00,00,00,10,00,00,90,5B,
3766035,00000100,false,Rx,0,8,00,00,00,10,00,00,90,91,
3810306,00000104,false,Rx,0,8,00,00,00,10,00,00,A0,52,
3811180,00000105,false,Rx,0,8,00,00,00,10,00,00,A0,37,
3813807,00000101,false,Rx,0,8,00,00,00,10,00,00,A0,BE,
3814432,00000103,false,Rx,0,8,00,00,00,10,00,00,A0,74,
3815805,00000102,false,Rx,0,8,00,00,00,10,00,00,A0,11,
3816098,00000100,false,Rx,0,8,00,00,00,10,00,00,A0,DB,
3854292,00000204,false,Rx,0,8,3A,39,40,41,43,00,00,00,
3855167,00000205,false,Rx,0,8,3A,39,40,4E,44,00,00,00,
3857881,00000201,false,Rx,0,8,3A,3A,40,48,43,00,00,00,
3858423,00000203,false,Rx,0,8,3A,39,40,4C,41,00,00,00,
3860240,00000200,false,Rx,0,8,39,3A,40,44,43,00,00,00,
3860328,00000202,false,Rx,0,8,39,3A,40,49,42,00,00,00,
3860448,00000104,false,Rx,0,8,00,00,00,10,00,00,B0,9F,
3861157,00000105,false,Rx,0,8,00,00,00,10,00,00,B0,FA,
3863888,00000101,false,Rx,0,8,00,00,00,10,00,00,B0,73,
3864429,00000103,false,Rx,0,8,00,00,00,10,00,00,B0,B9,
3865888,00000100,false,Rx,0,8,00,00,00,10,00,00,B0,16,
3866181,00000102,false,Rx,0,8,00,00,00,10,00,00,B0,DC,
3898311,000001D4,false,Rx,0,8,22,99,29,22,22,22,99,99,
3899186,000001D5,false,Rx,0,8,22,99,29,22,22,22,99,99,
3901908,000001D1,false,Rx,0,8,22,99,29,22,22,22,99,99,
3902449,000001D3,false,Rx,0,8,22,99,29,22,22,22,99,99,
3903921,000001D2,false,Rx,0,8,22,99,29,22,22,22,99,99,
3904131,000001D0,false,Rx,0,8,22,99,29,22,22,22,99,99,
3911769,00000104,false,Rx,0,8,00,00,00,10,00,00,C0,C6,
3911857,00000105,false,Rx,0,8,00,00,00,10,00,00,C0,A3,
3913903,00000101,false,Rx,0,8,00,00,00,10,00,00,C0,2A,
3914529,00000103,false,Rx,0,8,00,00,00,10,00,00,C0,E0,
3915985,00000100,false,Rx,0,8,00,00,00,10,00,00,C0,4F,
3916279,00000102,false,Rx,0,8,00,00,00,10,00,00,C0,85,
3930371,000001C4,false,Rx,0,8,22,11,92,22,22,22,42,22,
3931163,000001C5,false,Rx,0,8,22,11,92,22,22,22,42,22,
3933875,000001C1,false,Rx,0,8,22,11,92,22,22,22,42,22,
3934416,000001C3,false,Rx,0,8,22,11,92,22,22,22,42,22,
3935965,000001C2,false,Rx,0,8,22,11,92,22,22,22,42,22,
3936167,000001C0,false,Rx,0,8,22,11,92,22,22,22,42,22,
3954362,00000204,false,Rx,0,8,3A,39,40,41,43,00,00,00,
3955156,00000205,false,Rx,0,8,3A,39,40,4E,44,00,00,00,
3957865,00000201,false,Rx,0,8,3A,3A,40,48,43,00,00,00,
3958572,00000203,false,Rx,0,8,3A,39,40,4C,41,00,00,00,
3959946,00000202,false,Rx,0,8,39,3A,40,49,42,00,00,00,
3960156,00000200,false,Rx,0,8,39,3A,40,44,43,00,00,00,
3960441,00000104,false,Rx,0,8,00,00,00,10,00,00,D0,0B,
3961234,00000105,false,Rx,0,8,00,00,00,10,00,00,D0,6E,
3964575,00000101,false,Rx,0,8,00,00,00,10,00,00,D0,E7,
3964663,00000103,false,Rx,0,8,00,00,00,10,00,00,D0,2D,
3965965,00000102,false,Rx,0,8,00,00,00,10,00,00,D0,48,
3966251,00000100,false,Rx,0,8,00,00,00,10,00,00,D0,82,
4010442,00000104,false,Rx,0,8,00,00,00,10,00,00,E0,41,
4011236,00000105,false,Rx,0,8,00,00,00,10,00,00,E0,24,
4013863,00000101,false,Rx,0,8,00,00,00,10,00,00,E0,AD,
4014570,00000103,false,Rx,0,8,00,00,00,10,00,00,E0,67,
4015986,00000102,false,Rx,0,8,00,00,00,10,00,00,E0,02,
4016188,00000100,false,Rx,0,8,00,00,00,10,00,00,E0,C8,
4054385,00000204,false,Rx,0,8,3A,39,40,41,43,00,00,00,
4055259,00000205,false,Rx,0,8,3A,39,40,4F,44,00,00,00,
4057889,00000201,false,Rx,0,8,3A,3A,40,48,43,00,00,00,
4058596,00000203,false,Rx,0,8,3A,39,40,4B,41,00,00,00,
4059889,00000202,false,Rx,0,8,39,3A,40,49,42,00,00,00,
4060181,00000200,false,Rx,0,8,39,3A,40,44,43,00,00,00,
4060383,00000104,false,Rx,0,8,00,00,00,10,00,00,00,F3,
4061341,00000105,false,Rx,0,8,00,00,00,10,00,00,00,96,
4063888,00000101,false,Rx,0,8,00,00,00,10,00,00,00,1F,
4064595,00000103,false,Rx,0,8,00,00,00,10,00,00,00,D5,
4066231,00000102,false,Rx,0,8,00,00,00,10,00,00,00,B0,
4066319,00000100,false,Rx,0,8,00,00,00,10,00,00,00,7A,
4098410,000001D4,false,Rx,0,8,22,99,29,22,22,22,99,99,
4099150,000001D5,false,Rx,0,8,22,99,29,22,22,22,99,99,
4101979,000001D1,false,Rx,0,8,22,99,29,22,22,22,99,99,
4102512,000001D3,false,Rx,0,8,22,99,29,22,22,22,99,99,
4103903,000001D2,false,Rx,0,8,22,99,29,22,22,22,99,99,
4104115,000001D0,false,Rx,0,8,22,99,29,22,22,22,99,99,
4110421,00000104,false,Rx,0,8,00,00,00,10,00,00,10,3E,
4111217,00000105,false,Rx,0,8,00,00,00,10,00,00,10,5B,
4113843,00000101,false,Rx,0,8,00,00,00,10,00,00,10,D2,
4114551,00000103,false,Rx,0,8,00,00,00,10,00,00,10,18,
4115925,00000102,false,Rx,0,8,00,00,00,10,00,00,10,7D,
4116136,00000100,false,Rx,0,8,00,00,00,10,00,00,10,B7,
4130360,000001C4,false,Rx,0,8,22,11,92,22,22,22,42,22,
4131236,000001C5,false,Rx,0,8,22,11,92,22,22,22,42,22,
4133781,000001C1,false,Rx,0,8,22,11,92,22,22,22,42,22,
4134406,000001C3,false,Rx,0,8,22,11,92,22,22,22,42,22,
4135863,000001C2,false,Rx,0,8,22,11,92,22,22,22,42,22,
4136072,000001C0,false,Rx,0,8,22,11,92,22,22,22,42,22,
4154351,00000204,false,Rx,0,8,3A,39,40,41,43,00,00,00,
4155145,00000205,false,Rx,0,8,3A,39,40,4E,44,00,00,00,
4157770,00000201,false,Rx,0,8,3A,3A,40,48,43,00,00,00,
4158478,00000203,false,Rx,0,8,3A,39,40,4C,41,00,00,00,
4159768,00000202,false,Rx,0,8,39,3A,40,49,42,00,00,00,
4160060,00000200,false,Rx,0,8,39,3A,40,44,43,00,00,00,
4160428,00000104,false,Rx,0,8,00,00,00,10,00,00,20,74,
4161223,00000105,false,Rx,0,8,00,00,00,10,00,00,20,11,
4163768,00000101,false,Rx,0,8,00,00,00,10,00,00,20,98,
4164476,00000103,false,Rx,0,8,00,00,00,10,00,00,20,52,
4165848,00000102,false,Rx,0,8,00,00,00,10,00,00,20,37,
4166059,00000100,false,Rx,0,8,00,00,00,10,00,00,20,FD,
4210423,00000104,false,Rx,0,8,00,00,00,10,00,00,30,B9,
4211134,00000105,false,Rx,0,8,00,00,00,10,00,00,30,DC,
4213762,00000101,false,Rx,0,8,00,00,00,10,00,00,30,55,
4214470,00000103,false,Rx,0,8,00,00,00,10,00,00,30,9F,
4215762,00000102,false,Rx,0,8,00,00,00,10,00,00,30,FA,
4216055,00000100,false,Rx,0,8,00,00,00,10,00,00,30,30,
4254551,00000204,false,Rx,0,8,3A,39,40,41,43,00,00,00,
4255095,00000205,false,Rx,0,8,3A,39,40,4E,44,00,00,00,
4257637,00000201,false,Rx,0,8,3A,3A,40,48,43,00,00,00,
4258512,00000203,false,Rx,0,8,3A,39,40,4C,41,00,00,00,
4259719,00000202,false,Rx,0,8,39,3A,40,49,42,00,00,00,
4260014,00000200,false,Rx,0,8,39,3A,40,44,43,00,00,00,
4260547,00000104,false,Rx,0,8,00,00,00,10,00,00,40,E0,
4261089,00000105,false,Rx,0,8,00,00,00,10,00,00,40,85,
4263637,00000101,false,Rx,0,8,00,00,00,10,00,00,40,0C,
4264428,00000103,false,Rx,0,8,00,00,00,10,00,00,40,C6,
4265806,00000102,false,Rx,0,8,00,00,00,10,00,00,40,A3,
4266099,00000100,false,Rx,0,8,00,00,00,10,00,00,40,69,
4298679,000001D4,false,Rx,0,8,22,99,29,22,22,22,99,99,
4299046,000001D5,false,Rx,0,8,22,99,29,22,22,22,99,99,
4301612,000001D1,false,Rx,0,8,22,99,29,22,22,22,99,99,
4302487,000001D3,false,Rx,0,8,22,99,29,22,22,22,99,99,
4303811,000001D0,false,Rx,0,8,22,99,29,22,22,22,99,99,
4304035,000001D2,false,Rx,0,8,22,99,29,22,22,22,99,99,
4310601,00000104,false,Rx,0,8,00,00,00,10,00,00,50,2D,
4311062,00000105,false,Rx,0,8,00,00,00,10,00,00,50,48,
4313603,00000101,false,Rx,0,8,00,00,00,10,00,00,50,C1,
4314478,00000103,false,Rx,0,8,00,00,00,10,00,00,50,0B,
4315851,00000102,false,Rx,0,8,00,00,00,10,00,00,50,6E,
4316145,00000100,false,Rx,0,8,00,00,00,10,00,00,50,A4,
4330606,000001C4,false,Rx,0,8,22,11,92,22,22,22,42,22,
4330979,000001C5,false,Rx,0,8,22,11,92,22,22,22,42,22,
4333604,000001C1,false,Rx,0,8,22,11,92,22,22,22,42,22,
4334395,000001C3,false,Rx,0,8,22,11,92,22,22,22,42,22,
4335852,000001C0,false,Rx,0,8,22,11,92,22,22,22,42,22,
4336062,000001C2,false,Rx,0,8,22,11,92,22,22,22,42,22,
4354589,00000204,false,Rx,0,8,3A,39,40,40,43,00,00,00,
4355051,00000205,false,Rx,0,8,3A,39,40,4E,44,00,00,00,
4357594,00000201,false,Rx,0,8,3A,3A,40,48,43,00,00,00,
4358387,00000203,false,Rx,0,8,3A,39,40,4C,41,00,00,00,
4359843,00000202,false,Rx,0,8,39,3A,40,49,42,00,00,00,
4360053,00000200,false,Rx,0,8,39,3A,40,44,43,00,00,00,
4360670,00000104,false,Rx,0,8,00,00,00,10,00,00,60,67,
4361051,00000105,false,Rx,0,8,00,00,00,10,00,00,60,02,
4363592,00000101,false,Rx,0,8,00,00,00,10,00,00,60,8B,
4364469,00000103,false,Rx,0,8,00,00,00,10,00,00,60,41,
4365843,00000102,false,Rx,0,8,00,00,00,10,00,00,60,24,
4366137,00000100,false,Rx,0,8,00,00,00,10,00,00,60,EE,
4410755,00000104,false,Rx,0,8,00,00,00,10,00,00,70,AA,
4411215,00000105,false,Rx,0,8,00,00,00,10,00,00,70,CF,
4413673,00000101,false,Rx,0,8,00,00,00,10,00,00,70,46,
4414548,00000103,false,Rx,0,8,00,00,00,10,00,00,70,8C,
4415923,00000102,false,Rx,0,8,00,00,00,10,00,00,70,E9,
4416134,00000100,false,Rx,0,8,00,00,00,10,00,00,70,23,
4454848,00000204,false,Rx,0,8,3A,39,40,41,43,00,00,00,
4455141,00000205,false,Rx,0,8,3A,39,40,4E,44,00,00,00,
4457683,00000201,false,Rx,0,8,3A,3A,40,48,43,00,00,00,
4458477,00000203,false,Rx,0,8,3A,39,40,4C,41,00,00,00,
4459850,00000200,false,Rx,0,8,39,3A,40,44,43,00,00,00,
4460143,00000202,false,Rx,0,8,39,3A,40,49,42,00,00,00,
4460844,00000104,false,Rx,0,8,00,00,00,10,00,00,80,D5,
4461137,00000105,false,Rx,0,8,00,00,00,10,00,00,80,B0,
4463678,00000101,false,Rx,0,8,00,00,00,10,00,00,80,39,
4464471,00000103,false,Rx,0,8,00,00,00,10,00,00,80,F3,
4465928,00000100,false,Rx,0,8,00,00,00,10,00,00,80,5C,
4466137,00000102,false,Rx,0,8,00,00,00,10,00,00,80,96,
4498673,000001D4,false,Rx,0,8,22,99,29,22,22,22,99,99,
4499051,000001D5,false,Rx,0,8,22,99,29,22,22,22,99,99,
4501551,000001D1,false,Rx,0,8,22,99,29,22,22,22,99,99,
4502426,000001D3,false,Rx,0,8,22,99,29,22,22,22,99,99,
4503724,000001D0,false,Rx,0,8,22,99,29,22,22,22,99,99,
4503964,000001D2,false,Rx,0,8,22,99,29,22,22,22,99,99,
4510833,00000104,false,Rx,0,8,00,00,00,10,00,00,90,18,
4511125,00000105,false,Rx,0,8,00,00,00,10,00,00,90,7D,
4513583,00000101,false,Rx,0,8,00,00,00,10,00,00,90,F4,
4514540,00000103,false,Rx,0,8,00,00,00,10,00,00,90,3E,
4515833,00000102,false,Rx,0,8,00,00,00,10,00,00,90,5B,
4516044,00000100,false,Rx,0,8,00,00,00,10,00,00,90,91,
4530628,000001C4,false,Rx,0,8,22,11,92,22,22,22,42,22,
4531088,000001C5,false,Rx,0,8,22,11,92,22,22,22,42,22,
4533552,000001C1,false,Rx,0,8,22,11,92,22,22,22,42,22,
4534592,000001C3,false,Rx,0,8,22,11,92,22,22,22,42,22,
4535802,000001C0,false,Rx,0,8,22,11,92,22,22,22,42,22,
4536006,000001C2,false,Rx,0,8,22,11,92,22,22,22,42,22,
4554698,00000204,false,Rx,0,8,3A,39,40,41,43,00,00,00,
4555075,00000205,false,Rx,0,8,3A,39,40,4E,44,00,00,00,
4557616,00000201,false,Rx,0,8,3A,3A,40,48,43,00,00,00,
4558573,00000203,false,Rx,0,8,3A,39,40,4B,41,00,00,00,
4559863,00000202,false,Rx,0,8,39,3A,40,49,42,00,00,00,
4560156,00000200,false,Rx,0,8,39,3A,40,44,43,00,00,00,
4560775,00000104,false,Rx,0,8,00,00,00,10,00,00,A0,52,
4561151,00000105,false,Rx,0,8,00,00,00,10,00,00,A0,37,
4563610,00000101,false,Rx,0,8,00,00,00,10,00,00,A0,BE,
4564566,00000103,false,Rx,0,8,00,00,00,10,00,00,A0,74,
4565940,00000100,false,Rx,0,8,00,00,00,10,00,00,A0,DB,
4566151,00000102,false,Rx,0,8,00,00,00,10,00,00,A0,11,
4610656,00000104,false,Rx,0,8,00,00,00,10,00,00,B0,9F,
4611223,00000105,false,Rx,0,8,00,00,00,10,00,00,B0,FA,
4613613,00000101,false,Rx,0,8,00,00,00,10,00,00,B0,73,
4614572,00000103,false,Rx,0,8,00,00,00,10,00,00,B0,B9,
4615781,00000102,false,Rx,0,8,00,00,00,10,00,00,B0,DC,
4616073,00000100,false,Rx,0,8,00,00,00,10,00,00,B0,16,
4654655,00000204,false,Rx,0,8,3A,39,40,41,43,00,00,00,
4655034,00000205,false,Rx,0,8,3A,39,40,4F,44,00,00,00,
4657659,00000201,false,Rx,0,8,3A,3A,40,48,43,00,00,00,
4658533,00000203,false,Rx,0,8,3A,39,40,4C,41,00,00,00,
4659738,00000202,false,Rx,0,8,39,3A,40,49,42,00,00,00,
4660027,00000200,false,Rx,0,8,39,3A,40,44,43,00,00,00,
4660643,00000104,false,Rx,0,8,00,00,00,10,00,00,C0,C6,
4661103,00000105,false,Rx,0,8,00,00,00,10,00,00,C0,A3,
4663565,00000101,false,Rx,0,8,00,00,00,10,00,00,C0,2A,
4664606,00000103,false,Rx,0,8,00,00,00,10,00,00,C0,E0,
4665820,00000102,false,Rx,0,8,00,00,00,10,00,00,C0,85,
4666113,00000100,false,Rx,0,8,00,00,00,10,00,00,C0,4F,
4698565,000001D4,false,Rx,0,8,22,99,29,22,22,22,99,99,
4699024,000001D5,false,Rx,0,8,22,99,29,22,22,22,99,99,
4701413,000001D1,false,Rx,0,8,22,99,29,22,22,22,99,99,
4702618,000001D3,false,Rx,0,8,22,99,29,22,22,22,99,99,
4703749,000001D2,false,Rx,0,8,22,99,29,22,22,22,99,99,
4703969,000001D0,false,Rx,0,8,22,99,29,22,22,22,99,99,
4710608,00000104,false,Rx,0,8,00,00,00,10,00,00,D0,0B,
4710978,00000105,false,Rx,0,8,00,00,00,10,00,00,D0,6E,
4713527,00000101,false,Rx,0,8,00,00,00,10,00,00,D0,E7,
4714597,00000103,false,Rx,0,8,00,00,00,10,00,00,D0,2D,
4715729,00000102,false,Rx,0,8,00,00,00,10,00,00,D0,48,
4716024,00000100,false,Rx,0,8,00,00,00,10,00,00,D0,82,
4730614,000001C4,false,Rx,0,8,22,11,92,22,22,22,42,22,
4730902,000001C5,false,Rx,0,8,22,11,92,22,22,22,42,22,
4733385,000001C1,false,Rx,0,8,22,11,92,22,22,22,42,22,
4734509,000001C3,false,Rx,0,8,22,11,92,22,22,22,42,22,
4735802,000001C2,false,Rx,0,8,22,11,92,22,22,22,42,22,
4736011,000001C0,false,Rx,0,8,22,11,92,22,22,22,42,22,
4754788,00000204,false,Rx,0,8,3A,39,40,41,43,00,00,00,
4754991,00000205,false,Rx,0,8,3A,39,40,4E,44,00,00,00,
4757450,00000201,false,Rx,0,8,3A,3A,40,48,43,00,00,00,
4758573,00000203,false,Rx,0,8,3A,39,40,4C,41,00,00,00,
4759697,00000200,false,Rx,0,8,39,3A,40,44,43,00,00,00,
4759903,00000202,false,Rx,0,8,39,3A,40,49,42,00,00,00,
4760781,00000104,false,Rx,0,8,00,00,00,10,00,00,E0,41,
4761074,00000105,false,Rx,0,8,00,00,00,10,00,00,E0,24,
4763450,00000101,false,Rx,0,8,00,00,00,10,00,00,E0,AD,
4764655,00000103,false,Rx,0,8,00,00,00,10,00,00,E0,67,
4765696,00000100,false,Rx,0,8,00,00,00,10,00,00,E0,C8,
4765993,00000102,false,Rx,0,8,00,00,00,10,00,00,E0,02,
4810667,00000104,false,Rx,0,8,00,00,00,10,00,00,00,F3,
4810962,00000105,false,Rx,0,8,00,00,00,10,00,00,00,96,
4813502,00000101,false,Rx,0,8,00,00,00,10,00,00,00,1F,
4814546,00000103,false,Rx,0,8,00,00,00,10,00,00,00,D5,
4815682,00000102,false,Rx,0,8,00,00,00,10,00,00,00,B0,
4815900,00000100,false,Rx,0,8,00,00,00,10,00,00,00,7A,
4854725,00000204,false,Rx,0,8,3A,39,40,41,43,00,00,00,
4854928,00000205,false,Rx,0,8,3A,39,40,4F,44,00,00,00,
4857396,00000201,false,Rx,0,8,3A,3A,40,48,43,00,00,00,
4858602,00000203,false,Rx,0,8,3A,39,40,4C,41,00,00,00,
4859642,00000200,false,Rx,0,8,39,3A,40,44,43,00,00,00,
4859928,00000202,false,Rx,0,8,39,3A,40,49,42,00,00,00,
4860718,00000104,false,Rx,0,8,00,00,00,10,00,00,10,3E,
4860923,00000105,false,Rx,0,8,00,00,00,10,00,00,10,5B,
4863473,00000101,false,Rx,0,8,00,00,00,10,00,00,10,D2,
4864513,00000103,false,Rx,0,8,00,00,00,10,00,00,10,18,
4865637,00000100,false,Rx,0,8,00,00,00,10,00,00,10,B7,
4865924,00000102,false,Rx,0,8,00,00,00,10,00,00,10,7D,
4898666,000001D4,false,Rx,0,8,22,99,29,22,22,22,99,99,
4898962,000001D5,false,Rx,0,8,22,99,29,22,22,22,99,99,
4901437,000001D1,false,Rx,0,8,22,99,29,22,22,22,99,99,
4902562,000001D3,false,Rx,0,8,22,99,29,22,22,22,99,99,
4903615,000001D0,false,Rx,0,8,22,99,29,22,22,22,99,99,
4903912,000001D2,false,Rx,0,8,22,99,29,22,22,22,99,99,
4910731,00000104,false,Rx,0,8,00,00,00,10,00,00,20,74,
4911026,00000105,false,Rx,0,8,00,00,00,10,00,00,20,11,
4913405,00000101,false,Rx,0,8,00,00,00,10,00,00,20,98,
4914528,00000103,false,Rx,0,8,00,00,00,10,00,00,20,52,
4915570,00000102,false,Rx,0,8,00,00,00,10,00,00,20,37,
4915857,00000100,false,Rx,0,8,00,00,00,10,00,00,20,FD,
4930746,000001C4,false,Rx,0,8,22,11,92,22,22,22,42,22,
4930955,000001C5,false,Rx,0,8,22,11,92,22,22,22,42,22,
4933496,000001C1,false,Rx,0,8,22,11,92,22,22,22,42,22,
4934452,000001C3,false,Rx,0,8,22,11,92,22,22,22,42,22,
4935659,000001C0,false,Rx,0,8,22,11,92,22,22,22,42,22,
4937870,000001C2,false,Rx,0,8,22,11,92,22,22,22,42,22,
4954649,00000204,false,Rx,0,8,3A,39,40,41,43,00,00,00,
4954852,00000205,false,Rx,0,8,3A,39,40,4E,44,00,00,00,
4957572,00000201,false,Rx,0,8,3A,3A,40,48,43,00,00,00,
4958613,00000203,false,Rx,0,8,3A,39,40,4C,41,00,00,00,
4959655,00000202,false,Rx,0,8,39,3A,40,49,42,00,00,00,
4959860,00000200,false,Rx,0,8,39,3A,40,44,43,00,00,00,
4960567,00000104,false,Rx,0,8,00,00,00,10,00,00,30,B9,
4960936,00000105,false,Rx,0,8,00,00,00,10,00,00,30,DC,
4963572,00000101,false,Rx,0,8,00,00,00,10,00,00,30,55,
4964531,00000103,false,Rx,0,8,00,00,00,10,00,00,30,9F,
4965572,00000100,false,Rx,0,8,00,00,00,10,00,00,30,30,
4965776,00000102,false,Rx,0,8,00,00,00,10,00,00,30,FA,
5010778,00000104,false,Rx,0,8,00,00,00,10,00,00,40,E0,
5010982,00000105,false,Rx,0,8,00,00,00,10,00,00,40,85,
5013606,00000101,false,Rx,0,8,00,00,00,10,00,00,40,0C,
5014401,00000103,false,Rx,0,8,00,00,00,10,00,00,40,C6,
5015523,00000100,false,Rx,0,8,00,00,00,10,00,00,40,69,
5015813,00000102,false,Rx,0,8,00,00,00,10,00,00,40,A3,
5054775,00000204,false,Rx,0,8,3A,39,40,41,43,00,00,00,
5055068,00000205,false,Rx,0,8,3A,39,40,4F,44,00,00,00,
5057528,00000201,false,Rx,0,8,3A,3A,40,48,43,00,00,00,
5058404,00000203,false,Rx,0,8,3A,39,40,4C,41,00,00,00,
5059611,00000200,false,Rx,0,8,39,3A,40,44,43,00,00,00,
5059817,00000202,false,Rx,0,8,39,3A,40,49,42,00,00,00,
5060775,00000104,false,Rx,0,8,00,00,00,10,00,00,50,2D,
5060984,00000105,false,Rx,0,8,00,00,00,10,00,00,50,48,
5063526,00000101,false,Rx,0,8,00,00,00,10,00,00,50,C1,
5064402,00000103,false,Rx,0,8,00,00,00,10,00,00,50,0B,
5065609,00000100,false,Rx,0,8,00,00,00,10,00,00,50,A4,
5065897,00000102,false,Rx,0,8,00,00,00,10,00,00,50,6E,
5098691,000001D4,false,Rx,0,8,22,99,29,22,22,22,99,99,
5098897,000001D5,false,Rx,0,8,22,99,29,22,22,22,99,99,
5101383,000001D1,false,Rx,0,8,22,99,29,22,22,22,99,99,
5102424,000001D3,false,Rx,0,8,22,99,29,22,22,22,99,99,
5103392,000001D0,false,Rx,0,8,22,99,29,22,22,22,99,99,
5103764,000001D2,false,Rx,0,8,22,99,29,22,22,22,99,99,
5110671,00000104,false,Rx,0,8,00,00,00,10,00,00,60,67,
5110967,00000105,false,Rx,0,8,00,00,00,10,00,00,60,02,
5113260,00000101,false,Rx,0,8,00,00,00,10,00,00,60,8B,
5114386,00000103,false,Rx,0,8,00,00,00,10,00,00,60,41,
5115509,00000100,false,Rx,0,8,00,00,00,10,00,00,60,EE,
5115795,00000102,false,Rx,0,8,00,00,00,10,00,00,60,24,
5130677,000001C4,false,Rx,0,8,22,11,92,22,22,22,42,22,
5130973,000001C5,false,Rx,0,8,22,11,92,22,22,22,42,22,
5133266,000001C1,false,Rx,0,8,22,11,92,22,22,22,42,22,
5134390,000001C3,false,Rx,0,8,22,11,92,22,22,22,42,22,
5135430,000001C0,false,Rx,0,8,22,11,92,22,22,22,42,22,
5135716,000001C2,false,Rx,0,8,22,11,92,22,22,22,42,22,
5154592,00000204,false,Rx,0,8,3A,39,40,41,43,00,00,00,
5154880,00000205,false,Rx,0,8,3A,39,40,4F,44,00,00,00,
5157264,00000201,false,Rx,0,8,3A,3A,40,48,43,00,00,00,
5158223,00000203,false,Rx,0,8,3A,39,40,4C,41,00,00,00,
5159429,00000200,false,Rx,0,8,39,3A,40,44,43,00,00,00,
5159883,00000202,false,Rx,0,8,39,3A,40,49,42,00,00,00,
5160591,00000104,false,Rx,0,8,00,00,00,10,00,00,70,AA,
5160968,00000105,false,Rx,0,8,00,00,00,10,00,00,70,CF,
5163344,00000101,false,Rx,0,8,00,00,00,10,00,00,70,46,
5164220,00000103,false,Rx,0,8,00,00,00,10,00,00,70,8C,
5165426,00000100,false,Rx,0,8,00,00,00,10,00,00,70,23,
5165797,00000102,false,Rx,0,8,00,00,00,10,00,00,70,E9,
5210602,00000104,false,Rx,0,8,00,00,00,10,00,00,80,D5,
5210888,00000105,false,Rx,0,8,00,00,00,10,00,00,80,B0,
5213270,00000101,false,Rx,0,8,00,00,00,10,00,00,80,39,
5214145,00000103,false,Rx,0,8,00,00,00,10,00,00,80,F3,
5215434,00000100,false,Rx,0,8,00,00,00,10,00,00,80,5C,
5215805,00000102,false,Rx,0,8,00,00,00,10,00,00,80,96,
5254573,00000204,false,Rx,0,8,3A,39,40,41,43,00,00,00,
5254860,00000205,false,Rx,0,8,3A,39,40,4E,44,00,00,00,
5257245,00000201,false,Rx,0,8,3A,3A,40,48,43,00,00,00,
5258118,00000203,false,Rx,0,8,3A,39,40,4C,41,00,00,00,
5259406,00000200,false,Rx,0,8,39,3A,40,44,43,00,00,00,
5259941,00000202,false,Rx,0,8,39,3A,40,49,42,00,00,00,
5260565,00000104,false,Rx,0,8,00,00,00,10,00,00,90,18,
5260853,00000105,false,Rx,0,8,00,00,00,10,00,00,90,7D,
5263240,00000101,false,Rx,0,8,00,00,00,10,00,00,90,F4,
5264030,00000103,false,Rx,0,8,00,00,00,10,00,00,90,3E,
5265401,00000100,false,Rx,0,8,00,00,00,10,00,00,90,91,
5265935,00000102,false,Rx,0,8,00,00,00,10,00,00,90,5B,
5298634,000001D4,false,Rx,0,8,22,99,29,22,22,22,99,99,
5298838,000001D5,false,Rx,0,8,22,99,29,22,22,22,99,99,
5301236,000001D1,false,Rx,0,8,22,99,29,22,22,22,99,99,
5301854,000001D3,false,Rx,0,8,22,99,29,22,22,22,99,99,
5303407,000001D0,false,Rx,0,8,22,99,29,22,22,22,99,99,
5303964,000001D2,false,Rx,0,8,22,99,29,22,22,22,99,99,
5310687,00000104,false,Rx,0,8,00,00,00,10,00,00,A0,52,
5310980,00000105,false,Rx,0,8,00,00,00,10,00,00,A0,37,
5313356,00000101,false,Rx,0,8,00,00,00,10,00,00,A0,BE,
5313891,00000103,false,Rx,0,8,00,00,00,10,00,00,A0,74,
5315519,00000100,false,Rx,0,8,00,00,00,10,00,00,A0,DB,
5315979,00000102,false,Rx,0,8,00,00,00,10,00,00,A0,11,
5330699,000001C4,false,Rx,0,8,22,11,92,22,22,22,42,22,
5330904,000001C5,false,Rx,0,8,22,11,92,22,22,22,42,22,
5333288,000001C1,false,Rx,0,8,22,11,92,22,22,22,42,22,
5333998,000001C3,false,Rx,0,8,22,11,92,22,22,22,42,22,
5335452,000001C0,false,Rx,0,8,22,11,92,22,22,22,42,22,
5335995,000001C2,false,Rx,0,8,22,11,92,22,22,22,42,22,
5354768,00000204,false,Rx,0,8,3A,39,40,41,43,00,00,00,
5354978,00000205,false,Rx,0,8,3A,39,40,4E,44,00,00,00,
5357367,00000201,false,Rx,0,8,3A,3A,40,48,43,00,00,00,
5358000,00000203,false,Rx,0,8,3A,39,40,4C,41,00,00,00,
5359548,00000200,false,Rx,0,8,39,3A,40,44,43,00,00,00,
5360009,00000202,false,Rx,0,8,39,3A,40,49,42,00,00,00,
5360795,00000104,false,Rx,0,8,00,00,00,10,00,00,B0,9F,
5361004,00000105,false,Rx,0,8,00,00,00,10,00,00,B0,FA,
5363413,00000101,false,Rx,0,8,00,00,00,10,00,00,B0,73,
5364038,00000103,false,Rx,0,8,00,00,00,10,00,00,B0,B9,
5365577,00000100,false,Rx,0,8,00,00,00,10,00,00,B0,16,
5366042,00000102,false,Rx,0,8,00,00,00,10,00,00,B0,DC,
5410666,00000104,false,Rx,0,8,00,00,00,10,00,00,C0,C6,
5410962,00000105,false,Rx,0,8,00,00,00,10,00,00,C0,A3,
5413253,00000101,false,Rx,0,8,00,00,00,10,00,00,C0,2A,
5413960,00000103,false,Rx,0,8,00,00,00,10,00,00,C0,E0,
5415581,00000100,false,Rx,0,8,00,00,00,10,00,00,C0,4F,
5416042,00000102,false,Rx,0,8,00,00,00,10,00,00,C0,85,
5454636,00000204,false,Rx,0,8,3A,39,40,41,43,00,00,00,
5454840,00000205,false,Rx,0,8,3A,39,40,4E,44,00,00,00,
5457307,00000201,false,Rx,0,8,3A,3A,40,48,43,00,00,00,
5458015,00000203,false,Rx,0,8,3A,39,40,4C,41,00,00,00,
5459471,00000200,false,Rx,0,8,39,3A,40,44,43,00,00,00,
5460015,00000202,false,Rx,0,8,39,3A,40,49,42,00,00,00,
5460631,00000104,false,Rx,0,8,00,00,00,10,00,00,D0,0B,
5460918,00000105,false,Rx,0,8,00,00,00,10,00,00,D0,6E,
5463306,00000101,false,Rx,0,8,00,00,00,10,00,00,D0,E7,
5464014,00000103,false,Rx,0,8,00,00,00,10,00,00,D0,2D,
5465388,00000100,false,Rx,0,8,00,00,00,10,00,00,D0,82,
5466098,00000102,false,Rx,0,8,00,00,00,10,00,00,D0,48,
5498769,000001D4,false,Rx,0,8,22,99,29,22,22,22,99,99,
5500180,000001D5,false,Rx,0,8,22,99,29,22,22,22,99,99,
5501223,000001D1,false,Rx,0,8,22,99,29,22,22,22,99,99,
5502008,000001D3,false,Rx,0,8,22,99,29,22,22,22,99,99,
5503474,000001D0,false,Rx,0,8,22,99,29,22,22,22,99,99,
5504144,000001D2,false,Rx,0,8,22,99,29,22,22,22,99,99,
5510760,00000104,false,Rx,0,8,00,00,00,10,00,00,E0,41,
5511044,00000105,false,Rx,0,8,00,00,00,10,00,00,E0,24,
5513261,00000101,false,Rx,0,8,00,00,00,10,00,00,E0,AD,
5514054,00000103,false,Rx,0,8,00,00,00,10,00,00,E0,67,
5515509,00000100,false,Rx,0,8,00,00,00,10,00,00,E0,C8,
5516137,00000102,false,Rx,0,8,00,00,00,10,00,00,E0,02,
5530814,000001C4,false,Rx,0,8,22,11,92,22,22,22,42,22,
5531018,000001C5,false,Rx,0,8,22,11,92,22,22,22,42,22,
5533085,000001C1,false,Rx,0,8,22,11,92,22,22,22,42,22,
5534043,000001C3,false,Rx,0,8,22,11,92,22,22,22,42,22,
5535591,000001C0,false,Rx,0,8,22,11,92,22,22,22,42,22,
5536055,000001C2,false,Rx,0,8,22,11,92,22,22,22,42,22,
5554773,00000204,false,Rx,0,8,3A,39,40,41,43,00,00,00,
5554982,00000205,false,Rx,0,8,3A,39,40,4F,44,00,00,00,
5556935,00000201,false,Rx,0,8,3A,3A,40,48,43,00,00,00,
5558069,00000203,false,Rx,0,8,3A,39,40,4C,41,00,00,00,
5559442,00000200,false,Rx,0,8,39,3A,40,44,43,00,00,00,
5560070,00000202,false,Rx,0,8,39,3A,40,49,42,00,00,00,
5560773,00000104,false,Rx,0,8,00,00,00,10,00,00,00,F3,
5560974,00000105,false,Rx,0,8,00,00,00,10,00,00,00,96,
5563026,00000101,false,Rx,0,8,00,00,00,10,00,00,00,1F,
5564069,00000103,false,Rx,0,8,00,00,00,10,00,00,00,D5,
5565358,00000100,false,Rx,0,8,00,00,00,10,00,00,00,7A,
5566235,00000102,false,Rx,0,8,00,00,00,10,00,00,00,B0,
5610862,00000104,false,Rx,0,8,00,00,00,10,00,00,10,3E,
5611156,00000105,false,Rx,0,8,00,00,00,10,00,00,10,5B,
5613034,00000101,false,Rx,0,8,00,00,00,10,00,00,10,D2,
5614075,00000103,false,Rx,0,8,00,00,00,10,00,00,10,18,
5615365,00000100,false,Rx,0,8,00,00,00,10,00,00,10,B7,
5616158,00000102,false,Rx,0,8,00,00,00,10,00,00,10,7D,
5654753,00000204,false,Rx,0,8,3A,39,40,40,43,00,00,00,
5654963,00000205,false,Rx,0,8,3A,39,40,4E,44,00,00,00,
5657026,00000201,false,Rx,0,8,3A,3A,40,48,43,00,00,00,
5658152,00000203,false,Rx,0,8,3A,39,40,4C,41,00,00,00,
5659358,00000200,false,Rx,0,8,39,3A,40,44,43,00,00,00,
5660070,00000202,false,Rx,0,8,39,3A,40,49,42,00,00,00,
5660771,00000104,false,Rx,0,8,00,00,00,10,00,00,20,74,
5661064,00000105,false,Rx,0,8,00,00,00,10,00,00,20,11,
5663107,00000101,false,Rx,0,8,00,00,00,10,00,00,20,98,
5664150,00000103,false,Rx,0,8,00,00,00,10,00,00,20,52,
5665357,00000100,false,Rx,0,8,00,00,00,10,00,00,20,FD,
5666070,00000102,false,Rx,0,8,00,00,00,10,00,00,20,37,
5698827,000001D4,false,Rx,0,8,22,99,29,22,22,22,99,99,
5699037,000001D5,false,Rx,0,8,22,99,29,22,22,22,99,99,
5701094,000001D1,false,Rx,0,8,22,99,29,22,22,22,99,99,
5702220,000001D3,false,Rx,0,8,22,99,29,22,22,22,99,99,
5703350,000001D0,false,Rx,0,8,22,99,29,22,22,22,99,99,
5705812,000001D2,false,Rx,0,8,22,99,29,22,22,22,99,99,
5710869,00000104,false,Rx,0,8,00,00,00,10,00,00,30,B9,
5711162,00000105,false,Rx,0,8,00,00,00,10,00,00,30,DC,
5713040,00000101,false,Rx,0,8,00,00,00,10,00,00,30,55,
5714081,00000103,false,Rx,0,8,00,00,00,10,00,00,30,9F,
5715451,00000100,false,Rx,0,8,00,00,00,10,00,00,30,30,
5716077,00000102,false,Rx,0,8,00,00,00,10,00,00,30,FA,
5730753,000001C4,false,Rx,0,8,22,11,92,22,22,22,42,22,
5730963,000001C5,false,Rx,0,8,22,11,92,22,22,22,42,22,
5733006,000001C1,false,Rx,0,8,22,11,92,22,22,22,42,22,
5734051,000001C3,false,Rx,0,8,22,11,92,22,22,22,42,22,
5735340,000001C0,false,Rx,0,8,22,11,92,22,22,22,42,22,
5735969,000001C2,false,Rx,0,8,22,11,92,22,22,22,42,22,
5754875,00000204,false,Rx,0,8,3A,39,40,41,43,00,00,00,
5755086,00000205,false,Rx,0,8,3A,39,40,4F,44,00,00,00,
5757561,00000201,false,Rx,0,8,3A,3A,40,48,43,00,00,00,
5758022,00000203,false,Rx,0,8,3A,39,40,4B,41,00,00,00,
5759395,00000200,false,Rx,0,8,39,3A,40,44,43,00,00,00,
5760020,00000202,false,Rx,0,8,39,3A,40,49,42,00,00,00,
5760804,00000104,false,Rx,0,8,00,00,00,10,00,00,40,E0,
5761014,00000105,false,Rx,0,8,00,00,00,10,00,00,40,85,
5763145,00000101,false,Rx,0,8,00,00,00,10,00,00,40,0C,
5764019,00000103,false,Rx,0,8,00,00,00,10,00,00,40,C6,
5765390,00000100,false,Rx,0,8,00,00,00,10,00,00,40,69,
5766016,00000102,false,Rx,0,8,00,00,00,10,00,00,40,A3,
5810830,00000104,false,Rx,0,8,00,00,00,10,00,00,50,2D,
5811123,00000105,false,Rx,0,8,00,00,00,10,00,00,50,48,
5813251,00000101,false,Rx,0,8,00,00,00,10,00,00,50,C1,
5814043,00000103,false,Rx,0,8,00,00,00,10,00,00,50,0B,
5815581,00000100,false,Rx,0,8,00,00,00,10,00,00,50,A4,
5816042,00000102,false,Rx,0,8,00,00,00,10,00,00,50,6E,
5854944,00000204,false,Rx,0,8,3A,39,40,41,43,00,00,00,
5855153,00000205,false,Rx,0,8,3A,39,40,4F,44,00,00,00,
5857025,00000201,false,Rx,0,8,3A,3A,40,48,43,00,00,00,
5858068,00000203,false,Rx,0,8,3A,39,40,4C,41,00,00,00,
5859492,00000200,false,Rx,0,8,39,3A,40,44,43,00,00,00,
5860036,00000202,false,Rx,0,8,39,3A,40,49,42,00,00,00,
5860903,00000104,false,Rx,0,8,00,00,00,10,00,00,60,67,
5861197,00000105,false,Rx,0,8,00,00,00,10,00,00,60,02,
5863075,00000101,false,Rx,0,8,00,00,00,10,00,00,60,8B,
5864032,00000103,false,Rx,0,8,00,00,00,10,00,00,60,41,
5865321,00000100,false,Rx,0,8,00,00,00,10,00,00,60,EE,
5866195,00000102,false,Rx,0,8,00,00,00,10,00,00,60,24,
5898859,000001D4,false,Rx,0,8,22,99,29,22,22,22,99,99,
5899069,000001D5,false,Rx,0,8,22,99,29,22,22,22,99,99,
5900968,000001D1,false,Rx,0,8,22,99,29,22,22,22,99,99,
5902092,000001D3,false,Rx,0,8,22,99,29,22,22,22,99,99,
5903142,000001D0,false,Rx,0,8,22,99,29,22,22,22,99,99,
5903937,000001D2,false,Rx,0,8,22,99,29,22,22,22,99,99,
5910944,00000104,false,Rx,0,8,00,00,00,10,00,00,70,AA,
5911162,00000105,false,Rx,0,8,00,00,00,10,00,00,70,CF,
5913057,00000101,false,Rx,0,8,00,00,00,10,00,00,70,46,
5914346,00000103,false,Rx,0,8,00,00,00,10,00,00,70,8C,
5915223,00000100,false,Rx,0,8,00,00,00,10,00,00,70,23,
5916015,00000102,false,Rx,0,8,00,00,00,10,00,00,70,E9,
5930858,000001C4,false,Rx,0,8,22,11,92,22,22,22,42,22,
5931068,000001C5,false,Rx,0,8,22,11,92,22,22,22,42,22,
5933030,000001C1,false,Rx,0,8,22,11,92,22,22,22,42,22,
5934236,000001C3,false,Rx,0,8,22,11,92,22,22,22,42,22,
5935111,000001C0,false,Rx,0,8,22,11,92,22,22,22,42,22,
5935897,000001C2,false,Rx,0,8,22,11,92,22,22,22,42,22,
5954883,00000205,false,Rx,0,8,3A,39,40,4F,44,00,00,00,
5955094,00000204,false,Rx,0,8,3A,39,40,41,43,00,00,00,
5956974,00000201,false,Rx,0,8,3A,3A,40,48,43,00,00,00,
5958179,00000203,false,Rx,0,8,3A,39,40,4C,41,00,00,00,
5959138,00000200,false,Rx,0,8,39,3A,40,44,43,00,00,00,
5960012,00000202,false,Rx,0,8,39,3A,40,49,42,00,00,00,
5963036,00000105,false,Rx,0,8,00,00,00,10,00,00,80,B0,
5963124,00000104,false,Rx,0,8,00,00,00,10,00,00,80,D5,
5963211,00000101,false,Rx,0,8,00,00,00,10,00,00,80,39,
5964258,00000103,false,Rx,0,8,00,00,00,10,00,00,80,F3,
5965051,00000100,false,Rx,0,8,00,00,00,10,00,00,80,5C,
5966008,00000102,false,Rx,0,8,00,00,00,10,00,00,80,96,
6010948,00000104,false,Rx,0,8,00,00,00,10,00,00,90,18,
6011240,00000105,false,Rx,0,8,00,00,00,10,00,00,90,7D,
6013411,00000101,false,Rx,0,8,00,00,00,10,00,00,90,F4,
6014121,00000103,false,Rx,0,8,00,00,00,10,00,00,90,3E,
6015161,00000100,false,Rx,0,8,00,00,00,10,00,00,90,91,
6015946,00000102,false,Rx,0,8,00,00,00,10,00,00,90,5B,
6054850,00000205,false,Rx,0,8,3A,39,40,4F,44,00,00,00,
6055144,00000204,false,Rx,0,8,3A,39,40,41,44,00,00,00,
6057104,00000201,false,Rx,0,8,3A,3A,40,48,43,00,00,00,
6058228,00000203,false,Rx,0,8,3A,39,40,4C,41,00,00,00,
6059186,00000200,false,Rx,0,8,39,3A,40,44,43,00,00,00,
6059889,00000202,false,Rx,0,8,39,3A,40,49,42,00,00,00,
6060966,00000104,false,Rx,0,8,00,00,00,10,00,00,A0,52,
6061252,00000105,false,Rx,0,8,00,00,00,10,00,00,A0,37,
6063051,00000101,false,Rx,0,8,00,00,00,10,00,00,A0,BE,
6064834,00000103,false,Rx,0,8,00,00,00,10,00,00,A0,74,
6065128,00000100,false,Rx,0,8,00,00,00,10,00,00,A0,DB,
6066002,00000102,false,Rx,0,8,00,00,00,10,00,00,A0,11,
6098922,000001D5,false,Rx,0,8,22,99,29,22,22,22,99,99,
6099133,000001D4,false,Rx,0,8,22,99,29,22,22,22,99,99,
6101027,000001D1,false,Rx,0,8,22,99,29,22,22,22,99,99,
6102070,000001D3,false,Rx,0,8,22,99,29,22,22,22,99,99,
6103036,000001D0,false,Rx,0,8,22,99,29,22,22,22,99,99,
6103735,000001D2,false,Rx,0,8,22,99,29,22,22,22,99,99,
6110905,00000105,false,Rx,0,8,00,00,00,10,00,00,B0,FA,
6111199,00000104,false,Rx,0,8,00,00,00,10,00,00,B0,9F,
6113078,00000101,false,Rx,0,8,00,00,00,10,00,00,B0,73,
6114119,00000103,false,Rx,0,8,00,00,00,10,00,00,B0,B9,
6116194,00000100,false,Rx,0,8,00,00,00,10,00,00,B0,16,
6116282,00000102,false,Rx,0,8,00,00,00,10,00,00,B0,DC,
6130871,000001C5,false,Rx,0,8,22,11,92,22,22,22,42,22,
6131082,000001C4,false,Rx,0,8,22,11,92,22,22,22,42,22,
6132959,000001C1,false,Rx,0,8,22,11,92,22,22,22,42,22,
6134082,000001C3,false,Rx,0,8,22,11,92,22,22,22,42,22,
6135033,000001C0,false,Rx,0,8,22,11,92,22,22,22,42,22,
6135649,000001C2,false,Rx,0,8,22,11,92,22,22,22,42,22,
6154903,00000205,false,Rx,0,8,3A,39,40,4F,45,00,00,00,
6155114,00000204,false,Rx,0,8,3A,39,40,41,43,00,00,00,
6156992,00000201,false,Rx,0,8,3A,3A,40,48,43,00,00,00,
6158033,00000203,false,Rx,0,8,3A,39,40,4C,41,00,00,00,
6158990,00000200,false,Rx,0,8,39,3A,40,44,43,00,00,00,
6159607,00000202,false,Rx,0,8,39,3A,40,49,42,00,00,00,
6160903,00000105,false,Rx,0,8,00,00,00,10,00,00,C0,A3,
6161113,00000104,false,Rx,0,8,00,00,00,10,00,00,C0,C6,
6163075,00000101,false,Rx,0,8,00,00,00,10,00,00,C0,2A,
6164117,00000103,false,Rx,0,8,00,00,00,10,00,00,C0,E0,
6164993,00000100,false,Rx,0,8,00,00,00,10,00,00,C0,4F,
6165693,00000102,false,Rx,0,8,00,00,00,10,00,00,C0,85,
6210768,00000105,false,Rx,0,8,00,00,00,10,00,00,D0,6E,
6210977,00000104,false,Rx,0,8,00,00,00,10,00,00,D0,0B,
6212929,00000101,false,Rx,0,8,00,00,00,10,00,00,D0,E7,
6214062,00000103,false,Rx,0,8,00,00,00,10,00,00,D0,2D,
6214928,00000100,false,Rx,0,8,00,00,00,10,00,00,D0,82,
6215719,00000102,false,Rx,0,8,00,00,00,10,00,00,D0,48,
6254826,00000205,false,Rx,0,8,3A,39,40,4E,44,00,00,00,
6255036,00000204,false,Rx,0,8,3A,39,40,41,43,00,00,00,
6256987,00000201,false,Rx,0,8,3A,3A,40,48,43,00,00,00,
6258203,00000203,false,Rx,0,8,3A,39,40,4C,41,00,00,00,
6259078,00000200,false,Rx,0,8,39,3A,40,44,43,00,00,00,
6259611,00000202,false,Rx,0,8,39,3A,40,49,42,00,00,00,
6260821,00000105,false,Rx,0,8,00,00,00,10,00,00,E0,24,
6261032,00000104,false,Rx,0,8,00,00,00,10,00,00,E0,41,
6262987,00000101,false,Rx,0,8,00,00,00,10,00,00,E0,AD,
6264192,00000103,false,Rx,0,8,00,00,00,10,00,00,E0,67,
6264987,00000100,false,Rx,0,8,00,00,00,10,00,00,E0,C8,
6265687,00000102,false,Rx,0,8,00,00,00,10,00,00,E0,02,
6298739,000001D5,false,Rx,0,8,22,99,29,22,22,22,99,99,
6299033,000001D4,false,Rx,0,8,22,99,29,22,22,22,99,99,
6300918,000001D1,false,Rx,0,8,22,99,29,22,22,22,99,99,
6302134,000001D3,false,Rx,0,8,22,99,29,22,22,22,99,99,
6303015,000001D0,false,Rx,0,8,22,99,29,22,22,22,99,99,
6303631,000001D2,false,Rx,0,8,22,99,29,22,22,22,99,99,
6310787,00000105,false,Rx,0,8,00,00,00,10,00,00,00,96,
6311080,00000104,false,Rx,0,8,00,00,00,10,00,00,00,F3,
6313033,00000101,false,Rx,0,8,00,00,00,10,00,00,00,1F,
6314246,00000103,false,Rx,0,8,00,00,00,10,00,00,00,D5,
6315120,00000100,false,Rx,0,8,00,00,00,10,00,00,00,7A,
6315737,00000102,false,Rx,0,8,00,00,00,10,00,00,00,B0,
6330810,000001C5,false,Rx,0,8,22,11,92,22,22,22,42,22,
6331268,000001C4,false,Rx,0,8,22,11,92,22,22,22,42,22,
6332984,000001C1,false,Rx,0,8,22,11,92,22,22,22,42,22,
6334190,000001C3,false,Rx,0,8,22,11,92,22,22,22,42,22,
6335148,000001C0,false,Rx,0,8,22,11,92,22,22,22,42,22,
6335768,000001C2,false,Rx,0,8,22,11,92,22,22,22,42,22,
6354591,00000205,false,Rx,0,8,3A,39,40,4F,44,00,00,00,
6355134,00000204,false,Rx,0,8,3A,39,40,41,43,00,00,00,
6356922,00000201,false,Rx,0,8,3A,3A,40,48,43,00,00,00,
6358220,00000203,false,Rx,0,8,3A,39,40,4C,41,00,00,00,
6359177,00000200,false,Rx,0,8,39,3A,40,44,43,00,00,00,
6359710,00000202,false,Rx,0,8,39,3A,40,49,42,00,00,00,
6360667,00000105,false,Rx,0,8,00,00,00,10,00,00,10,5B,
6361045,00000104,false,Rx,0,8,00,00,00,10,00,00,10,3E,
6363005,00000101,false,Rx,0,8,00,00,00,10,00,00,10,D2,
6364210,00000103,false,Rx,0,8,00,00,00,10,00,00,10,18,
6365084,00000100,false,Rx,0,8,00,00,00,10,00,00,10,B7,
6365787,00000102,false,Rx,0,8,00,00,00,10,00,00,10,7D,
6410669,00000105,false,Rx,0,8,00,00,00,10,00,00,20,11,
6411048,00000104,false,Rx,0,8,00,00,00,10,00,00,20,74,
6413002,00000101,false,Rx,0,8,00,00,00,10,00,00,20,98,
6414208,00000103,false,Rx,0,8,00,00,00,10,00,00,20,52,
6415084,00000100,false,Rx,0,8,00,00,00,10,00,00,20,FD,
6415617,00000102,false,Rx,0,8,00,00,00,10,00,00,20,37,
6454636,00000205,false,Rx,0,8,3A,39,40,4F,45,00,00,00,
6455014,00000204,false,Rx,0,8,3A,39,40,41,44,00,00,00,
6456991,00000201,false,Rx,0,8,3A,3A,40,48,43,00,00,00,
6458280,00000203,false,Rx,0,8,3A,39,40,4C,41,00,00,00,
6459073,00000200,false,Rx,0,8,39,3A,40,44,43,00,00,00,
6459607,00000202,false,Rx,0,8,39,3A,40,49,42,00,00,00,
6460732,00000105,false,Rx,0,8,00,00,00,10,00,00,30,DC,
6460936,00000104,false,Rx,0,8,00,00,00,10,00,00,30,B9,
6463075,00000101,false,Rx,0,8,00,00,00,10,00,00,30,55,
6464281,00000103,false,Rx,0,8,00,00,00,10,00,00,30,9F,
6465066,00000100,false,Rx,0,8,00,00,00,10,00,00,30,30,
6465682,00000102,false,Rx,0,8,00,00,00,10,00,00,30,FA,
6498650,000001D5,false,Rx,0,8,22,99,29,22,22,22,99,99,
6499026,000001D4,false,Rx,0,8,22,99,29,22,22,22,99,99,
6501001,000001D1,false,Rx,0,8,22,99,29,22,22,22,99,99,
6502374,000001D3,false,Rx,0,8,22,99,29,22,22,22,99,99,
6503091,000001D0,false,Rx,0,8,22,99,29,22,22,22,99,99,
6503625,000001D2,false,Rx,0,8,22,99,29,22,22,22,99,99,
6510649,00000105,false,Rx,0,8,00,00,00,10,00,00,40,85,
6511020,00000104,false,Rx,0,8,00,00,00,10,00,00,40,E0,
6513061,00000101,false,Rx,0,8,00,00,00,10,00,00,40,0C,
6514349,00000103,false,Rx,0,8,00,00,00,10,00,00,40,C6,
6515140,00000100,false,Rx,0,8,00,00,00,10,00,00,40,69,
6515508,00000102,false,Rx,0,8,00,00,00,10,00,00,40,A3,
6530642,000001C5,false,Rx,0,8,22,11,92,22,22,22,42,22,
6530847,000001C4,false,Rx,0,8,22,11,92,22,22,22,42,22,
6532984,000001C1,false,Rx,0,8,22,11,92,22,22,22,42,22,
6534438,000001C3,false,Rx,0,8,22,11,92,22,22,22,42,22,
6535151,000001C0,false,Rx,0,8,22,11,92,22,22,22,42,22,
6535518,000001C2,false,Rx,0,8,22,11,92,22,22,22,42,22,
6554634,00000205,false,Rx,0,8,3A,39,40,4F,45,00,00,00,
6554837,00000204,false,Rx,0,8,3A,39,40,41,44,00,00,00,
6556910,00000201,false,Rx,0,8,3A,3A,40,48,43,00,00,00,
6558475,00000203,false,Rx,0,8,3A,39,40,4C,41,00,00,00,
6559101,00000200,false,Rx,0,8,39,3A,40,44,43,00,00,00,
6559552,00000202,false,Rx,0,8,39,3A,40,49,42,00,00,00,
6560675,00000105,false,Rx,0,8,00,00,00,10,00,00,50,48,
6560971,00000104,false,Rx,0,8,00,00,00,10,00,00,50,2D,
6563015,00000101,false,Rx,0,8,00,00,00,10,00,00,50,C1,
6564388,00000103,false,Rx,0,8,00,00,00,10,00,00,50,0B,
6565180,00000100,false,Rx,0,8,00,00,00,10,00,00,50,A4,
6565548,00000102,false,Rx,0,8,00,00,00,10,00,00,50,6E,
6610666,00000105,false,Rx,0,8,00,00,00,10,00,00,60,02,
6610962,00000104,false,Rx,0,8,00,00,00,10,00,00,60,67,
6613003,00000101,false,Rx,0,8,00,00,00,10,00,00,60,8B,
6614294,00000103,false,Rx,0,8,00,00,00,10,00,00,60,41,
6615334,00000100,false,Rx,0,8,00,00,00,10,00,00,60,EE,
6615537,00000102,false,Rx,0,8,00,00,00,10,00,00,60,24,
6654762,00000205,false,Rx,0,8,3A,39,40,4E,44,00,00,00,
6654972,00000204,false,Rx,0,8,3A,39,40,41,43,00,00,00,
6657008,00000201,false,Rx,0,8,3A,3A,40,48,43,00,00,00,
6658308,00000203,false,Rx,0,8,3A,39,40,4C,41,00,00,00,
6659294,00000200,false,Rx,0,8,39,3A,40,44,43,00,00,00,
6659496,00000202,false,Rx,0,8,39,3A,40,49,42,00,00,00,
6660711,00000104,false,Rx,0,8,00,00,00,10,00,00,70,AA,
6661006,00000105,false,Rx,0,8,00,00,00,10,00,00,70,CF,
6663047,00000101,false,Rx,0,8,00,00,00,10,00,00,70,46,
6664337,00000103,false,Rx,0,8,00,00,00,10,00,00,70,8C,
6665297,00000100,false,Rx,0,8,00,00,00,10,00,00,70,23,
6665582,00000102,false,Rx,0,8,00,00,00,10,00,00,70,E9,
6698725,000001D4,false,Rx,0,8,22,99,29,22,22,22,99,99,
6699020,000001D5,false,Rx,0,8,22,99,29,22,22,22,99,99,
6700901,000001D1,false,Rx,0,8,22,99,29,22,22,22,99,99,
6702282,000001D3,false,Rx,0,8,22,99,29,22,22,22,99,99,
6703412,000001D0,false,Rx,0,8,22,99,29,22,22,22,99,99,
6703615,000001D2,false,Rx,0,8,22,99,29,22,22,22,99,99,
6710770,00000104,false,Rx,0,8,00,00,00,10,00,00,80,D5,
6711062,00000105,false,Rx,0,8,00,00,00,10,00,00,80,B0,
6713021,00000101,false,Rx,0,8,00,00,00,10,00,00,80,39,
6714311,00000103,false,Rx,0,8,00,00,00,10,00,00,80,F3,
6715267,00000100,false,Rx,0,8,00,00,00,10,00,00,80,5C,
6715553,00000102,false,Rx,0,8,00,00,00,10,00,00,80,96,
6730745,000001C4,false,Rx,0,8,22,11,92,22,22,22,42,22,
6730956,000001C5,false,Rx,0,8,22,11,92,22,22,22,42,22,
6733082,000001C1,false,Rx,0,8,22,11,92,22,22,22,42,22,
6734288,000001C3,false,Rx,0,8,22,11,92,22,22,22,42,22,
6735246,000001C0,false,Rx,0,8,22,11,92,22,22,22,42,22,
6735447,000001C2,false,Rx,0,8,22,11,92,22,22,22,42,22,
6754653,00000204,false,Rx,0,8,3A,39,40,41,44,00,00,00,
6754940,00000205,false,Rx,0,8,3A,39,40,4F,45,00,00,00,
6756986,00000201,false,Rx,0,8,3A,3A,40,48,43,00,00,00,
6758449,00000203,false,Rx,0,8,3A,39,40,4C,41,00,00,00,
6759324,00000200,false,Rx,0,8,39,3A,40,44,43,00,00,00,
6759526,00000202,false,Rx,0,8,39,3A,40,49,42,00,00,00,
6760649,00000104,false,Rx,0,8,00,00,00,10,00,00,90,18,
6760935,00000105,false,Rx,0,8,00,00,00,10,00,00,90,7D,
6763102,00000101,false,Rx,0,8,00,00,00,10,00,00,90,F4,
6764402,00000103,false,Rx,0,8,00,00,00,10,00,00,90,3E,
6765277,00000100,false,Rx,0,8,00,00,00,10,00,00,90,91,
6765563,00000102,false,Rx,0,8,00,00,00,10,00,00,90,5B,
6810739,00000104,false,Rx,0,8,00,00,00,10,00,00,A0,52,
6811033,00000105,false,Rx,0,8,00,00,00,10,00,00,A0,37,
6812995,00000101,false,Rx,0,8,00,00,00,10,00,00,A0,BE,
6814534,00000103,false,Rx,0,8,00,00,00,10,00,00,A0,74,
6815325,00000100,false,Rx,0,8,00,00,00,10,00,00,A0,DB,
6815609,00000102,false,Rx,0,8,00,00,00,10,00,00,A0,11,
6854693,00000204,false,Rx,0,8,3A,39,40,41,44,00,00,00,
6854900,00000205,false,Rx,0,8,3A,39,40,4F,45,00,00,00,
6857036,00000201,false,Rx,0,8,3A,3A,40,48,43,00,00,00,
6858573,00000203,false,Rx,0,8,3A,39,40,4C,41,00,00,00,
6859282,00000202,false,Rx,0,8,39,3A,40,49,42,00,00,00,
6859485,00000200,false,Rx,0,8,39,3A,40,44,43,00,00,00,
6860608,00000104,false,Rx,0,8,00,00,00,10,00,00,B0,9F,
6860987,00000105,false,Rx,0,8,00,00,00,10,00,00,B0,FA,
6863116,00000101,false,Rx,0,8,00,00,00,10,00,00,B0,73,
6864518,00000103,false,Rx,0,8,00,00,00,10,00,00,B0,B9,
6865228,00000102,false,Rx,0,8,00,00,00,10,00,00,B0,DC,
6865523,00000100,false,Rx,0,8,00,00,00,10,00,00,B0,16,
6898607,000001D4,false,Rx,0,8,22,99,29,22,22,22,99,99,
6898986,000001D5,false,Rx,0,8,22,99,29,22,22,22,99,99,
6901051,000001D1,false,Rx,0,8,22,99,29,22,22,22,99,99,
6902590,000001D3,false,Rx,0,8,22,99,29,22,22,22,99,99,
6903144,000001D2,false,Rx,0,8,22,99,29,22,22,22,99,99,
6903428,000001D0,false,Rx,0,8,22,99,29,22,22,22,99,99,
6910588,00000104,false,Rx,0,8,00,00,00,10,00,00,C0,C6,
6911134,00000105,false,Rx,0,8,00,00,00,10,00,00,C0,A3,
6913097,00000101,false,Rx,0,8,00,00,00,10,00,00,C0,2A,
6914637,00000103,false,Rx,0,8,00,00,00,10,00,00,C0,E0,
6915180,00000102,false,Rx,0,8,00,00,00,10,00,00,C0,85,
6915549,00000100,false,Rx,0,8,00,00,00,10,00,00,C0,4F,
6930653,000001C4,false,Rx,0,8,22,22,92,22,22,22,42,22,
6930940,000001C5,false,Rx,0,8,22,22,92,22,22,22,42,22,
6933158,000001C1,false,Rx,0,8,22,22,92,22,22,22,42,22,
6936222,000001C3,false,Rx,0,8,22,22,92,22,22,22,42,22,
6936310,000001C2,false,Rx,0,8,22,22,92,22,22,22,42,22,
6936397,000001C0,false,Rx,0,8,22,22,92,22,22,22,42,22,
6954512,00000204,false,Rx,0,8,3A,39,40,41,43,00,00,00,
6954973,00000205,false,Rx,0,8,3A,39,40,4F,45,00,00,00,
6957018,00000201,false,Rx,0,8,3A,3A,40,48,43,00,00,00,
6958804,00000203,false,Rx,0,8,3A,39,40,4C,41,00,00,00,
6959014,00000202,false,Rx,0,8,39,3A,40,49,42,00,00,00,
6959630,00000200,false,Rx,0,8,39,3A,40,44,43,00,00,00,
6960589,00000104,false,Rx,0,8,00,00,00,10,00,00,D0,0B,
6960968,00000105,false,Rx,0,8,00,00,00,10,00,00,D0,6E,
6963095,00000101,false,Rx,0,8,00,00,00,10,00,00,D0,E7,
6964716,00000103,false,Rx,0,8,00,00,00,10,00,00,D0,2D,
6965011,00000102,false,Rx,0,8,00,00,00,10,00,00,D0,48,
6965544,00000100,false,Rx,0,8,00,00,00,10,00,00,D0,82,
7010517,00000104,false,Rx,0,8,00,00,00,10,00,00,E0,41,
7011062,00000105,false,Rx,0,8,00,00,00,10,00,00,E0,24,
7013188,00000101,false,Rx,0,8,00,00,00,10,00,00,E0,AD,
7014813,00000103,false,Rx,0,8,00,00,00,10,00,00,E0,67,
7015107,00000102,false,Rx,0,8,00,00,00,10,00,00,E0,02,
7015557,00000100,false,Rx,0,8,00,00,00,10,00,00,E0,C8,
7054284,00000204,false,Rx,0,8,3A,39,40,41,43,00,00,00,
7055075,00000205,false,Rx,0,8,3A,39,40,4F,45,00,00,00,
7057120,00000201,false,Rx,0,8,3A,3A,40,48,43,00,00,00,
7058824,00000203,false,Rx,0,8,3A,39,40,4C,41,00,00,00,
7059028,00000202,false,Rx,0,8,39,3A,40,49,42,00,00,00,
7059645,00000200,false,Rx,0,8,39,3A,40,44,43,00,00,00,
7060271,00000104,false,Rx,0,8,00,00,00,10,00,00,00,F3,
7060980,00000105,false,Rx,0,8,00,00,00,10,00,00,00,96,
7063190,00000101,false,Rx,0,8,00,00,00,10,00,00,00,1F,
7064812,00000103,false,Rx,0,8,00,00,00,10,00,00,00,D5,
7065015,00000102,false,Rx,0,8,00,00,00,10,00,00,00,B0,
7065632,00000100,false,Rx,0,8,00,00,00,10,00,00,00,7A,
7098311,000001D4,false,Rx,0,8,22,99,29,22,22,22,99,99,
7099019,000001D5,false,Rx,0,8,22,99,29,22,22,22,99,99,
7101186,000001D1,false,Rx,0,8,22,99,29,22,22,22,99,99,
7102642,000001D3,false,Rx,0,8,22,99,29,22,22,22,99,99,
7102941,000001D2,false,Rx,0,8,22,99,29,22,22,22,99,99,
7103648,000001D0,false,Rx,0,8,22,99,29,22,22,22,99,99,
7110311,00000104,false,Rx,0,8,00,00,00,10,00,00,10,3E,
7111019,00000105,false,Rx,0,8,00,00,00,10,00,00,10,5B,
7113231,00000101,false,Rx,0,8,00,00,00,10,00,00,10,D2,
7114685,00000103,false,Rx,0,8,00,00,00,10,00,00,10,18,
7114980,00000102,false,Rx,0,8,00,00,00,10,00,00,10,7D,
7115680,00000100,false,Rx,0,8,00,00,00,10,00,00,10,B7,
7130362,000001C4,false,Rx,0,8,22,22,92,22,22,22,42,22,
7131074,000001C5,false,Rx,0,8,22,22,92,22,22,22,42,22,
7133285,000001C1,false,Rx,0,8,22,22,92,22,22,22,42,22,
7134572,000001C3,false,Rx,0,8,22,22,92,22,22,22,42,22,
7134860,000001C2,false,Rx,0,8,22,22,92,22,22,22,42,22,
7135733,000001C0,false,Rx,0,8,22,22,92,22,22,22,42,22,
7154370,00000204,false,Rx,0,8,3A,39,40,41,44,00,00,00,
7155162,00000205,false,Rx,0,8,3A,39,40,4F,45,00,00,00,
7157372,00000201,false,Rx,0,8,3A,3A,40,48,43,00,00,00,
7158496,00000203,false,Rx,0,8,3A,39,40,4C,41,00,00,00,
7158865,00000202,false,Rx,0,8,39,3A,40,49,42,00,00,00,
7159738,00000200,false,Rx,0,8,39,3A,40,44,43,00,00,00,
7160365,00000104,false,Rx,0,8,00,00,00,10,00,00,20,74,
7161157,00000105,false,Rx,0,8,00,00,00,10,00,00,20,11,
7163368,00000101,false,Rx,0,8,00,00,00,10,00,00,20,98,
7164490,00000103,false,Rx,0,8,00,00,00,10,00,00,20,52,
7164859,00000102,false,Rx,0,8,00,00,00,10,00,00,20,37,
7165730,00000100,false,Rx,0,8,00,00,00,10,00,00,20,FD,
7210418,00000104,false,Rx,0,8,00,00,00,10,00,00,30,B9,
7211211,00000105,false,Rx,0,8,00,00,00,10,00,00,30,DC,
7213503,00000101,false,Rx,0,8,00,00,00,10,00,00,30,55,
7214711,00000103,false,Rx,0,8,00,00,00,10,00,00,30,9F,
7214915,00000102,false,Rx,0,8,00,00,00,10,00,00,30,FA,
7215790,00000100,false,Rx,0,8,00,00,00,10,00,00,30,30,
7254183,00000204,false,Rx,0,8,3A,39,40,41,44,00,00,00,
7255224,00000205,false,Rx,0,8,3A,39,40,4F,44,00,00,00,
7257433,00000201,false,Rx,0,8,3A,3A,40,48,43,00,00,00,
7258639,00000203,false,Rx,0,8,3A,39,40,4C,41,00,00,00,
7259016,00000202,false,Rx,0,8,39,3A,40,49,42,00,00,00,
7259801,00000200,false,Rx,0,8,39,3A,40,44,43,00,00,00,
7260178,00000104,false,Rx,0,8,00,00,00,10,00,00,40,E0,
7261220,00000105,false,Rx,0,8,00,00,00,10,00,00,40,85,
7263512,00000101,false,Rx,0,8,00,00,00,10,00,00,40,0C,
7264637,00000103,false,Rx,0,8,00,00,00,10,00,00,40,C6,
7265098,00000102,false,Rx,0,8,00,00,00,10,00,00,40,A3,
7265799,00000100,false,Rx,0,8,00,00,00,10,00,00,40,69,
7298140,000001D4,false,Rx,0,8,22,99,29,22,22,22,99,99,
7299264,000001D5,false,Rx,0,8,22,99,29,22,22,22,99,99,
7301487,000001D1,false,Rx,0,8,22,99,29,22,22,22,99,99,
7302611,000001D3,false,Rx,0,8,22,99,29,22,22,22,99,99,
7302907,000001D2,false,Rx,0,8,22,99,29,22,22,22,99,99,
7303785,000001D0,false,Rx,0,8,22,99,29,22,22,22,99,99,
7310270,00000104,false,Rx,0,8,00,00,00,10,00,00,50,2D,
7311146,00000105,false,Rx,0,8,00,00,00,10,00,00,50,48,
7313521,00000101,false,Rx,0,8,00,00,00,10,00,00,50,C1,
7314644,00000103,false,Rx,0,8,00,00,00,10,00,00,50,0B,
7314931,00000102,false,Rx,0,8,00,00,00,10,00,00,50,6E,
7315722,00000100,false,Rx,0,8,00,00,00,10,00,00,50,A4,
7330162,000001C4,false,Rx,0,8,22,22,92,22,22,22,42,22,
7331203,000001C5,false,Rx,0,8,22,22,92,22,22,22,42,22,
7333496,000001C1,false,Rx,0,8,22,22,92,22,22,22,42,22,
7334618,000001C3,false,Rx,0,8,22,22,92,22,22,22,42,22,
7334822,000001C2,false,Rx,0,8,22,22,92,22,22,22,42,22,
7335781,000001C0,false,Rx,0,8,22,22,92,22,22,22,42,22,
7354294,00000204,false,Rx,0,8,3A,39,40,41,43,00,00,00,
7355169,00000205,false,Rx,0,8,3A,39,40,4F,45,00,00,00,
7357466,00000201,false,Rx,0,8,3A,3A,40,48,43,00,00,00,
7358590,00000203,false,Rx,0,8,3A,39,40,4C,41,00,00,00,
7358794,00000202,false,Rx,0,8,39,3A,40,49,42,00,00,00,
7359750,00000200,false,Rx,0,8,39,3A,40,44,43,00,00,00,
7360209,00000104,false,Rx,0,8,00,00,00,10,00,00,60,67,
7361195,00000105,false,Rx,0,8,00,00,00,10,00,00,60,02,
7363489,00000101,false,Rx,0,8,00,00,00,10,00,00,60,8B,
7364613,00000103,false,Rx,0,8,00,00,00,10,00,00,60,41,
7364903,00000102,false,Rx,0,8,00,00,00,10,00,00,60,24,
7365861,00000100,false,Rx,0,8,00,00,00,10,00,00,60,EE,
7410259,00000104,false,Rx,0,8,00,00,00,10,00,00,70,AA,
7411383,00000105,false,Rx,0,8,00,00,00,10,00,00,70,CF,
7413511,00000101,false,Rx,0,8,00,00,00,10,00,00,70,46,
7414637,00000102,false,Rx,0,8,00,00,00,10,00,00,70,E9,
7414841,00000103,false,Rx,0,8,00,00,00,10,00,00,70,8C,
7415883,00000100,false,Rx,0,8,00,00,00,10,00,00,70,23,
7454140,00000204,false,Rx,0,8,3A,39,40,41,44,00,00,00,
7455428,00000205,false,Rx,0,8,3A,39,40,4F,45,00,00,00,
7457560,00000201,false,Rx,0,8,3A,3A,40,48,43,00,00,00,
7458600,00000203,false,Rx,0,8,3A,39,40,4C,41,00,00,00,
7458805,00000202,false,Rx,0,8,39,3A,40,49,42,00,00,00,
7459847,00000200,false,Rx,0,8,39,3A,40,44,43,00,00,00,
7460058,00000104,false,Rx,0,8,00,00,00,10,00,00,80,D5,
7461430,00000105,false,Rx,0,8,00,00,00,10,00,00,80,B0,
7463559,00000101,false,Rx,0,8,00,00,00,10,00,00,80,39,
7464599,00000102,false,Rx,0,8,00,00,00,10,00,00,80,96,
7464803,00000103,false,Rx,0,8,00,00,00,10,00,00,80,F3,
7465762,00000100,false,Rx,0,8,00,00,00,10,00,00,80,5C,
7498896,000001D4,false,Rx,0,8,22,99,29,22,22,22,99,99,
7499521,000001D5,false,Rx,0,8,22,99,29,22,22,22,99,99,
7501578,000001D1,false,Rx,0,8,22,99,29,22,22,22,99,99,
7502536,000001D2,false,Rx,0,8,22,99,29,22,22,22,99,99,
7502738,000001D3,false,Rx,0,8,22,99,29,22,22,22,99,99,
7503800,000001D0,false,Rx,0,8,22,99,29,22,22,22,99,99,
7510084,00000104,false,Rx,0,8,00,00,00,10,00,00,90,18,
7511539,00000105,false,Rx,0,8,00,00,00,10,00,00,90,7D,
7513583,00000101,false,Rx,0,8,00,00,00,10,00,00,90,F4,
7514625,00000103,false,Rx,0,8,00,00,00,10,00,00,90,3E,
7514912,00000102,false,Rx,0,8,00,00,00,10,00,00,90,5B,
7515871,00000100,false,Rx,0,8,00,00,00,10,00,00,90,91,
7530137,000001C4,false,Rx,0,8,22,22,92,22,22,22,42,22,
7531509,000001C5,false,Rx,0,8,22,22,92,22,22,22,42,22,
7533555,000001C1,false,Rx,0,8,22,22,92,22,22,22,42,22,
7534511,000001C2,false,Rx,0,8,22,22,92,22,22,22,42,22,
7534799,000001C3,false,Rx,0,8,22,22,92,22,22,22,42,22,
7535922,000001C0,false,Rx,0,8,22,22,92,22,22,22,42,22,
7554103,00000204,false,Rx,0,8,3A,39,40,41,44,00,00,00,
7555477,00000205,false,Rx,0,8,3A,39,40,4F,45,00,00,00,
7557603,00000201,false,Rx,0,8,3A,3A,40,48,43,00,00,00,
7558478,00000202,false,Rx,0,8,39,3A,40,49,42,00,00,00,
7558681,00000203,false,Rx,0,8,3A,39,40,4C,41,00,00,00,
7559978,00000200,false,Rx,0,8,39,3A,40,44,43,00,00,00,
7560264,00000104,false,Rx,0,8,00,00,00,10,00,00,A0,52,
7561471,00000105,false,Rx,0,8,00,00,00,10,00,00,A0,37,
7563598,00000101,false,Rx,0,8,00,00,00,10,00,00,A0,BE,
7564473,00000102,false,Rx,0,8,00,00,00,10,00,00,A0,11,
7564762,00000103,false,Rx,0,8,00,00,00,10,00,00,A0,74,
7565976,00000100,false,Rx,0,8,00,00,00,10,00,00,A0,DB,
7609999,00000104,false,Rx,0,8,00,00,00,10,00,00,B0,9F,
7611454,00000105,false,Rx,0,8,00,00,00,10,00,00,B0,FA,
7613581,00000101,false,Rx,0,8,00,00,00,10,00,00,B0,73,
7614539,00000103,false,Rx,0,8,00,00,00,10,00,00,B0,B9,
7614826,00000102,false,Rx,0,8,00,00,00,10,00,00,B0,DC,
7615956,00000100,false,Rx,0,8,00,00,00,10,00,00,B0,16,
7653955,00000204,false,Rx,0,8,3A,39,40,41,44,00,00,00,
7655327,00000205,false,Rx,0,8,3A,39,40,4F,45,00,00,00,
7657620,00000201,false,Rx,0,8,3A,3A,40,48,43,00,00,00,
7658578,00000202,false,Rx,0,8,39,3A,40,49,42,00,00,00,
7658786,00000203,false,Rx,0,8,3A,39,40,4C,41,00,00,00,
7659908,00000104,false,Rx,0,8,00,00,00,10,00,00,C0,C6,
7660118,00000200,false,Rx,0,8,39,3A,40,44,43,00,00,00,
7661407,00000105,false,Rx,0,8,00,00,00,10,00,00,C0,A3,
7663616,00000101,false,Rx,0,8,00,00,00,10,00,00,C0,2A,
7664572,00000102,false,Rx,0,8,00,00,00,10,00,00,C0,85,
7664776,00000103,false,Rx,0,8,00,00,00,10,00,00,C0,E0,
7665899,00000100,false,Rx,0,8,00,00,00,10,00,00,C0,4F,
7697944,000001D4,false,Rx,0,8,22,99,29,22,22,22,99,99,
7699323,000001D5,false,Rx,0,8,22,99,29,22,22,22,99,99,
7701549,000001D1,false,Rx,0,8,22,99,29,22,22,22,99,99,
7702507,000001D2,false,Rx,0,8,22,99,29,22,22,22,99,99,
7704518,000001D3,false,Rx,0,8,22,99,29,22,22,22,99,99,
7704606,000001D0,false,Rx,0,8,22,99,29,22,22,22,99,99,
7710008,00000104,false,Rx,0,8,00,00,00,10,00,00,D0,0B,
7711383,00000105,false,Rx,0,8,00,00,00,10,00,00,D0,6E,
7713594,00000101,false,Rx,0,8,00,00,00,10,00,00,D0,E7,
7714554,00000102,false,Rx,0,8,00,00,00,10,00,00,D0,48,
7714760,00000103,false,Rx,0,8,00,00,00,10,00,00,D0,2D,
7715883,00000100,false,Rx,0,8,00,00,00,10,00,00,D0,82,
7729990,000001C4,false,Rx,0,8,22,22,92,22,22,22,42,22,
7731362,000001C5,false,Rx,0,8,22,22,92,22,22,22,42,22,
7733573,000001C1,false,Rx,0,8,22,22,92,22,22,22,42,22,
7734531,000001C2,false,Rx,0,8,22,22,92,22,22,22,42,22,
7734734,000001C3,false,Rx,0,8,22,22,92,22,22,22,42,22,
7735943,000001C0,false,Rx,0,8,22,22,92,22,22,22,42,22,
7753895,00000204,false,Rx,0,8,3A,39,40,41,44,00,00,00,
7756293,00000205,false,Rx,0,8,3A,39,40,4F,45,00,00,00,
7757584,00000201,false,Rx,0,8,3A,3A,40,48,43,00,00,00,
7758542,00000202,false,Rx,0,8,39,3A,40,49,42,00,00,00,
7758745,00000203,false,Rx,0,8,3A,39,40,4B,41,00,00,00,
7759868,00000104,false,Rx,0,8,00,00,00,10,00,00,E0,41,
7760161,00000200,false,Rx,0,8,39,3A,40,44,43,00,00,00,
7761532,00000105,false,Rx,0,8,00,00,00,10,00,00,E0,24,
7763576,00000101,false,Rx,0,8,00,00,00,10,00,00,E0,AD,
7764534,00000102,false,Rx,0,8,00,00,00,10,00,00,E0,02,
7764736,00000103,false,Rx,0,8,00,00,00,10,00,00,E0,67,
7766036,00000100,false,Rx,0,8,00,00,00,10,00,00,E0,C8,
7809842,00000104,false,Rx,0,8,00,00,00,10,00,00,00,F3,
7811388,00000105,false,Rx,0,8,00,00,00,10,00,00,00,96,
7813432,00000101,false,Rx,0,8,00,00,00,10,00,00,00,1F,
7814390,00000102,false,Rx,0,8,00,00,00,10,00,00,00,B0,
7814593,00000103,false,Rx,0,8,00,00,00,10,00,00,00,D5,
7815884,00000100,false,Rx,0,8,00,00,00,10,00,00,00,7A,
7853750,00000204,false,Rx,0,8,3A,39,40,41,43,00,00,00,
7855466,00000205,false,Rx,0,8,3A,39,40,4E,45,00,00,00,
7857554,00000201,false,Rx,0,8,3A,3A,40,48,43,00,00,00,
7858263,00000202,false,Rx,0,8,39,3A,40,49,42,00,00,00,
7858630,00000203,false,Rx,0,8,3A,39,40,4C,41,00,00,00,
7859755,00000104,false,Rx,0,8,00,00,00,10,00,00,10,3E,
7859966,00000200,false,Rx,0,8,39,3A,40,44,43,00,00,00,
7861502,00000105,false,Rx,0,8,00,00,00,10,00,00,10,5B,
7863466,00000101,false,Rx,0,8,00,00,00,10,00,00,10,D2,
7864258,00000102,false,Rx,0,8,00,00,00,10,00,00,10,7D,
7864709,00000103,false,Rx,0,8,00,00,00,10,00,00,10,18,
7865917,00000100,false,Rx,0,8,00,00,00,10,00,00,10,B7,
7897661,000001D4,false,Rx,0,8,22,99,29,22,22,22,99,99,
7899457,000001D5,false,Rx,0,8,22,99,29,22,22,22,99,99,
7901436,000001D1,false,Rx,0,8,22,99,29,22,22,22,99,99,
7902229,000001D2,false,Rx,0,8,22,99,29,22,22,22,99,99,
7902680,000001D3,false,Rx,0,8,22,99,29,22,22,22,99,99,
7903904,000001D0,false,Rx,0,8,22,99,29,22,22,22,99,99,
7909759,00000104,false,Rx,0,8,00,00,00,10,00,00,20,74,
7911387,00000105,false,Rx,0,8,00,00,00,10,00,00,20,11,
7913432,00000101,false,Rx,0,8,00,00,00,10,00,00,20,98,
7914306,00000102,false,Rx,0,8,00,00,00,10,00,00,20,37,
7914675,00000103,false,Rx,0,8,00,00,00,10,00,00,20,52,
7915974,00000100,false,Rx,0,8,00,00,00,10,00,00,20,FD,
7929648,000001C4,false,Rx,0,8,22,22,92,22,22,22,42,22,
7931444,000001C5,false,Rx,0,8,22,22,92,22,22,22,42,22,
7933572,000001C1,false,Rx,0,8,22,22,92,22,22,22,42,22,
7934199,000001C2,false,Rx,0,8,22,22,92,22,22,22,42,22,
7934733,000001C3,false,Rx,0,8,22,22,92,22,22,22,42,22,
7935942,000001C0,false,Rx,0,8,22,22,92,22,22,22,42,22,
7953634,00000204,false,Rx,0,8,3A,39,40,41,44,00,00,00,
7955512,00000205,false,Rx,0,8,3A,39,40,4F,45,00,00,00,
7957477,00000201,false,Rx,0,8,3A,3A,40,48,43,00,00,00,
7958186,00000202,false,Rx,0,8,39,3A,40,49,42,00,00,00,
7958720,00000203,false,Rx,0,8,3A,39,40,4C,41,00,00,00,
7961686,00000104,false,Rx,0,8,00,00,00,10,00,00,30,B9,
7961778,00000200,false,Rx,0,8,39,3A,40,44,43,00,00,00,
7961865,00000105,false,Rx,0,8,00,00,00,10,00,00,30,DC,
7963575,00000101,false,Rx,0,8,00,00,00,10,00,00,30,55,
7964201,00000102,false,Rx,0,8,00,00,00,10,00,00,30,FA,
7964652,00000103,false,Rx,0,8,00,00,00,10,00,00,30,9F,
7965942,00000100,false,Rx,0,8,00,00,00,10,00,00,30,30,
8009680,00000104,false,Rx,0,8,00,00,00,10,00,00,40,E0,
8011642,00000105,false,Rx,0,8,00,00,00,10,00,00,40,85,
8013706,00000101,false,Rx,0,8,00,00,00,10,00,00,40,0C,
8014167,00000102,false,Rx,0,8,00,00,00,10,00,00,40,A3,
8014701,00000103,false,Rx,0,8,00,00,00,10,00,00,40,C6,
8016082,00000100,false,Rx,0,8,00,00,00,10,00,00,40,69,
8053691,00000204,false,Rx,0,8,3A,39,40,41,44,00,00,00,
8055488,00000205,false,Rx,0,8,3A,39,40,4E,45,00,00,00,
8057532,00000201,false,Rx,0,8,3A,3A,40,48,43,00,00,00,
8058158,00000202,false,Rx,0,8,39,3A,40,49,42,00,00,00,
8058526,00000203,false,Rx,0,8,3A,39,40,4C,41,00,00,00,
8059650,00000104,false,Rx,0,8,00,00,00,10,00,00,50,2D,
8060027,00000200,false,Rx,0,8,39,3A,40,44,43,00,00,00,
8061567,00000105,false,Rx,0,8,00,00,00,10,00,00,50,48,
8063650,00000101,false,Rx,0,8,00,00,00,10,00,00,50,C1,
8064193,00000102,false,Rx,0,8,00,00,00,10,00,00,50,6E,
8064477,00000103,false,Rx,0,8,00,00,00,10,00,00,50,0B,
8065933,00000100,false,Rx,0,8,00,00,00,10,00,00,50,A4,
8097809,000001D4,false,Rx,0,8,22,99,29,22,22,22,99,99,
8099603,000001D5,false,Rx,0,8,22,99,29,22,22,22,99,99,
8101660,000001D1,false,Rx,0,8,22,99,29,22,22,22,99,99,
8102286,000001D2,false,Rx,0,8,22,99,29,22,22,22,99,99,
8102489,000001D3,false,Rx,0,8,22,99,29,22,22,22,99,99,
8104058,000001D0,false,Rx,0,8,22,99,29,22,22,22,99,99,
8109861,00000104,false,Rx,0,8,00,00,00,10,00,00,60,67,
8111655,00000105,false,Rx,0,8,00,00,00,10,00,00,60,02,
8114625,00000101,false,Rx,0,8,00,00,00,10,00,00,60,8B,
8114714,00000102,false,Rx,0,8,00,00,00,10,00,00,60,24,
8114802,00000103,false,Rx,0,8,00,00,00,10,00,00,60,41,
8116017,00000100,false,Rx,0,8,00,00,00,10,00,00,60,EE,
8129854,000001C4,false,Rx,0,8,22,22,92,22,22,22,42,22,
8131650,000001C5,false,Rx,0,8,22,22,92,22,22,22,42,22,
8133612,000001C1,false,Rx,0,8,22,22,92,22,22,22,42,22,
8134239,000001C2,false,Rx,0,8,22,22,92,22,22,22,42,22,
8134524,000001C3,false,Rx,0,8,22,22,92,22,22,22,42,22,
8135983,000001C0,false,Rx,0,8,22,22,92,22,22,22,42,22,
8153863,00000204,false,Rx,0,8,3A,39,40,41,44,00,00,00,
8155656,00000205,false,Rx,0,8,3A,39,40,4F,45,00,00,00,
8157617,00000201,false,Rx,0,8,3A,3A,40,48,43,00,00,00,
8158161,00000202,false,Rx,0,8,39,3A,40,49,42,00,00,00,
8158612,00000203,false,Rx,0,8,3A,39,40,4C,41,00,00,00,
8159821,00000104,false,Rx,0,8,00,00,00,10,00,00,70,AA,
8160030,00000200,false,Rx,0,8,39,3A,40,44,43,00,00,00,
8161650,00000105,false,Rx,0,8,00,00,00,10,00,00,70,CF,
8163694,00000101,false,Rx,0,8,00,00,00,10,00,00,70,46,
8164156,00000102,false,Rx,0,8,00,00,00,10,00,00,70,E9,
8164524,00000103,false,Rx,0,8,00,00,00,10,00,00,70,8C,
8167658,00000100,false,Rx,0,8,00,00,00,10,00,00,70,23,
8209991,00000104,false,Rx,0,8,00,00,00,10,00,00,80,D5,
8211694,00000105,false,Rx,0,8,00,00,00,10,00,00,80,B0,
8213738,00000101,false,Rx,0,8,00,00,00,10,00,00,80,39,
8214199,00000102,false,Rx,0,8,00,00,00,10,00,00,80,96,
8214567,00000103,false,Rx,0,8,00,00,00,10,00,00,80,F3,
8216124,00000100,false,Rx,0,8,00,00,00,10,00,00,80,5C,
8253867,00000204,false,Rx,0,8,3A,39,40,41,44,00,00,00,
8255660,00000205,false,Rx,0,8,3A,39,40,4F,45,00,00,00,
8257706,00000201,false,Rx,0,8,3A,3A,40,48,43,00,00,00,
8258249,00000202,false,Rx,0,8,39,3A,40,49,42,00,00,00,
8258534,00000203,false,Rx,0,8,3A,39,40,4C,41,00,00,00,
8259824,00000104,false,Rx,0,8,00,00,00,10,00,00,90,18,
8260117,00000200,false,Rx,0,8,39,3A,40,44,43,00,00,00,
8261656,00000105,false,Rx,0,8,00,00,00,10,00,00,90,7D,
8263700,00000101,false,Rx,0,8,00,00,00,10,00,00,90,F4,
8264161,00000102,false,Rx,0,8,00,00,00,10,00,00,90,5B,
8264529,00000103,false,Rx,0,8,00,00,00,10,00,00,90,3E,
8266158,00000100,false,Rx,0,8,00,00,00,10,00,00,90,91,
8297885,000001D4,false,Rx,0,8,22,99,29,22,22,22,99,99,
8299525,000001D5,false,Rx,0,8,22,99,29,22,22,22,99,99,
8301581,000001D1,false,Rx,0,8,22,99,29,22,22,22,99,99,
8302208,000001D2,false,Rx,0,8,22,99,29,22,22,22,99,99,
8302576,000001D3,false,Rx,0,8,22,99,29,22,22,22,99,99,
8304145,000001D0,false,Rx,0,8,22,99,29,22,22,22,99,99,
8309865,00000104,false,Rx,0,8,00,00,00,10,00,00,A0,52,
8311659,00000105,false,Rx,0,8,00,00,00,10,00,00,A0,37,
8313788,00000101,false,Rx,0,8,00,00,00,10,00,00,A0,BE,
8314247,00000102,false,Rx,0,8,00,00,00,10,00,00,A0,11,
8314698,00000103,false,Rx,0,8,00,00,00,10,00,00,A0,74,
8316162,00000100,false,Rx,0,8,00,00,00,10,00,00,A0,DB,
8329783,000001C4,false,Rx,0,8,22,22,92,22,22,22,42,22,
8331493,000001C5,false,Rx,0,8,22,22,92,22,22,22,42,22,
8333702,000001C1,false,Rx,0,8,22,22,92,22,22,22,42,22,
8334246,000001C2,false,Rx,0,8,22,22,92,22,22,22,42,22,
8334615,000001C3,false,Rx,0,8,22,22,92,22,22,22,42,22,
8336245,000001C0,false,Rx,0,8,22,22,92,22,22,22,42,22,
8353685,00000204,false,Rx,0,8,3A,39,40,41,44,00,00,00,
8355650,00000205,false,Rx,0,8,3A,39,40,4F,45,00,00,00,
8357695,00000201,false,Rx,0,8,3A,3A,40,48,43,00,00,00,
8358157,00000202,false,Rx,0,8,39,3A,40,49,42,00,00,00,
8358691,00000203,false,Rx,0,8,3A,39,40,4C,41,00,00,00,
8359650,00000104,false,Rx,0,8,00,00,00,10,00,00,B0,9F,
8360277,00000200,false,Rx,0,8,39,3A,40,44,43,00,00,00,
8361651,00000105,false,Rx,0,8,00,00,00,10,00,00,B0,FA,
8363695,00000101,false,Rx,0,8,00,00,00,10,00,00,B0,73,
8364238,00000102,false,Rx,0,8,00,00,00,10,00,00,B0,DC,
8364690,00000103,false,Rx,0,8,00,00,00,10,00,00,B0,B9,
8366241,00000100,false,Rx,0,8,00,00,00,10,00,00,B0,16,
8409736,00000104,false,Rx,0,8,00,00,00,10,00,00,C0,C6,
8411863,00000105,false,Rx,0,8,00,00,00,10,00,00,C0,A3,
8413906,00000101,false,Rx,0,8,00,00,00,10,00,00,C0,2A,
8414200,00000102,false,Rx,0,8,00,00,00,10,00,00,C0,85,
8414734,00000103,false,Rx,0,8,00,00,00,10,00,00,C0,E0,
8416448,00000100,false,Rx,0,8,00,00,00,10,00,00,C0,4F,
8453838,00000204,false,Rx,0,8,3A,39,40,41,43,00,00,00,
8455717,00000205,false,Rx,0,8,3A,39,40,4F,45,00,00,00,
8457762,00000201,false,Rx,0,8,3A,3A,40,48,43,00,00,00,
8458138,00000202,false,Rx,0,8,39,3A,40,49,42,00,00,00,
8458671,00000203,false,Rx,0,8,3A,39,40,4C,41,00,00,00,
8459798,00000104,false,Rx,0,8,00,00,00,10,00,00,D0,0B,
8460341,00000200,false,Rx,0,8,39,3A,40,44,43,00,00,00,
8461714,00000105,false,Rx,0,8,00,00,00,10,00,00,D0,6E,
8463927,00000101,false,Rx,0,8,00,00,00,10,00,00,D0,E7,
8464220,00000102,false,Rx,0,8,00,00,00,10,00,00,D0,48,
8464588,00000103,false,Rx,0,8,00,00,00,10,00,00,D0,2D,
8466305,00000100,false,Rx,0,8,00,00,00,10,00,00,D0,82,
8497869,000001D4,false,Rx,0,8,22,99,29,22,22,22,99,99,
8499746,000001D5,false,Rx,0,8,22,99,29,22,22,22,99,99,
8501808,000001D1,false,Rx,0,8,22,99,29,22,22,22,99,99,
8502191,000001D2,false,Rx,0,8,22,99,29,22,22,22,99,99,
8502580,000001D3,false,Rx,0,8,22,99,29,22,22,22,99,99,
8504360,000001D0,false,Rx,0,8,22,99,29,22,22,22,99,99,
8509910,00000104,false,Rx,0,8,00,00,00,10,00,00,E0,41,
8511790,00000105,false,Rx,0,8,00,00,00,10,00,00,E0,24,
8513833,00000101,false,Rx,0,8,00,00,00,10,00,00,E0,AD,
8514210,00000102,false,Rx,0,8,00,00,00,10,00,00,E0,02,
8514745,00000103,false,Rx,0,8,00,00,00,10,00,00,E0,67,
8516457,00000100,false,Rx,0,8,00,00,00,10,00,00,E0,C8,
8529914,000001C4,false,Rx,0,8,22,22,92,22,22,22,42,22,
8531711,000001C5,false,Rx,0,8,22,22,92,22,22,22,42,22,
8533759,000001C1,false,Rx,0,8,22,22,92,22,22,22,42,22,
8534136,000001C2,false,Rx,0,8,22,22,92,22,22,22,42,22,
8534753,000001C3,false,Rx,0,8,22,22,92,22,22,22,42,22,
8536300,000001C0,false,Rx,0,8,22,22,92,22,22,22,42,22,
8554000,00000204,false,Rx,0,8,3A,39,40,41,44,00,00,00,
8555703,00000205,false,Rx,0,8,3A,39,40,4F,45,00,00,00,
8557748,00000201,false,Rx,0,8,3A,3A,40,48,43,00,00,00,
8558208,00000202,false,Rx,0,8,39,3A,40,49,42,00,00,00,
8558657,00000203,false,Rx,0,8,3A,39,40,4C,41,00,00,00,
8559955,00000104,false,Rx,0,8,00,00,00,10,00,00,00,F3,
8560241,00000200,false,Rx,0,8,39,3A,40,44,43,00,00,00,
8561781,00000105,false,Rx,0,8,00,00,00,10,00,00,00,96,
8563826,00000101,false,Rx,0,8,00,00,00,10,00,00,00,1F,
8564203,00000102,false,Rx,0,8,00,00,00,10,00,00,00,B0,
8564653,00000103,false,Rx,0,8,00,00,00,10,00,00,00,D5,
8566283,00000100,false,Rx,0,8,00,00,00,10,00,00,00,7A,
8609991,00000104,false,Rx,0,8,00,00,00,10,00,00,10,3E,
8611781,00000105,false,Rx,0,8,00,00,00,10,00,00,10,5B,
8613740,00000101,false,Rx,0,8,00,00,00,10,00,00,10,D2,
8614118,00000102,false,Rx,0,8,00,00,00,10,00,00,10,7D,
8614734,00000103,false,Rx,0,8,00,00,00,10,00,00,10,18,
8616364,00000100,false,Rx,0,8,00,00,00,10,00,00,10,B7,
8654083,00000204,false,Rx,0,8,3A,39,40,41,44,00,00,00,
8655871,00000205,false,Rx,0,8,3A,39,40,4E,45,00,00,00,
8657747,00000201,false,Rx,0,8,3A,3A,40,48,43,00,00,00,
8658041,00000202,false,Rx,0,8,39,3A,40,49,42,00,00,00,
8658658,00000203,false,Rx,0,8,3A,39,40,4C,41,00,00,00,
8660039,00000104,false,Rx,0,8,00,00,00,10,00,00,20,74,
8660241,00000200,false,Rx,0,8,39,3A,40,44,43,00,00,00,
8661891,00000105,false,Rx,0,8,00,00,00,10,00,00,20,11,
8663767,00000101,false,Rx,0,8,00,00,00,10,00,00,20,98,
8664061,00000102,false,Rx,0,8,00,00,00,10,00,00,20,37,
8664762,00000103,false,Rx,0,8,00,00,00,10,00,00,20,52,
8666224,00000100,false,Rx,0,8,00,00,00,10,00,00,20,FD,
8698051,000001D4,false,Rx,0,8,22,99,29,22,22,22,99,99,
8699922,000001D5,false,Rx,0,8,22,99,29,22,22,22,99,99,
8701728,000001D1,false,Rx,0,8,22,99,29,22,22,22,99,99,
8702021,000001D2,false,Rx,0,8,22,99,29,22,22,22,99,99,
8702721,000001D3,false,Rx,0,8,22,99,29,22,22,22,99,99,
8704294,000001D0,false,Rx,0,8,22,99,29,22,22,22,99,99,
8709982,00000104,false,Rx,0,8,00,00,00,10,00,00,30,B9,
8711935,00000105,false,Rx,0,8,00,00,00,10,00,00,30,DC,
8713733,00000101,false,Rx,0,8,00,00,00,10,00,00,30,55,
8714019,00000102,false,Rx,0,8,00,00,00,10,00,00,30,FA,
8714812,00000103,false,Rx,0,8,00,00,00,10,00,00,30,9F,
8716357,00000100,false,Rx,0,8,00,00,00,10,00,00,30,30,
8729921,000001C4,false,Rx,0,8,22,22,92,22,22,22,42,22,
8731974,000001C5,false,Rx,0,8,22,22,92,22,22,22,42,22,
8733763,000001C1,false,Rx,0,8,22,22,92,22,22,22,42,22,
8734055,000001C2,false,Rx,0,8,22,22,92,22,22,22,42,22,
8734755,000001C3,false,Rx,0,8,22,22,92,22,22,22,42,22,
8736219,000001C0,false,Rx,0,8,22,22,92,22,22,22,42,22,
8754000,00000204,false,Rx,0,8,3A,39,40,41,44,00,00,00,
8756045,00000205,false,Rx,0,8,3A,39,40,4F,45,00,00,00,
8757832,00000201,false,Rx,0,8,3A,3A,40,48,43,00,00,00,
8758125,00000202,false,Rx,0,8,39,3A,40,49,42,00,00,00,
8758742,00000203,false,Rx,0,8,3A,39,40,4C,41,00,00,00,
8760040,00000104,false,Rx,0,8,00,00,00,10,00,00,40,E0,
8760242,00000200,false,Rx,0,8,39,3A,40,44,43,00,00,00,
8762031,00000105,false,Rx,0,8,00,00,00,10,00,00,40,85,
8763820,00000101,false,Rx,0,8,00,00,00,10,00,00,40,0C,
8764113,00000102,false,Rx,0,8,00,00,00,10,00,00,40,A3,
8764730,00000103,false,Rx,0,8,00,00,00,10,00,00,40,C6,
8766112,00000100,false,Rx,0,8,00,00,00,10,00,00,40,69,
8809973,00000104,false,Rx,0,8,00,00,00,10,00,00,50,2D,
8811939,00000105,false,Rx,0,8,00,00,00,10,00,00,50,48,
8813819,00000101,false,Rx,0,8,00,00,00,10,00,00,50,C1,
8814030,00000102,false,Rx,0,8,00,00,00,10,00,00,50,6E,
8814563,00000103,false,Rx,0,8,00,00,00,10,00,00,50,0B,
8816359,00000100,false,Rx,0,8,00,00,00,10,00,00,50,A4,
8853996,00000204,false,Rx,0,8,3A,39,40,41,44,00,00,00,
8855865,00000205,false,Rx,0,8,3A,39,40,4F,45,00,00,00,
8857742,00000201,false,Rx,0,8,3A,3A,40,48,43,00,00,00,
8858036,00000202,false,Rx,0,8,39,3A,40,49,42,00,00,00,
8858735,00000203,false,Rx,0,8,3A,39,40,4C,41,00,00,00,
8859943,00000104,false,Rx,0,8,00,00,00,10,00,00,60,67,
8860402,00000200,false,Rx,0,8,39,3A,40,44,43,00,00,00,
8861858,00000105,false,Rx,0,8,00,00,00,10,00,00,60,02,
8863736,00000101,false,Rx,0,8,00,00,00,10,00,00,60,8B,
8864031,00000102,false,Rx,0,8,00,00,00,10,00,00,60,24,
8864731,00000103,false,Rx,0,8,00,00,00,10,00,00,60,41,
8866361,00000100,false,Rx,0,8,00,00,00,10,00,00,60,EE,
8897816,000001D4,false,Rx,0,8,22,99,29,22,22,22,99,99,
8899778,000001D5,false,Rx,0,8,22,99,29,22,22,22,99,99,
8901666,000001D1,false,Rx,0,8,22,99,29,22,22,22,99,99,
8901961,000001D2,false,Rx,0,8,22,99,29,22,22,22,99,99,
8902660,000001D3,false,Rx,0,8,22,99,29,22,22,22,99,99,
8904311,000001D0,false,Rx,0,8,22,99,29,22,22,22,99,99,
8909866,00000104,false,Rx,0,8,00,00,00,10,00,00,70,AA,
8911686,00000105,false,Rx,0,8,00,00,00,10,00,00,70,CF,
8913733,00000101,false,Rx,0,8,00,00,00,10,00,00,70,46,
8914027,00000102,false,Rx,0,8,00,00,00,10,00,00,70,E9,
8914646,00000103,false,Rx,0,8,00,00,00,10,00,00,70,8C,
8916366,00000100,false,Rx,0,8,00,00,00,10,00,00,70,23,
8929823,000001C4,false,Rx,0,8,22,22,92,22,22,22,42,22,
8931787,000001C5,false,Rx,0,8,22,22,92,22,22,22,42,22,
8934947,000001C1,false,Rx,0,8,22,22,92,22,22,22,42,22,
8935042,000001C2,false,Rx,0,8,22,22,92,22,22,22,42,22,
8935129,000001C3,false,Rx,0,8,22,22,92,22,22,22,42,22,
8936253,000001C0,false,Rx,0,8,22,22,92,22,22,22,42,22,
8953862,00000204,false,Rx,0,8,3A,39,40,41,44,00,00,00,
8955823,00000205,false,Rx,0,8,3A,39,40,4F,45,00,00,00,
8957784,00000201,false,Rx,0,8,3A,3A,40,48,43,00,00,00,
8957995,00000202,false,Rx,0,8,39,3A,40,49,42,00,00,00,
8958612,00000203,false,Rx,0,8,3A,39,40,4C,41,00,00,00,
8959820,00000104,false,Rx,0,8,00,00,00,10,00,00,80,D5,
8960362,00000200,false,Rx,0,8,39,3A,40,44,43,00,00,00,
8961819,00000105,false,Rx,0,8,00,00,00,10,00,00,80,B0,
8963864,00000101,false,Rx,0,8,00,00,00,10,00,00,80,39,
8964074,00000102,false,Rx,0,8,00,00,00,10,00,00,80,96,
8964607,00000103,false,Rx,0,8,00,00,00,10,00,00,80,F3,
8966407,00000100,false,Rx,0,8,00,00,00,10,00,00,80,5C,
9009688,00000104,false,Rx,0,8,00,00,00,10,00,00,90,18,
9011735,00000105,false,Rx,0,8,00,00,00,10,00,00,90,7D,
9013797,00000101,false,Rx,0,8,00,00,00,10,00,00,90,F4,
9014019,00000102,false,Rx,0,8,00,00,00,10,00,00,90,5B,
9014635,00000103,false,Rx,0,8,00,00,00,10,00,00,90,3E,
9016279,00000100,false,Rx,0,8,00,00,00,10,00,00,90,91,
9053750,00000204,false,Rx,0,8,3A,39,40,41,44,00,00,00,
9055799,00000205,false,Rx,0,8,3A,39,40,4F,45,00,00,00,
9057762,00000201,false,Rx,0,8,3A,3A,40,48,43,00,00,00,
9057964,00000202,false,Rx,0,8,39,3A,40,49,42,00,00,00,
9058671,00000203,false,Rx,0,8,3A,39,40,4C,41,00,00,00,
9059799,00000104,false,Rx,0,8,00,00,00,10,00,00,A0,52,
9060258,00000200,false,Rx,0,8,39,3A,40,44,43,00,00,00,
9061884,00000105,false,Rx,0,8,00,00,00,10,00,00,A0,37,
9063849,00000101,false,Rx,0,8,00,00,00,10,00,00,A0,BE,
9064059,00000102,false,Rx,0,8,00,00,00,10,00,00,A0,11,
9064676,00000103,false,Rx,0,8,00,00,00,10,00,00,A0,74,
9066141,00000100,false,Rx,0,8,00,00,00,10,00,00,A0,DB,
9097762,000001D4,false,Rx,0,8,22,99,29,22,22,22,99,99,
9099555,000001D5,false,Rx,0,8,22,99,29,22,22,22,99,99,
9101781,000001D1,false,Rx,0,8,22,99,29,22,22,22,99,99,
9101990,000001D2,false,Rx,0,8,22,99,29,22,22,22,99,99,
9102689,000001D3,false,Rx,0,8,22,99,29,22,22,22,99,99,
9104253,000001D0,false,Rx,0,8,22,99,29,22,22,22,99,99,
9109816,00000104,false,Rx,0,8,00,00,00,10,00,00,B0,9F,
9111610,00000105,false,Rx,0,8,00,00,00,10,00,00,B0,FA,
9113822,00000101,false,Rx,0,8,00,00,00,10,00,00,B0,73,
9114116,00000102,false,Rx,0,8,00,00,00,10,00,00,B0,DC,
9114732,00000103,false,Rx,0,8,00,00,00,10,00,00,B0,B9,
9116280,00000100,false,Rx,0,8,00,00,00,10,00,00,B0,16,
9129745,000001C4,false,Rx,0,8,22,22,92,22,22,22,42,22,
9131623,000001C5,false,Rx,0,8,22,22,92,22,22,22,42,22,
9133918,000001C1,false,Rx,0,8,22,22,92,22,22,22,42,22,
9134128,000001C2,false,Rx,0,8,22,22,92,22,22,22,42,22,
9134662,000001C3,false,Rx,0,8,22,22,92,22,22,22,42,22,
9136292,000001C0,false,Rx,0,8,22,22,92,22,22,22,42,22,
9153803,00000204,false,Rx,0,8,3A,39,40,41,44,00,00,00,
9155596,00000205,false,Rx,0,8,3A,39,40,4F,45,00,00,00,
9157985,00000201,false,Rx,0,8,3A,3A,40,48,43,00,00,00,
9158187,00000202,false,Rx,0,8,39,3A,40,49,42,00,00,00,
9158638,00000203,false,Rx,0,8,3A,39,40,4C,41,00,00,00,
9159763,00000104,false,Rx,0,8,00,00,00,10,00,00,C0,C6,
9160306,00000200,false,Rx,0,8,39,3A,40,44,43,00,00,00,
9161678,00000105,false,Rx,0,8,00,00,00,10,00,00,C0,A3,
9163984,00000101,false,Rx,0,8,00,00,00,10,00,00,C0,2A,
9164270,00000102,false,Rx,0,8,00,00,00,10,00,00,C0,85,
9164637,00000103,false,Rx,0,8,00,00,00,10,00,00,C0,E0,
9166350,00000100,false,Rx,0,8,00,00,00,10,00,00,C0,4F,
9209804,00000104,false,Rx,0,8,00,00,00,10,00,00,D0,0B,
9211681,00000105,false,Rx,0,8,00,00,00,10,00,00,D0,6E,
9214063,00000101,false,Rx,0,8,00,00,00,10,00,00,D0,E7,
9214266,00000102,false,Rx,0,8,00,00,00,10,00,00,D0,48,
9214634,00000103,false,Rx,0,8,00,00,00,10,00,00,D0,2D,
9216430,00000100,false,Rx,0,8,00,00,00,10,00,00,D0,82,
9253882,00000204,false,Rx,0,8,3A,39,40,41,44,00,00,00,
9255594,00000205,false,Rx,0,8,3A,39,40,4F,45,00,00,00,
